;$FILEVERSION=1.1
;$STARTTIME=44937.5494222917
;
;   Start time: 1/11/2023 13:11:10.086.0
;   Generated by PCAN-View v4.3.4.615
;
;   Message Number
;   |         Time Offset (ms)
;   |         |        Type
;   |         |        |        ID (hex)
;   |         |        |        |     Data Length
;   |         |        |        |     |   Data Bytes (hex) ...
;   |         |        |        |     |   |
;---+--   ----+----  --+--  ----+---  +  -+ -- -- -- -- -- -- --
     1)         0.0  Rx         0540  8  F0 00 FF 00 FE 00 10 2F 
     2)         0.2  Rx         0280  8  01 00 00 00 27 00 1E 27 
     3)         0.5  Rx         0288  8  8A 51 10 04 00 6D 8C 8D 
     4)         0.8  Rx         0380  8  00 51 00 7D 20 00 00 14 
     5)         1.1  Rx         05E0  8  20 00 00 00 00 00 80 00 
     6)         1.4  Rx         0488  8  64 27 8D 80 FE FF FF B0 
     7)         1.6  Rx         0050  4  00 A4 78 DC 
     8)         2.0  Rx         01A0  8  00 42 00 00 00 FE 00 54 
     9)         2.2  Rx         01AC  8  B2 0A 00 00 69 01 02 D2 
    10)         2.6  Rx         04A0  8  00 00 00 00 00 00 00 00 
    11)         2.9  Rx         04A8  8  12 00 00 10 00 00 A0 A2 
    12)         3.2  Rx         05A0  8  7E 00 00 A2 00 00 10 AB 
    13)         3.8  Rx         00C2  8  00 80 00 80 80 8A 00 75 
    14)         4.4  Rx         0570  5  C7 A0 A0 00 80 
    15)         4.7  Rx         0520  8  57 C4 00 77 28 4F 33 03 
    16)         5.0  Rx         00D0  6  56 50 0A 0C 00 00 
    17)         5.4  Rx         03D0  6  01 82 00 10 00 00 
    18)         5.6  Rx         03D2  7  0A 00 00 20 00 06 53 
    19)         6.0  Rx         0440  8  00 80 00 FE 80 00 80 00 
    20)        10.0  Rx         0540  8  00 00 FF 00 FE 00 10 2F 
    21)        15.3  Rx         0320  8  20 00 20 01 00 08 00 85 
    22)        15.8  Rx         0280  8  01 00 00 00 27 00 1E 27 
    23)        16.1  Rx         0440  8  00 80 00 FE 80 00 88 00 
    24)        16.4  Rx         0288  8  E8 51 10 04 00 6D 8C 8D 
    25)        16.6  Rx         0380  8  00 51 00 7D 20 00 00 14 
    26)        16.8  Rx         0390  8  6A 40 50 00 00 00 20 00 
    27)        17.1  Rx         0488  8  14 27 8D 80 FE FF FF C0 
    28)        17.4  Rx         038A  4  95 01 94 00 
    29)        17.7  Rx         01A0  8  00 42 00 00 00 FE 00 55 
    30)        18.0  Rx         04A0  8  00 00 00 00 00 00 00 00 
    31)        18.6  Rx         0480  8  54 2C 00 00 19 40 04 25 
    32)        18.8  Rx         0284  6  07 07 00 00 00 00 
    33)        19.3  Rx         0588  8  1B 2C 80 00 00 80 00 00 
    34)        19.6  Rx         00C2  8  00 80 00 80 80 9A 00 65 
    35)        19.9  Rx         056A  8  01 00 08 00 1A 00 02 11 
    36)        20.2  Rx         0540  8  10 00 FF 00 FE 00 10 2F 
    37)        20.4  Rx         05D0  8  C0 04 51 AF 29 48 01 00 
    38)        20.6  Rx         00D0  6  66 60 0A 0C 00 00 
    39)        20.9  Rx         05C0  8  CB 68 80 A6 21 01 88 2D 
    40)        21.5  Rx         0280  8  01 00 00 00 27 00 1E 27 
    41)        21.8  Rx         0288  8  E8 51 10 04 00 6D 8C 8D 
    42)        22.1  Rx         0380  8  00 51 00 7D 20 00 00 14 
    43)        22.4  Rx         05E0  8  20 00 00 00 00 00 80 00 
    44)        22.6  Rx         0488  8  04 27 8D 80 FE FF FF D0 
    45)        22.8  Rx         0050  4  00 A4 88 2C 
    46)        23.2  Rx         01A0  8  00 42 00 00 00 FE 00 56 
    47)        23.5  Rx         01AC  8  B3 0B 00 00 69 01 02 D2 
    48)        23.8  Rx         04A0  8  00 00 00 00 00 00 00 00 
    49)        24.2  Rx         04A8  8  0C 00 00 10 00 00 B0 AC 
    50)        24.5  Rx         05A0  8  7D 00 00 B2 00 00 10 AB 
    51)        25.1  Rx         00C2  8  00 80 00 80 80 AA 00 55 
    52)        25.4  Rx         05DC  8  77 18 C0 3F 1E 00 30 42 
    53)        25.6  Rx         00D0  6  76 70 0A 0C 00 00 
    54)        25.9  Rx         03D0  6  01 82 00 10 00 00 
    55)        26.2  Rx         0440  8  00 80 00 FE 80 00 90 00 
    56)        26.4  Rx         03D2  7  0B 00 00 20 00 06 53 
    57)        30.0  Rx         0540  8  20 00 FF 00 FE 00 10 2F 
    58)        36.0  Rx         0440  8  00 80 00 FE 80 00 98 00 
    59)        36.2  Rx         0320  8  20 00 20 01 00 09 00 85 
    60)        36.8  Rx         0280  8  01 00 00 00 27 00 1E 27 
    61)        37.1  Rx         0288  8  E8 51 10 04 00 6D 8C 8D 
    62)        37.5  Rx         0380  8  00 51 00 7D 20 00 00 14 
    63)        37.8  Rx         0488  8  34 27 8D 80 FE FF FF E0 
    64)        38.0  Rx         038A  4  A5 01 A4 00 
    65)        38.4  Rx         01A0  8  00 42 00 00 00 FE 00 57 
    66)        38.7  Rx         04A0  8  00 00 00 00 00 00 00 00 
    67)        39.5  Rx         0480  8  84 2C 00 00 19 40 04 F5 
    68)        39.7  Rx         0284  6  08 08 00 00 00 00 
    69)        40.0  Rx         0588  8  1B 2C 80 00 00 80 00 00 
    70)        40.3  Rx         0540  8  30 00 FF 00 FE 00 10 26 
    71)        40.5  Rx         00C2  8  00 80 00 80 80 BA 00 45 
    72)        40.8  Rx         056A  8  31 00 08 00 1A 00 02 21 
    73)        41.0  Rx         00D0  6  86 80 0A 0C 00 00 
    74)        41.2  Rx         05C0  8  CC 68 80 A6 21 01 88 2A 
    75)        41.8  Rx         0280  8  01 00 00 00 27 00 1E 27 
    76)        42.1  Rx         0288  8  E8 51 10 04 00 6D 8C 8D 
    77)        42.4  Rx         0380  8  00 51 00 7D 20 00 00 14 
    78)        42.7  Rx         05E0  8  20 00 00 00 00 00 80 00 
    79)        43.0  Rx         0488  8  24 27 8D 80 FE FF FF F0 
    80)        43.3  Rx         01A0  8  00 42 00 00 00 FE 00 58 
    81)        43.6  Rx         01AC  8  B4 0C 00 00 69 01 02 D2 
    82)        43.9  Rx         04A0  8  00 00 00 00 00 00 00 00 
    83)        44.2  Rx         0050  4  00 A4 98 3C 
    84)        44.6  Rx         04A8  8  06 80 00 10 00 00 C0 56 
    85)        44.8  Rx         05A0  8  7D 00 00 C2 00 00 10 AB 
    86)        45.5  Rx         00C2  8  00 80 00 80 80 CA 00 35 
    87)        45.7  Rx         00D0  6  95 90 09 0C 00 00 
    88)        46.0  Rx         0440  8  00 80 00 FE 80 00 A0 00 
    89)        46.2  Rx         03D0  6  01 82 00 10 00 00 
    90)        46.4  Rx         03D2  7  0C 00 00 20 00 06 53 
    91)        46.9  Rx         0320  8  20 00 20 01 00 0A 00 85 
    92)        47.3  Rx         0280  8  01 00 00 00 27 00 1E 27 
    93)        47.6  Rx         0288  8  2C 51 10 04 00 6D 8C 8D 
    94)        47.9  Rx         0380  8  00 51 00 7D 20 00 00 14 
    95)        48.2  Rx         0488  8  2B 27 8D 80 FE FF 00 00 
    96)        48.3  Rx         0572  1  07 
    97)        50.0  Rx         0540  8  40 00 FF 00 FE 00 10 26 
    98)        55.9  Rx         0440  8  00 80 00 FE 80 00 A8 00 
    99)        58.2  Rx         01A0  8  00 42 00 00 00 FE 00 59 
   100)        58.5  Rx         04A0  8  00 00 00 00 00 00 00 00 
   101)        58.7  Rx         038A  4  B5 01 B4 00 
   102)        59.6  Rx         0480  8  84 2C 00 00 19 40 04 F5 
   103)        59.8  Rx         0284  6  09 09 00 00 00 00 
   104)        60.1  Rx         0540  8  50 00 FF 00 FE 00 10 26 
   105)        60.3  Rx         0588  8  1B 2C 80 00 00 80 00 00 
   106)        60.5  Rx         00C2  8  00 80 00 80 80 DA 00 25 
   107)        60.7  Rx         056A  8  21 00 08 00 1A 00 02 31 
   108)        61.0  Rx         00D0  6  A5 A0 09 0C 00 00 
   109)        61.4  Rx         05C0  8  CD 68 80 A6 21 01 88 2B 
   110)        62.0  Rx         0280  8  01 00 00 00 27 00 1E 27 
   111)        62.2  Rx         0288  8  2C 51 10 04 00 6D 8C 8D 
   112)        62.5  Rx         0380  8  00 51 00 7D 20 00 00 14 
   113)        62.8  Rx         05E0  8  20 00 00 00 00 00 80 00 
   114)        63.1  Rx         0488  8  10 27 8D 80 FE FF 2B 10 
   115)        63.5  Rx         01A0  8  00 42 00 00 00 FE 00 5A 
   116)        63.7  Rx         01AC  8  B5 0D 00 00 69 01 02 D2 
   117)        64.1  Rx         04A0  8  00 00 00 00 00 00 00 00 
   118)        64.4  Rx         04A8  8  06 80 00 10 00 00 D0 46 
   119)        64.6  Rx         0050  4  00 A4 A8 0C 
   120)        65.0  Rx         05A0  8  7D 00 00 D2 00 00 10 AB 
   121)        65.6  Rx         00C2  8  00 80 00 80 80 EA 00 15 
   122)        65.8  Rx         00D0  6  B5 B0 09 0C 00 00 
   123)        66.1  Rx         0440  8  00 80 00 FE 80 00 B0 00 
   124)        66.3  Rx         03D0  6  01 82 00 10 00 00 
   125)        66.5  Rx         03D2  7  0D 00 00 20 00 06 53 
   126)        66.8  Rx         0320  8  20 00 20 01 00 0B 00 85 
   127)        67.4  Rx         0280  8  01 00 00 00 27 00 1E 27 
   128)        67.7  Rx         0288  8  2C 51 10 04 00 6D 8C 8D 
   129)        68.1  Rx         0380  8  00 51 00 7D 20 00 00 14 
   130)        68.3  Rx         0488  8  3F 27 8D 80 FE FF 34 20 
   131)        68.5  Rx         038A  4  C5 01 C4 00 
   132)        68.9  Rx         01A0  8  00 42 00 00 00 FE 00 5B 
   133)        69.3  Rx         04A0  8  00 00 00 00 00 00 00 00 
   134)        70.1  Rx         0540  8  60 00 FF 00 FE 00 10 26 
   135)        75.9  Rx         0440  8  00 80 00 FE 80 00 B8 00 
   136)        79.8  Rx         0480  8  84 2C 00 00 19 40 04 F5 
   137)        80.0  Rx         0540  8  70 00 FF 00 FE 00 10 2F 
   138)        80.2  Rx         0284  6  0A 0A 00 00 00 00 
   139)        80.4  Rx         0588  8  1B 2C 80 00 00 80 00 00 
   140)        81.5  Rx         00C2  8  00 80 00 80 80 FA 00 05 
   141)        81.7  Rx         056A  8  51 00 08 00 1A 00 02 41 
   142)        82.0  Rx         00D0  6  C5 C0 09 0C 00 00 
   143)        82.3  Rx         05C0  8  CE 68 80 A6 21 01 88 28 
   144)        83.0  Rx         0280  8  01 00 00 00 27 00 1E 27 
   145)        83.3  Rx         0288  8  2C 51 10 04 00 6D 8C 8D 
   146)        83.6  Rx         0380  8  00 51 00 7D 20 00 00 14 
   147)        83.9  Rx         05E0  8  20 00 00 00 00 00 80 00 
   148)        84.3  Rx         0488  8  1B 27 8D 80 FE FF 00 30 
   149)        84.6  Rx         01A0  8  00 42 00 00 00 FE 00 5C 
   150)        84.8  Rx         01AC  8  B6 0E 00 00 69 01 02 D2 
   151)        85.1  Rx         04A0  8  00 00 00 00 00 00 00 00 
   152)        85.5  Rx         04A8  8  19 00 00 10 00 00 E0 E9 
   153)        85.8  Rx         05A0  8  7E 00 00 E2 00 00 10 AB 
   154)        85.9  Rx         0050  4  00 A4 B8 1C 
   155)        86.2  Rx         0440  8  00 80 00 FE 80 00 C0 00 
   156)        86.4  Rx         05C6  8  00 20 00 00 00 00 00 13 
   157)        86.8  Rx         0550  3  80 80 00 
   158)        87.2  Rx         00C2  8  00 80 00 80 80 0A 00 F5 
   159)        87.5  Rx         00D0  6  D5 D0 09 0C 00 00 
   160)        87.8  Rx         03D0  6  01 82 00 10 00 00 
   161)        88.1  Rx         03D2  7  0E 00 00 20 00 06 53 
   162)        88.4  Rx         0320  8  20 00 20 01 00 0C 00 85 
   163)        89.1  Rx         0280  8  01 00 00 00 27 00 1E 27 
   164)        89.5  Rx         0288  8  64 51 10 04 00 6D 8C 8D 
   165)        89.8  Rx         0380  8  00 51 00 7D 20 00 00 14 
   166)        90.0  Rx         0488  8  4D 27 8D 80 FE FF 26 40 
   167)        90.3  Rx         0540  8  80 00 FF 00 FE 00 10 2F 
   168)        90.4  Rx         038A  4  D5 01 D4 00 
   169)        90.7  Rx         01A0  8  00 42 00 00 00 FE 00 5D 
   170)        90.9  Rx         04A0  8  00 00 00 00 00 00 00 00 
   171)        91.6  Rx         0480  8  84 2C 00 00 19 40 04 F5 
   172)        91.8  Rx         0284  6  0B 0B 00 00 00 00 
   173)        92.2  Rx         0588  8  1B 2C 80 00 00 80 00 00 
   174)        92.5  Rx         00C2  8  00 80 00 80 80 1A 00 E5 
   175)        92.7  Rx         056A  8  41 00 08 00 1A 00 02 51 
   176)        93.0  Rx         00D0  6  E5 E0 09 0C 00 00 
   177)        95.9  Rx         0440  8  00 80 00 FE 80 00 C8 00 
   178)        99.9  Rx         0540  8  90 00 FF 00 FE 00 10 2F 
   179)       103.2  Rx         05C0  8  CF 68 80 A6 21 01 88 29 
   180)       103.8  Rx         0280  8  01 00 00 00 27 00 1E 27 
   181)       104.5  Rx         0288  8  64 51 10 04 00 6D 8C 8D 
   182)       104.8  Rx         0380  8  00 51 00 7D 20 00 00 14 
   183)       105.1  Rx         05E0  8  20 00 00 00 00 00 80 00 
   184)       105.4  Rx         0488  8  84 27 8D 80 FE FF FF 50 
   185)       105.7  Rx         01A0  8  00 42 00 00 00 FE 00 5E 
   186)       106.0  Rx         0440  8  00 80 00 FE 80 00 D0 00 
   187)       106.3  Rx         01AC  8  B7 0F 00 00 69 01 02 D2 
   188)       106.5  Rx         04A0  8  00 00 00 00 00 00 00 00 
   189)       106.8  Rx         04A8  8  00 00 00 10 00 00 F0 E0 
   190)       107.0  Rx         05A0  8  7D 00 00 F2 00 00 10 AB 
   191)       107.5  Rx         0050  4  00 A4 C8 6C 
   192)       107.8  Rx         00C2  8  00 80 00 80 80 2A 00 D5 
   193)       108.1  Rx         0570  5  C7 A0 A0 00 80 
   194)       108.4  Rx         0420  8  9A 7B 7B 00 00 00 FF 00 
   195)       108.7  Rx         00D0  6  F5 F0 09 0C 00 00 
   196)       109.1  Rx         03D0  6  01 82 00 10 00 00 
   197)       109.5  Rx         03D2  7  0F 00 00 20 00 06 53 
   198)       109.8  Rx         0320  8  20 00 20 01 00 0D 00 85 
   199)       110.0  Rx         0540  8  A0 00 FF 00 FE 00 10 2F 
   200)       110.4  Rx         0280  8  01 00 00 00 27 00 1E 27 
   201)       110.6  Rx         0288  8  64 51 10 04 00 6D 8C 8D 
   202)       111.0  Rx         0380  8  00 51 00 7D 20 00 00 14 
   203)       111.3  Rx         0390  8  6A 40 50 00 00 00 20 00 
   204)       111.6  Rx         0488  8  B4 27 8D 80 FE FF FF 60 
   205)       111.8  Rx         038A  4  E5 01 E4 00 
   206)       112.2  Rx         01A0  8  00 42 00 00 00 FE 00 5F 
   207)       112.5  Rx         04A0  8  00 00 00 00 00 00 00 00 
   208)       113.1  Rx         0480  8  C2 2C 00 00 19 40 04 B3 
   209)       113.4  Rx         0284  6  0C 0C 00 00 00 00 
   210)       113.7  Rx         0588  8  1B 2C 80 00 00 80 00 00 
   211)       114.1  Rx         00C2  8  00 80 00 80 80 3A 00 C5 
   212)       114.3  Rx         056A  8  71 00 08 00 1A 00 02 61 
   213)       114.6  Rx         05D0  8  C0 04 51 AF 29 48 01 00 
   214)       114.9  Rx         00D0  6  06 00 0A 0C 00 00 
   215)       115.2  Rx         05C0  8  C0 68 80 A6 21 01 88 26 
   216)       115.9  Rx         0440  8  00 80 00 FE 80 00 D8 00 
   217)       120.0  Rx         0540  8  B0 00 FF 00 FE 00 10 26 
   218)       125.5  Rx         0280  8  01 00 00 00 27 00 1E 27 
   219)       125.8  Rx         0288  8  64 51 10 04 00 6D 8C 8D 
   220)       126.0  Rx         0440  8  00 80 00 FE 80 00 E0 00 
   221)       126.3  Rx         0380  8  00 51 00 7D 20 00 00 14 
   222)       126.6  Rx         05E0  8  20 00 00 00 00 00 80 00 
   223)       126.8  Rx         0488  8  A4 27 8D 80 FE FF FF 70 
   224)       127.1  Rx         01A0  8  00 42 00 00 00 FE 00 50 
   225)       127.4  Rx         01AC  8  B8 00 00 00 69 01 02 D2 
   226)       127.7  Rx         04A0  8  00 00 00 00 00 00 00 00 
   227)       128.0  Rx         04A8  8  0C 80 00 10 00 00 00 9C 
   228)       128.3  Rx         05A0  8  7D 00 00 02 00 00 10 AB 
   229)       128.8  Rx         0050  4  00 A4 D8 7C 
   230)       129.3  Rx         00C2  8  00 80 00 80 80 4A 00 B5 
   231)       129.6  Rx         05DC  8  77 18 C0 3F 1E 00 30 42 
   232)       129.8  Rx         00D0  6  17 10 0B 0C 00 00 
   233)       130.1  Rx         0540  8  C0 00 FF 00 FE 00 10 26 
   234)       130.3  Rx         03D0  6  01 82 00 10 00 00 
   235)       130.6  Rx         03D2  7  00 00 00 20 00 07 53 
   236)       131.0  Rx         0320  8  20 00 20 01 00 0E 00 85 
   237)       131.8  Rx         0280  8  01 00 00 00 27 00 1E 27 
   238)       132.1  Rx         0288  8  8A 51 10 04 00 6D 8C 8D 
   239)       132.6  Rx         0380  8  00 51 00 7D 20 00 00 14 
   240)       132.9  Rx         0488  8  54 27 8D 80 FE FF FF 80 
   241)       133.1  Rx         038A  4  F5 01 F4 00 
   242)       133.6  Rx         01A0  8  00 42 00 00 00 FE 00 51 
   243)       133.9  Rx         04A0  8  00 00 00 00 00 00 00 00 
   244)       134.5  Rx         0480  8  C2 2C 00 00 19 40 04 B3 
   245)       134.7  Rx         0284  6  0D 0D 00 00 00 00 
   246)       135.1  Rx         0588  8  1B 2C 80 00 00 80 00 00 
   247)       135.4  Rx         00C2  8  00 80 00 80 80 5A 00 A5 
   248)       135.7  Rx         056A  8  61 00 08 00 1A 00 02 71 
   249)       135.9  Rx         0440  8  00 80 00 FE 80 00 E8 00 
   250)       136.1  Rx         00D0  6  27 20 0B 0C 00 00 
   251)       136.4  Rx         05C0  8  C1 68 80 A6 21 01 88 27 
   252)       140.0  Rx         0540  8  D0 00 FF 00 FE 00 10 26 
   253)       145.9  Rx         0440  8  00 80 00 FE 80 00 F0 00 
   254)       146.2  Rx         0280  8  01 00 00 00 27 00 1E 27 
   255)       146.5  Rx         0288  8  8A 51 10 04 00 6D 8C 8D 
   256)       146.8  Rx         0380  8  00 51 00 7D 20 00 00 14 
   257)       147.1  Rx         05E0  8  20 00 00 00 00 00 80 00 
   258)       147.5  Rx         0488  8  44 27 8D 80 FE FF FF 90 
   259)       147.8  Rx         01A0  8  00 42 00 00 00 FE 00 52 
   260)       148.1  Rx         01AC  8  B9 01 00 00 69 01 02 D2 
   261)       148.4  Rx         04A0  8  00 00 00 00 00 00 00 00 
   262)       148.7  Rx         04A8  8  0C 00 00 10 00 00 10 0C 
   263)       149.1  Rx         05A0  8  7D 00 00 12 00 00 10 AB 
   264)       149.7  Rx         00C2  8  00 80 00 80 80 6A 00 95 
   265)       149.9  Rx         0050  4  00 A4 E8 4C 
   266)       150.1  Rx         0540  8  E0 00 FF 00 FE 00 10 26 
   267)       150.4  Rx         00D0  6  30 30 0C 0C 00 00 
   268)       150.5  Rx         03D0  6  01 82 00 10 00 00 
   269)       150.8  Rx         03D2  7  01 00 00 20 00 06 53 
   270)       151.5  Rx         0320  8  20 00 20 01 00 0F 00 85 
   271)       151.6  Rx         0572  1  07 
   272)       152.1  Rx         0280  8  01 00 00 00 27 00 1E 27 
   273)       152.3  Rx         0288  8  8A 51 10 04 00 6D 8C 8D 
   274)       152.6  Rx         0380  8  00 51 00 7D 20 00 00 14 
   275)       152.9  Rx         0488  8  74 27 8D 80 FE FF FF A0 
   276)       153.2  Rx         01A0  8  00 42 00 00 00 FE 00 53 
   277)       153.6  Rx         04A0  8  00 00 00 00 00 00 00 00 
   278)       153.8  Rx         038A  4  05 01 04 00 
   279)       154.8  Rx         0480  8  C2 2C 00 00 19 40 04 B3 
   280)       155.1  Rx         0284  6  0E 0E 00 00 00 00 
   281)       155.5  Rx         0588  8  1B 2C 80 00 00 80 00 00 
   282)       155.7  Rx         00C2  8  00 80 00 80 80 7A 00 85 
   283)       156.0  Rx         0440  8  00 80 00 FE 80 00 F8 00 
   284)       156.2  Rx         056A  8  91 00 08 00 1A 00 02 81 
   285)       156.5  Rx         00D0  6  40 40 0C 0C 00 00 
   286)       156.7  Rx         05C0  8  C2 68 80 A6 21 01 88 24 
   287)       157.3  Rx         0280  8  01 00 00 00 27 00 1E 27 
   288)       157.6  Rx         0288  8  8A 51 10 04 00 6D 8C 8D 
   289)       157.9  Rx         0380  8  00 51 00 7D 20 00 00 14 
   290)       158.2  Rx         05E0  8  20 00 00 00 00 00 80 00 
   291)       158.5  Rx         0488  8  64 27 8D 80 FE FF FF B0 
   292)       158.8  Rx         01A0  8  00 42 00 00 00 FE 00 54 
   293)       159.2  Rx         01AC  8  BB 02 00 00 69 01 03 D2 
   294)       159.6  Rx         04A0  8  00 00 00 00 00 00 00 00 
   295)       159.9  Rx         04A8  8  06 80 00 10 00 00 20 B6 
   296)       160.1  Rx         0540  8  F0 00 FF 00 FE 00 10 2F 
   297)       160.3  Rx         05A0  8  7D 00 00 22 00 00 10 AB 
   298)       165.9  Rx         0440  8  00 80 00 FE 80 00 80 00 
   299)       169.9  Rx         0540  8  00 00 FF 00 FE 00 10 2F 
   300)       170.5  Rx         00C2  8  00 80 00 80 80 8A 00 75 
   301)       170.6  Rx         0050  4  00 A4 F8 5C 
   302)       171.0  Rx         00D0  6  51 50 0D 0C 00 00 
   303)       171.4  Rx         03D0  6  01 82 00 10 00 00 
   304)       171.7  Rx         03D2  7  02 00 00 20 00 06 53 
   305)       172.0  Rx         0320  8  20 00 20 01 00 00 00 85 
   306)       172.6  Rx         0280  8  01 00 00 00 27 00 1E 27 
   307)       172.8  Rx         0288  8  E8 51 10 04 00 6D 8C 8D 
   308)       173.2  Rx         0380  8  00 51 00 7D 20 00 00 14 
   309)       173.5  Rx         0488  8  14 27 8D 80 FE FF FF C0 
   310)       173.8  Rx         01A0  8  00 42 00 00 00 FE 00 55 
   311)       174.2  Rx         04A0  8  00 00 00 00 00 00 00 00 
   312)       174.3  Rx         038A  4  15 01 14 00 
   313)       175.0  Rx         0480  8  C2 2C 00 00 19 40 04 B3 
   314)       175.3  Rx         0284  6  0F 0F 00 00 00 00 
   315)       175.6  Rx         0588  8  1B 2C 80 00 00 80 00 00 
   316)       175.9  Rx         00C2  8  00 80 00 80 80 9A 00 65 
   317)       176.1  Rx         0440  8  00 80 00 FE 80 00 88 00 
   318)       176.4  Rx         056A  8  81 00 08 00 1A 00 02 91 
   319)       176.6  Rx         00D0  6  62 60 0E 0C 00 00 
   320)       176.8  Rx         05C0  8  C3 68 80 A6 21 01 88 25 
   321)       177.5  Rx         0280  8  01 00 00 00 27 00 1E 27 
   322)       177.7  Rx         0288  8  E8 51 10 04 00 6D 8C 8D 
   323)       178.1  Rx         0380  8  00 51 00 7D 20 00 00 14 
   324)       178.3  Rx         05E0  8  20 00 00 00 00 00 80 00 
   325)       178.6  Rx         0488  8  04 27 8D 80 FE FF FF D0 
   326)       179.1  Rx         01A0  8  00 42 00 00 00 FE 00 56 
   327)       179.4  Rx         01AC  8  BA 03 00 00 69 01 03 D2 
   328)       179.7  Rx         04A0  8  00 00 00 00 00 00 00 00 
   329)       180.0  Rx         04A8  8  00 00 00 10 00 00 30 20 
   330)       180.3  Rx         0540  8  10 00 FF 00 FE 00 10 2F 
   331)       180.5  Rx         05A0  8  7D 00 00 32 00 00 10 AB 
   332)       185.9  Rx         0440  8  00 80 00 FE 80 00 90 00 
   333)       190.0  Rx         0540  8  20 00 FF 00 FE 00 10 2F 
   334)       190.2  Rx         05C6  8  00 20 00 00 00 00 00 13 
   335)       190.8  Rx         00C2  8  00 80 00 80 80 AA 00 55 
   336)       191.0  Rx         0050  4  00 A4 08 AC 
   337)       191.3  Rx         00D0  6  73 70 0F 0C 00 00 
   338)       191.7  Rx         03D0  6  01 82 00 10 00 00 
   339)       192.0  Rx         03D2  7  03 00 00 20 00 06 53 
   340)       192.3  Rx         0320  8  20 00 20 01 00 01 00 85 
   341)       192.9  Rx         05D2  8  00 00 00 00 00 57 56 57 
   342)       193.2  Rx         0280  8  01 00 00 00 27 00 1E 27 
   343)       193.5  Rx         0288  8  E8 51 10 04 00 6D 8C 8D 
   344)       193.8  Rx         0380  8  00 51 00 7D 20 00 00 14 
   345)       194.2  Rx         0488  8  34 27 8D 80 FE FF FF E0 
   346)       194.5  Rx         01A0  8  00 42 00 00 00 FE 00 57 
   347)       194.7  Rx         04A0  8  00 00 00 00 00 00 00 00 
   348)       194.9  Rx         038A  4  25 01 24 00 
   349)       195.6  Rx         0284  6  00 00 00 00 00 00 
   350)       195.9  Rx         0480  8  1C 2C 00 00 19 40 04 6D 
   351)       196.2  Rx         0440  8  00 80 00 FE 80 00 98 00 
   352)       196.4  Rx         00C2  8  00 80 00 80 80 BA 00 45 
   353)       196.6  Rx         0588  8  1B 2C 80 00 00 80 00 00 
   354)       196.9  Rx         056A  8  B1 00 08 00 1A 00 02 A1 
   355)       197.1  Rx         00D0  6  83 80 0F 0C 00 00 
   356)       197.4  Rx         05C0  8  C4 68 80 A6 21 01 88 22 
   357)       198.1  Rx         0280  8  01 00 00 00 27 00 1E 27 
   358)       198.3  Rx         0288  8  E8 51 10 04 00 6D 8C 8D 
   359)       198.7  Rx         0380  8  00 51 00 7D 20 00 00 14 
   360)       199.1  Rx         05E0  8  20 00 00 00 00 00 80 00 
   361)       199.4  Rx         0488  8  24 27 8D 80 FE FF FF F0 
   362)       199.7  Rx         01A0  8  00 42 00 00 00 FE 00 58 
   363)       200.0  Rx         01AC  8  BC 04 00 00 69 01 02 D2 
   364)       200.2  Rx         0540  8  30 00 FF 00 FE 00 10 26 
   365)       200.5  Rx         04A0  8  00 00 00 00 00 00 00 00 
   366)       200.7  Rx         04A8  8  19 00 00 10 00 00 40 49 
   367)       201.0  Rx         05A0  8  7D 00 00 42 00 00 10 AB 
   368)       205.9  Rx         0440  8  00 80 00 FE 80 00 A0 00 
   369)       209.9  Rx         0540  8  40 00 FF 00 FE 00 10 26 
   370)       211.2  Rx         00C2  8  00 80 00 80 80 CA 00 35 
   371)       211.5  Rx         0570  5  C7 A0 A0 00 80 
   372)       211.8  Rx         0520  8  02 02 00 77 28 4F 33 03 
   373)       212.1  Rx         00D0  6  8C 90 10 0C 00 00 
   374)       212.4  Rx         03D0  6  01 82 00 10 00 00 
   375)       212.6  Rx         0050  4  00 A4 18 BC 
   376)       213.0  Rx         03D2  7  04 00 00 20 00 07 53 
   377)       213.4  Rx         0320  8  20 00 20 01 00 02 00 85 
   378)       214.0  Rx         0280  8  01 00 00 00 27 00 1E 27 
   379)       214.3  Rx         0288  8  2C 51 10 04 00 6D 8C 8D 
   380)       214.6  Rx         0380  8  00 51 00 7D 20 00 00 14 
   381)       214.8  Rx         0390  8  6A 40 50 00 00 00 20 00 
   382)       215.1  Rx         0488  8  2B 27 8D 80 FE FF 00 00 
   383)       215.4  Rx         038A  4  35 01 34 00 
   384)       215.7  Rx         01A0  8  00 42 00 00 00 FE 00 59 
   385)       216.0  Rx         0440  8  00 80 00 FE 80 00 A8 00 
   386)       216.2  Rx         04A0  8  00 00 00 00 00 00 00 00 
   387)       216.6  Rx         0480  8  1C 2C 00 00 19 40 04 6D 
   388)       216.9  Rx         0284  6  01 01 00 00 00 00 
   389)       217.2  Rx         0588  8  1B 2C 80 00 00 80 00 00 
   390)       217.6  Rx         00C2  8  00 80 00 80 80 DA 00 25 
   391)       217.9  Rx         056A  8  A1 00 08 00 1A 00 02 B1 
   392)       218.2  Rx         05D0  8  C0 04 51 AF 29 48 01 00 
   393)       218.4  Rx         00D0  6  BC A0 10 0C 00 00 
   394)       218.8  Rx         05C0  8  C5 68 80 A6 21 01 88 23 
   395)       219.5  Rx         0280  8  01 00 00 00 27 00 1E 27 
   396)       219.8  Rx         0288  8  2C 51 10 04 00 6D 8C 8D 
   397)       220.1  Rx         0540  8  50 00 FF 00 FE 00 10 26 
   398)       220.3  Rx         0380  8  00 51 00 7D 20 00 00 14 
   399)       220.5  Rx         05E0  8  20 00 00 00 00 00 80 00 
   400)       220.8  Rx         0488  8  10 27 8D 80 FE FF 2B 10 
   401)       221.0  Rx         01A0  8  00 42 00 00 00 FE 00 5A 
   402)       221.3  Rx         01AC  8  BD 05 00 00 69 01 02 D2 
   403)       221.7  Rx         04A0  8  00 00 00 00 00 00 00 00 
   404)       221.9  Rx         04A8  8  19 00 00 10 00 00 50 59 
   405)       222.2  Rx         05A0  8  7D 00 00 52 00 00 10 AB 
   406)       222.8  Rx         00C2  8  00 80 00 80 80 EA 00 15 
   407)       223.1  Rx         05DC  8  77 18 C0 3F 1E 00 30 42 
   408)       223.4  Rx         00D0  6  AC B0 10 0C 00 00 
   409)       223.7  Rx         03D0  6  01 82 00 10 00 00 
   410)       224.1  Rx         03D2  7  05 00 00 20 00 06 53 
   411)       224.3  Rx         0050  4  00 A4 28 8C 
   412)       225.9  Rx         0440  8  00 80 00 FE 80 00 B0 00 
   413)       230.0  Rx         0540  8  60 00 FF 00 FE 00 10 26 
   414)       234.3  Rx         0320  8  20 00 20 01 00 03 00 85 
   415)       234.9  Rx         0280  8  01 00 00 00 27 00 1E 27 
   416)       235.4  Rx         0288  8  2C 51 10 04 00 6D 8C 8D 
   417)       235.7  Rx         0380  8  00 51 00 7D 20 00 00 14 
   418)       235.9  Rx         0440  8  00 80 00 FE 80 00 B8 00 
   419)       236.2  Rx         0488  8  3F 27 8D 80 FE FF 34 20 
   420)       236.4  Rx         01A0  8  00 42 00 00 00 FE 00 5B 
   421)       236.7  Rx         04A0  8  00 00 00 00 00 00 00 00 
   422)       236.8  Rx         038A  4  45 01 44 00 
   423)       237.8  Rx         0480  8  1C 2C 00 00 19 40 04 6D 
   424)       238.1  Rx         0284  6  02 02 00 00 00 00 
   425)       238.4  Rx         0588  8  1B 2C 80 00 00 80 00 00 
   426)       238.7  Rx         00C2  8  00 80 00 80 80 FA 00 05 
   427)       239.1  Rx         056A  8  D1 00 08 00 1A 00 02 C1 
   428)       239.4  Rx         00D0  6  DD C0 11 0C 00 00 
   429)       239.8  Rx         05C0  8  C6 68 80 A6 21 01 88 20 
   430)       240.0  Rx         0540  8  70 00 FF 00 FE 00 10 2F 
   431)       240.3  Rx         0280  8  01 00 00 00 27 00 1E 27 
   432)       240.6  Rx         0288  8  2C 51 10 04 00 6D 8C 8D 
   433)       240.9  Rx         0380  8  00 51 00 7D 20 00 00 14 
   434)       241.3  Rx         05E0  8  20 00 00 00 00 00 80 00 
   435)       241.6  Rx         0488  8  1B 27 8D 80 FE FF 00 30 
   436)       241.9  Rx         01A0  8  00 42 00 00 00 FE 00 5C 
   437)       242.1  Rx         01AC  8  BE 06 00 00 69 01 02 D2 
   438)       242.4  Rx         04A0  8  00 00 00 00 00 00 00 00 
   439)       242.7  Rx         04A8  8  0C 80 00 10 00 00 60 FC 
   440)       243.0  Rx         05A0  8  7D 00 00 62 00 00 10 AB 
   441)       243.6  Rx         00C2  8  00 80 00 80 80 0A 00 F5 
   442)       244.0  Rx         00D0  6  CD D0 11 0C 00 00 
   443)       244.3  Rx         03D0  6  01 82 00 10 00 00 
   444)       244.6  Rx         03D2  7  06 00 00 20 00 06 53 
   445)       244.8  Rx         0050  4  00 A4 38 9C 
   446)       245.9  Rx         0440  8  00 80 00 FE 80 00 C0 00 
   447)       249.9  Rx         0540  8  80 00 FF 00 FE 00 10 2F 
   448)       255.2  Rx         0320  8  20 00 20 01 00 04 00 85 
   449)       255.6  Rx         0572  1  07 
   450)       255.8  Rx         0440  8  00 80 00 FE 80 00 C8 00 
   451)       256.1  Rx         0280  8  01 00 00 00 27 00 1E 27 
   452)       256.3  Rx         0288  8  64 51 10 04 00 6D 8C 8D 
   453)       256.6  Rx         0380  8  00 51 00 7D 20 00 00 14 
   454)       256.9  Rx         0488  8  4D 27 8D 80 FE FF 26 40 
   455)       257.3  Rx         01A0  8  00 42 00 00 00 FE 00 5D 
   456)       257.6  Rx         04A0  8  00 00 00 00 00 00 00 00 
   457)       257.8  Rx         038A  4  55 01 54 00 
   458)       258.4  Rx         0480  8  1C 2C 00 00 19 40 04 6D 
   459)       258.7  Rx         0284  6  03 03 00 00 00 00 
   460)       259.1  Rx         0588  8  1B 2C 80 00 00 80 00 00 
   461)       259.5  Rx         00C2  8  00 80 00 80 80 1A 00 E5 
   462)       259.8  Rx         056A  8  C1 00 08 00 1A 00 02 D1 
   463)       260.0  Rx         0540  8  90 00 FF 00 FE 00 10 2F 
   464)       260.2  Rx         00D0  6  FC E0 10 0C 00 00 
   465)       260.4  Rx         07D0  8  CA 4F 33 63 B1 25 99 0A 
   466)       260.7  Rx         05C0  8  C7 68 80 A6 21 01 88 21 
   467)       261.3  Rx         0280  8  01 00 00 00 27 00 1E 27 
   468)       261.6  Rx         0288  8  64 51 10 04 00 6D 8C 8D 
   469)       261.9  Rx         0380  8  00 51 00 7D 20 00 00 14 
   470)       262.2  Rx         05E0  8  20 00 00 00 00 00 80 00 
   471)       262.4  Rx         0488  8  84 27 8D 80 FE FF FF 50 
   472)       262.7  Rx         01A0  8  00 42 00 00 00 FE 00 5E 
   473)       263.1  Rx         01AC  8  BF 07 00 00 69 01 02 D2 
   474)       263.4  Rx         04A0  8  00 00 00 00 00 00 00 00 
   475)       263.7  Rx         04A8  8  0C 00 00 10 00 00 70 6C 
   476)       264.1  Rx         05A0  8  7D 00 00 72 00 00 10 AB 
   477)       264.7  Rx         00C2  8  00 80 00 80 80 2A 00 D5 
   478)       264.9  Rx         00D0  6  EC F0 10 0C 00 00 
   479)       265.2  Rx         03D0  6  01 82 00 10 00 00 
   480)       265.5  Rx         03D2  7  07 00 00 20 00 06 53 
   481)       265.7  Rx         0050  4  00 A4 48 EC 
   482)       266.0  Rx         0440  8  00 80 00 FE 80 00 D0 00 
   483)       269.9  Rx         0540  8  A0 00 FF 00 FE 00 10 2F 
   484)       275.1  Rx         0320  8  20 00 20 01 00 05 00 85 
   485)       275.7  Rx         0280  8  01 00 00 00 27 00 1E 27 
   486)       276.0  Rx         0440  8  00 80 00 FE 80 00 D8 00 
   487)       276.2  Rx         0288  8  64 51 10 04 00 6D 8C 8D 
   488)       276.5  Rx         0380  8  00 51 00 7D 20 00 00 14 
   489)       276.7  Rx         0488  8  B4 27 8D 80 FE FF FF 60 
   490)       277.0  Rx         01A0  8  00 42 00 00 00 FE 00 5F 
   491)       277.3  Rx         04A0  8  00 00 00 00 00 00 00 00 
   492)       277.5  Rx         038A  4  65 01 64 00 
   493)       278.1  Rx         0480  8  54 2C 00 00 19 40 04 25 
   494)       278.4  Rx         0284  6  04 04 00 00 00 00 
   495)       278.8  Rx         0588  8  1B 2C 80 00 00 80 00 00 
   496)       279.2  Rx         00C2  8  00 80 00 80 80 3A 00 C5 
   497)       279.5  Rx         056A  8  F1 00 08 00 1A 00 02 E1 
   498)       279.8  Rx         00D0  6  03 00 0F 0C 00 00 
   499)       280.0  Rx         0540  8  B0 00 FF 00 FE 00 10 26 
   500)       280.3  Rx         05C0  8  C8 68 80 A6 21 01 88 2E 
   501)       280.7  Rx         0280  8  01 00 00 00 27 00 1E 27 
   502)       281.0  Rx         0288  8  64 51 10 04 00 6D 8C 8D 
   503)       281.4  Rx         0380  8  00 51 00 7D 20 00 00 14 
   504)       281.7  Rx         05E0  8  20 00 00 00 00 00 80 00 
   505)       281.9  Rx         0488  8  A4 27 8D 80 FE FF FF 70 
   506)       282.2  Rx         01A0  8  00 42 00 00 00 FE 00 50 
   507)       282.5  Rx         01AC  8  B0 08 00 00 69 01 02 D2 
   508)       282.8  Rx         04A0  8  00 00 00 00 00 00 00 00 
   509)       283.1  Rx         04A8  8  0C 00 00 10 00 00 80 9C 
   510)       283.5  Rx         05A0  8  7D 00 00 82 00 00 10 AB 
   511)       284.1  Rx         05C6  8  00 20 00 00 00 00 00 13 
   512)       284.4  Rx         00C2  8  00 80 00 80 80 4A 00 B5 
   513)       284.6  Rx         00D0  6  13 10 0F 0C 00 00 
   514)       285.0  Rx         03D0  6  01 82 00 10 00 00 
   515)       285.3  Rx         03D2  7  08 00 00 20 00 06 53 
   516)       285.5  Rx         0050  4  00 A4 58 FC 
   517)       285.7  Rx         0550  3  80 80 00 
   518)       286.0  Rx         0440  8  00 80 00 FE 80 00 E0 00 
   519)       289.9  Rx         0540  8  C0 00 FF 00 FE 00 10 26 
   520)       295.8  Rx         0440  8  00 80 00 FE 80 00 E8 00 
   521)       296.4  Rx         0320  8  20 00 20 01 00 06 00 85 
   522)       296.7  Rx         0280  8  01 00 00 00 27 00 1E 27 
   523)       297.0  Rx         0288  8  8A 51 10 04 00 6D 8C 8D 
   524)       297.4  Rx         0380  8  00 51 00 7D 20 00 00 14 
   525)       297.7  Rx         0488  8  54 27 8D 80 FE FF FF 80 
   526)       297.9  Rx         038A  4  75 01 74 00 
   527)       298.3  Rx         01A0  8  00 42 00 00 00 FE 00 51 
   528)       298.6  Rx         04A0  8  00 00 00 00 00 00 00 00 
   529)       299.3  Rx         0480  8  54 2C 00 00 19 40 04 25 
   530)       299.6  Rx         0284  6  05 05 00 00 00 00 
   531)       299.9  Rx         0588  8  1B 2C 80 00 00 80 00 00 
   532)       300.2  Rx         0540  8  D0 00 FF 00 FE 00 10 26 
   533)       300.4  Rx         00C2  8  00 80 00 80 80 5A 00 A5 
   534)       300.6  Rx         00D0  6  22 20 0E 0C 00 00 
   535)       300.8  Rx         056A  8  E1 00 08 00 1A 00 02 F1 
   536)       301.1  Rx         05C0  8  C9 68 80 A6 21 01 88 2F 
   537)       301.7  Rx         0280  8  01 00 00 00 27 00 1E 27 
   538)       302.0  Rx         0288  8  8A 51 10 04 00 6D 8C 8D 
   539)       302.3  Rx         0380  8  00 51 00 7D 20 00 00 14 
   540)       302.6  Rx         05E0  8  20 00 00 00 00 00 80 00 
   541)       302.9  Rx         0488  8  44 27 8D 80 FE FF FF 90 
   542)       303.3  Rx         01A0  8  00 42 00 00 00 FE 00 52 
   543)       303.6  Rx         01AC  8  B1 09 00 00 69 01 02 D2 
   544)       304.2  Rx         04A0  8  00 00 00 00 00 00 00 00 
   545)       304.5  Rx         04A8  8  00 00 00 10 00 00 90 80 
   546)       304.8  Rx         05A0  8  7D 00 00 92 00 00 10 AB 
   547)       305.5  Rx         00C2  8  00 80 00 80 80 6A 00 95 
   548)       305.7  Rx         0570  5  C7 A0 A0 00 80 
   549)       305.9  Rx         0440  8  00 80 00 FE 80 00 F0 00 
   550)       306.1  Rx         0420  8  9A 7B 7B 00 00 00 FF 00 
   551)       306.4  Rx         00D0  6  31 30 0D 0C 00 00 
   552)       306.6  Rx         03D0  6  01 82 00 10 00 00 
   553)       306.9  Rx         03D2  7  09 00 00 20 00 06 53 
   554)       307.2  Rx         0050  4  00 A4 68 CC 
   555)       307.8  Rx         0320  8  20 00 20 01 00 07 00 85 
   556)       308.1  Rx         0280  8  01 00 00 00 27 00 1E 27 
   557)       308.4  Rx         0288  8  8A 51 10 04 00 6D 8C 8D 
   558)       308.8  Rx         0380  8  00 51 00 7D 20 00 00 14 
   559)       309.2  Rx         0390  8  6A 40 50 00 00 00 20 00 
   560)       309.5  Rx         0488  8  74 27 8D 80 FE FF FF A0 
   561)       309.8  Rx         01A0  8  00 42 00 00 00 FE 00 53 
   562)       310.0  Rx         0540  8  E0 00 FF 00 FE 00 10 26 
   563)       310.2  Rx         038A  4  85 01 84 00 
   564)       310.5  Rx         04A0  8  00 00 00 00 00 00 00 00 
   565)       315.8  Rx         0440  8  00 80 00 FE 80 00 F8 00 
   566)       319.9  Rx         0540  8  F0 00 FF 00 FE 00 10 2F 
   567)       320.1  Rx         0284  6  06 06 00 00 00 00 
   568)       320.4  Rx         0480  8  54 2C 00 00 19 40 04 25 
   569)       320.7  Rx         0588  8  1B 2C 80 00 00 80 00 00 
   570)       321.0  Rx         00C2  8  00 80 00 80 80 7A 00 85 
   571)       321.3  Rx         056A  8  11 00 08 00 1A 00 02 01 
   572)       321.6  Rx         05D0  8  C0 04 51 AF 29 48 01 00 
   573)       321.9  Rx         00D0  6  40 40 0C 0C 00 00 
   574)       322.2  Rx         05C0  8  CA 68 80 A6 21 01 88 2C 
   575)       322.8  Rx         0280  8  01 00 00 00 27 00 1E 27 
   576)       323.1  Rx         0288  8  8A 51 10 04 00 6D 8C 8D 
   577)       323.5  Rx         0380  8  00 51 00 7D 20 00 00 14 
   578)       323.8  Rx         05E0  8  20 00 00 00 00 00 80 00 
   579)       324.1  Rx         0488  8  64 27 8D 80 FE FF FF B0 
   580)       324.4  Rx         01A0  8  00 42 00 00 00 FE 00 54 
   581)       324.7  Rx         01AC  8  B2 0A 00 00 69 01 02 D2 
   582)       325.0  Rx         04A0  8  00 00 00 00 00 00 00 00 
   583)       325.3  Rx         04A8  8  00 00 00 10 00 00 A0 B0 
   584)       325.6  Rx         05A0  8  7D 00 00 A2 00 00 10 AB 
   585)       326.0  Rx         0440  8  00 80 00 FE 80 00 80 00 
   586)       326.2  Rx         00C2  8  00 80 00 80 80 8A 00 75 
   587)       326.5  Rx         05DC  8  77 18 C0 3F 1E 00 30 42 
   588)       326.8  Rx         00D0  6  50 50 0C 0C 00 00 
   589)       327.1  Rx         03D0  6  01 82 00 10 00 00 
   590)       327.4  Rx         03D2  7  0A 00 00 20 00 06 53 
   591)       327.6  Rx         0050  4  00 A4 78 DC 
   592)       328.3  Rx         0320  8  20 00 20 01 00 08 00 85 
   593)       328.6  Rx         0280  8  01 00 00 00 27 00 1E 27 
   594)       329.0  Rx         0288  8  E8 51 10 04 00 6D 8C 8D 
   595)       329.3  Rx         0380  8  00 51 00 7D 20 00 00 14 
   596)       329.6  Rx         0488  8  14 27 8D 80 FE FF FF C0 
   597)       329.8  Rx         038A  4  95 01 94 00 
   598)       330.1  Rx         0540  8  00 00 FF 00 FE 00 10 2F 
   599)       330.3  Rx         01A0  8  00 42 00 00 00 FE 00 55 
   600)       330.6  Rx         04A0  8  00 00 00 00 00 00 00 00 
   601)       335.8  Rx         0440  8  00 80 00 FE 80 00 88 00 
   602)       339.9  Rx         0540  8  10 00 FF 00 FE 00 10 2F 
   603)       340.2  Rx         0480  8  54 2C 00 00 19 40 04 25 
   604)       340.4  Rx         0284  6  07 07 00 00 00 00 
   605)       340.7  Rx         00C2  8  00 80 00 80 80 9A 00 65 
   606)       341.0  Rx         00D0  6  67 60 0B 0C 00 00 
   607)       341.5  Rx         056A  8  01 00 08 00 1A 00 02 11 
   608)       341.9  Rx         0588  8  1B 2C 80 00 00 80 00 00 
   609)       342.2  Rx         05C0  8  CB 68 80 A6 21 01 88 2D 
   610)       342.8  Rx         05E0  8  20 00 00 00 00 00 80 00 
   611)       343.1  Rx         0280  8  01 00 00 00 27 00 1E 27 
   612)       343.4  Rx         0288  8  E8 51 10 04 00 6D 8C 8D 
   613)       343.7  Rx         0380  8  00 51 00 7D 20 00 00 14 
   614)       344.1  Rx         0488  8  04 27 8D 80 FE FF FF D0 
   615)       344.4  Rx         01A0  8  00 42 00 00 00 FE 00 56 
   616)       344.7  Rx         01AC  8  B3 0B 00 00 69 01 02 D2 
   617)       345.0  Rx         04A0  8  00 00 00 00 00 00 00 00 
   618)       345.3  Rx         04A8  8  0C 00 00 10 00 00 B0 AC 
   619)       345.6  Rx         05A0  8  7D 00 00 B2 00 00 10 AB 
   620)       345.9  Rx         0440  8  00 80 00 FE 80 00 90 00 
   621)       346.2  Rx         00C2  8  00 80 00 80 80 AA 00 55 
   622)       346.4  Rx         00D0  6  76 70 0A 0C 00 00 
   623)       346.7  Rx         03D0  6  01 82 00 10 00 00 
   624)       347.1  Rx         03D2  7  0B 00 00 20 00 06 53 
   625)       347.5  Rx         0320  8  20 00 20 01 00 09 00 85 
   626)       347.9  Rx         0050  4  00 A4 88 2C 
   627)       348.1  Rx         0572  1  07 
   628)       348.5  Rx         0280  8  01 00 00 00 27 00 1E 27 
   629)       348.9  Rx         0288  8  E8 51 10 04 00 6D 8C 8D 
   630)       349.2  Rx         0380  8  00 51 00 7D 20 00 00 14 
   631)       349.6  Rx         0488  8  34 27 8D 80 FE FF FF E0 
   632)       349.9  Rx         01A0  8  00 42 00 00 00 FE 00 57 
   633)       350.1  Rx         0540  8  20 00 FF 00 FE 00 10 2F 
   634)       350.3  Rx         04A0  8  00 00 00 00 00 00 00 00 
   635)       350.5  Rx         038A  4  A5 01 A4 00 
   636)       355.8  Rx         0440  8  00 80 00 FE 80 00 98 00 
   637)       359.9  Rx         0540  8  30 00 FF 00 FE 00 10 26 
   638)       360.1  Rx         0284  6  08 08 00 00 00 00 
   639)       360.4  Rx         0480  8  84 2C 00 00 19 40 04 F5 
   640)       360.7  Rx         0588  8  1B 2C 80 00 00 80 00 00 
   641)       361.0  Rx         00C2  8  00 80 00 80 80 BA 00 45 
   642)       361.3  Rx         056A  8  31 00 08 00 1A 00 02 21 
   643)       361.6  Rx         00D0  6  85 80 09 0C 00 00 
   644)       361.9  Rx         05C0  8  CC 68 80 A6 21 01 88 2A 
   645)       362.5  Rx         05E0  8  20 00 00 00 00 00 80 00 
   646)       362.7  Rx         0280  8  01 00 00 00 27 00 1E 27 
   647)       363.1  Rx         0288  8  E8 51 10 04 00 6D 8C 8D 
   648)       363.4  Rx         0380  8  00 51 00 7D 20 00 00 14 
   649)       363.7  Rx         0488  8  24 27 8D 80 FE FF FF F0 
   650)       364.1  Rx         01A0  8  00 42 00 00 00 FE 00 58 
   651)       364.4  Rx         01AC  8  B4 0C 00 00 69 01 02 D2 
   652)       364.7  Rx         04A0  8  00 00 00 00 00 00 00 00 
   653)       364.9  Rx         04A8  8  0C 00 00 10 00 00 C0 DC 
   654)       365.3  Rx         05A0  8  7E 00 00 C2 00 00 10 AB 
   655)       365.9  Rx         00C2  8  00 80 00 80 80 CA 00 35 
   656)       366.1  Rx         0440  8  00 80 00 FE 80 00 A0 00 
   657)       366.3  Rx         00D0  6  95 90 09 0C 00 00 
   658)       366.5  Rx         03D0  6  01 82 00 10 00 00 
   659)       366.8  Rx         03D2  7  0C 00 00 20 00 06 53 
   660)       367.3  Rx         0050  4  00 A4 98 3C 
   661)       367.7  Rx         0320  8  20 00 20 01 00 0A 00 85 
   662)       368.0  Rx         0280  8  01 00 00 00 27 00 1E 27 
   663)       368.3  Rx         0288  8  2C 51 10 04 00 6D 8C 8D 
   664)       368.6  Rx         0380  8  00 51 00 7D 20 00 00 14 
   665)       369.0  Rx         0488  8  2B 27 8D 80 FE FF 00 00 
   666)       369.3  Rx         01A0  8  00 42 00 00 00 FE 00 59 
   667)       369.6  Rx         04A0  8  00 00 00 00 00 00 00 00 
   668)       369.8  Rx         038A  4  B5 01 B4 00 
   669)       370.1  Rx         0540  8  40 00 FF 00 FE 00 10 26 
   670)       375.8  Rx         0440  8  00 80 00 FE 80 00 A8 00 
   671)       379.9  Rx         0540  8  50 00 FF 00 FE 00 10 26 
   672)       380.4  Rx         0480  8  84 2C 00 00 19 40 04 F5 
   673)       380.6  Rx         0284  6  09 09 00 00 00 00 
   674)       381.0  Rx         0588  8  1B 2C 80 00 00 80 00 00 
   675)       381.3  Rx         00C2  8  00 80 00 80 80 DA 00 25 
   676)       381.5  Rx         00D0  6  A4 A0 08 0C 00 00 
   677)       381.9  Rx         056A  8  21 00 08 00 1A 00 02 31 
   678)       382.2  Rx         05C0  8  CD 68 80 A6 21 01 88 2B 
   679)       382.8  Rx         05E0  8  20 00 00 00 00 00 80 00 
   680)       383.1  Rx         0280  8  01 00 00 00 27 00 1E 27 
   681)       383.4  Rx         0288  8  2C 51 10 04 00 6D 8C 8D 
   682)       383.7  Rx         0380  8  00 51 00 7D 20 00 00 14 
   683)       384.1  Rx         0488  8  10 27 8D 80 FE FF 2B 10 
   684)       384.4  Rx         01A0  8  00 42 00 00 00 FE 00 5A 
   685)       384.6  Rx         01AC  8  B5 0D 00 00 69 01 02 D2 
   686)       385.0  Rx         04A0  8  00 00 00 00 00 00 00 00 
   687)       385.3  Rx         04A8  8  2B 00 00 10 00 00 D0 EB 
   688)       385.6  Rx         05A0  8  7D 00 00 D2 00 00 10 AB 
   689)       385.9  Rx         0440  8  00 80 00 FE 80 00 B0 00 
   690)       386.1  Rx         05C6  8  00 20 00 00 00 00 00 13 
   691)       386.5  Rx         00C2  8  00 80 00 80 80 EA 00 15 
   692)       386.7  Rx         00D0  6  B4 B0 08 0C 00 00 
   693)       387.0  Rx         03D0  6  01 82 00 10 00 00 
   694)       387.4  Rx         03D2  7  0D 00 00 20 00 06 53 
   695)       387.7  Rx         0320  8  20 00 20 01 00 0B 00 85 
   696)       388.3  Rx         05D2  8  01 41 4B 37 33 43 31 36 
   697)       388.5  Rx         0050  4  00 A4 A8 0C 
   698)       389.0  Rx         0280  8  01 00 00 00 27 00 1E 27 
   699)       389.4  Rx         0288  8  2C 51 10 04 00 6D 8C 8D 
   700)       389.6  Rx         0380  8  00 51 00 7D 20 00 00 14 
   701)       389.9  Rx         0540  8  60 00 FF 00 FE 00 10 26 
   702)       390.2  Rx         0488  8  3F 27 8D 80 FE FF 34 20 
   703)       390.4  Rx         01A0  8  00 42 00 00 00 FE 00 5B 
   704)       390.7  Rx         04A0  8  00 00 00 00 00 00 00 00 
   705)       390.8  Rx         038A  4  C5 01 C4 00 
   706)       395.8  Rx         0440  8  00 80 00 FE 80 00 B8 00 
   707)       399.9  Rx         0540  8  70 00 FF 00 FE 00 10 2F 
   708)       401.1  Rx         0480  8  84 2C 00 00 19 40 04 F5 
   709)       401.4  Rx         0284  6  0A 0A 00 00 00 00 
   710)       401.7  Rx         00C2  8  00 80 00 80 80 FA 00 05 
   711)       402.0  Rx         0588  8  1B 2C 80 00 00 80 00 00 
   712)       402.3  Rx         056A  8  51 00 08 00 1A 00 02 41 
   713)       402.6  Rx         00D0  6  C4 C0 08 0C 00 00 
   714)       403.0  Rx         05C0  8  CE 68 80 A6 21 01 89 29 
   715)       403.6  Rx         05E0  8  20 00 00 00 00 00 80 00 
   716)       404.2  Rx         0280  8  01 00 00 00 27 00 1E 27 
   717)       404.5  Rx         0288  8  2C 51 10 04 00 6D 8C 8D 
   718)       404.8  Rx         0380  8  00 51 00 7D 20 00 00 14 
   719)       405.1  Rx         0488  8  1B 27 8D 80 FE FF 00 30 
   720)       405.5  Rx         01A0  8  00 42 00 00 00 FE 00 5C 
   721)       405.7  Rx         01AC  8  B7 0E 00 00 69 01 03 D2 
   722)       406.0  Rx         0440  8  00 80 00 FE 80 00 C0 00 
   723)       406.2  Rx         04A0  8  00 00 00 00 00 00 00 00 
   724)       406.5  Rx         04A8  8  0C 80 00 10 00 00 E0 7C 
   725)       406.7  Rx         05A0  8  7D 00 00 E2 00 00 10 AB 
   726)       407.3  Rx         00C2  8  00 80 00 80 80 0A 00 F5 
   727)       407.5  Rx         0570  5  C7 A0 A0 00 80 
   728)       407.9  Rx         0520  8  60 44 00 77 28 4F 33 03 
   729)       408.2  Rx         00D0  6  D4 D0 08 0C 00 00 
   730)       408.5  Rx         03D0  6  01 82 00 10 00 00 
   731)       408.9  Rx         03D2  7  0E 00 00 20 00 06 53 
   732)       409.2  Rx         0320  8  20 02 20 01 00 0C 00 85 
   733)       409.8  Rx         0390  8  6A 40 50 00 00 00 20 00 
   734)       410.1  Rx         0540  8  80 00 FF 00 FE 00 10 2F 
   735)       410.3  Rx         0280  8  01 00 00 00 27 00 1E 27 
   736)       410.5  Rx         0288  8  64 51 10 04 00 6D 8C 8D 
   737)       410.7  Rx         0050  4  00 A4 B8 1C 
   738)       410.9  Rx         0380  8  00 51 00 7D 20 00 00 14 
   739)       411.2  Rx         038A  4  D5 01 D4 00 
   740)       411.6  Rx         01A0  8  00 42 00 00 00 FE 00 5D 
   741)       411.9  Rx         0488  8  4D 27 8D 80 FE FF 26 40 
   742)       412.2  Rx         04A0  8  00 00 00 00 00 00 00 00 
   743)       412.8  Rx         0480  8  84 2C 00 00 19 40 04 F5 
   744)       413.1  Rx         0284  6  0B 0B 00 00 00 00 
   745)       413.4  Rx         0588  8  1B 2C 80 00 00 80 00 00 
   746)       413.7  Rx         00C2  8  00 80 00 80 80 1A 00 E5 
   747)       414.1  Rx         05D0  8  C0 04 51 AF 29 48 01 00 
   748)       414.4  Rx         056A  8  41 00 08 00 1A 00 02 51 
   749)       414.6  Rx         00D0  6  E4 E0 08 0C 00 00 
   750)       414.9  Rx         05C0  8  CF 68 80 A6 21 01 89 28 
   751)       415.8  Rx         0440  8  00 80 00 FE 80 00 C8 00 
   752)       419.9  Rx         0540  8  90 00 FF 00 FE 00 10 2F 
   753)       425.4  Rx         05E0  8  20 00 00 00 00 00 80 00 
   754)       425.7  Rx         0280  8  01 00 00 00 27 00 1E 27 
   755)       425.9  Rx         0440  8  00 80 00 FE 80 00 D0 00 
   756)       426.1  Rx         0288  8  64 51 10 04 00 6D 8C 8D 
   757)       426.4  Rx         0380  8  00 51 00 7D 20 00 00 14 
   758)       426.7  Rx         0488  8  84 27 8D 80 FE FF FF 50 
   759)       426.9  Rx         01A0  8  00 42 00 00 00 FE 00 5E 
   760)       427.2  Rx         01AC  8  B6 0F 00 00 69 01 03 D2 
   761)       427.5  Rx         04A0  8  00 00 00 00 00 00 00 00 
   762)       427.8  Rx         04A8  8  00 00 00 10 00 00 F0 E0 
   763)       428.1  Rx         05A0  8  7E 00 00 F2 00 00 10 AB 
   764)       428.7  Rx         00C2  8  00 80 00 80 80 2A 00 D5 
   765)       429.1  Rx         05DC  8  77 18 C0 3F 1E 00 30 42 
   766)       429.4  Rx         00D0  6  F4 F0 08 0C 00 00 
   767)       429.7  Rx         03D0  6  01 82 00 10 00 00 
   768)       430.0  Rx         0540  8  A0 00 FF 00 FE 00 10 2F 
   769)       430.2  Rx         03D2  7  0F 00 00 20 00 06 53 
   770)       430.5  Rx         0320  8  20 02 20 01 00 0D 00 85 
   771)       430.9  Rx         0280  8  01 00 00 00 27 00 1E 27 
   772)       431.3  Rx         0288  8  64 51 10 04 00 6D 8C 8D 
   773)       431.6  Rx         0380  8  00 51 00 7D 20 00 00 14 
   774)       431.8  Rx         0050  4  00 A4 C8 6C 
   775)       432.2  Rx         01A0  8  00 42 00 00 00 FE 00 5F 
   776)       432.4  Rx         0488  8  B4 27 8D 80 FE FF FF 60 
   777)       432.8  Rx         04A0  8  00 00 00 00 00 00 00 00 
   778)       432.9  Rx         038A  4  E5 01 E4 00 
   779)       433.7  Rx         0480  8  C2 2C 00 00 19 40 04 B3 
   780)       434.0  Rx         0284  6  0C 0C 00 00 00 00 
   781)       434.3  Rx         0588  8  1B 2C 80 00 00 80 00 00 
   782)       434.6  Rx         00C2  8  00 80 00 80 80 3A 00 C5 
   783)       434.9  Rx         056A  8  71 00 08 00 1A 00 02 61 
   784)       435.2  Rx         00D0  6  0B 00 07 0C 00 00 
   785)       435.5  Rx         05C0  8  C0 68 80 A6 21 01 89 27 
   786)       435.8  Rx         0440  8  00 80 00 FE 80 00 D8 00 
   787)       439.8  Rx         0540  8  B0 00 FF 00 FE 00 10 26 
   788)       445.4  Rx         05E0  8  20 00 00 00 00 00 80 00 
   789)       445.7  Rx         0280  8  01 00 00 00 27 00 1E 27 
   790)       446.0  Rx         0440  8  00 80 00 FE 80 00 E0 00 
   791)       446.2  Rx         0288  8  64 51 10 04 00 6D 8C 8D 
   792)       446.4  Rx         0380  8  00 51 00 7D 20 00 00 14 
   793)       446.7  Rx         0488  8  A4 27 8D 80 FE FF FF 70 
   794)       447.0  Rx         01A0  8  00 42 00 00 00 FE 00 50 
   795)       447.5  Rx         01AC  8  B8 00 00 00 69 01 02 D2 
   796)       447.8  Rx         04A0  8  00 00 00 00 00 00 00 00 
   797)       448.2  Rx         04A8  8  12 00 00 10 00 00 00 02 
   798)       448.4  Rx         05A0  8  7D 00 00 02 00 00 10 AB 
   799)       449.2  Rx         00C2  8  00 80 00 80 80 4A 00 B5 
   800)       449.5  Rx         00D0  6  1B 10 07 0C 00 00 
   801)       449.8  Rx         03D0  6  01 82 00 10 00 00 
   802)       450.0  Rx         0540  8  C0 00 FF 00 FE 00 10 26 
   803)       450.2  Rx         03D2  7  00 00 00 20 00 06 53 
   804)       450.5  Rx         0320  8  20 02 20 01 00 0E 00 8D 
   805)       450.8  Rx         0572  1  07 
   806)       451.2  Rx         0280  8  01 00 00 00 27 00 1E 27 
   807)       451.5  Rx         0288  8  8A 51 10 04 00 6D 8C 8D 
   808)       451.8  Rx         0380  8  00 51 00 7D 20 00 00 14 
   809)       452.2  Rx         01A0  8  00 42 00 00 00 FE 00 51 
   810)       452.5  Rx         0488  8  54 27 8D 80 FE FF FF 80 
   811)       452.6  Rx         0050  4  00 A4 D8 7C 
   812)       453.1  Rx         04A0  8  00 00 00 00 00 00 00 00 
   813)       453.3  Rx         038A  4  F5 01 F4 00 
   814)       454.3  Rx         0480  8  C2 2C 00 00 19 40 04 B3 
   815)       454.5  Rx         0284  6  0D 0D 00 00 00 00 
   816)       454.9  Rx         0588  8  1B 2C 80 00 00 80 00 00 
   817)       455.2  Rx         00C2  8  00 80 00 80 80 5A 00 A5 
   818)       455.5  Rx         056A  8  61 00 08 00 1A 00 02 71 
   819)       455.8  Rx         0440  8  00 80 00 FE 80 00 E8 00 
   820)       456.0  Rx         00D0  6  2B 20 07 0C 00 00 
   821)       456.2  Rx         05C0  8  C1 68 80 A6 21 01 89 26 
   822)       459.8  Rx         0540  8  D0 00 FF 00 FE 00 10 26 
   823)       465.8  Rx         0440  8  00 80 00 FE 80 00 F0 00 
   824)       466.1  Rx         05E0  8  20 00 00 00 00 00 80 00 
   825)       466.4  Rx         0280  8  01 00 00 00 27 00 1E 27 
   826)       466.7  Rx         0288  8  8A 51 10 04 00 6D 8C 8D 
   827)       466.9  Rx         0380  8  00 51 00 7D 20 00 00 14 
   828)       467.3  Rx         01A0  8  00 42 00 00 00 FE 00 52 
   829)       467.6  Rx         0488  8  44 27 8D 80 FE FF FF 90 
   830)       467.9  Rx         01AC  8  B8 01 00 00 69 01 03 D2 
   831)       468.2  Rx         04A0  8  00 00 00 00 00 00 00 00 
   832)       468.5  Rx         04A8  8  06 00 00 10 00 00 10 06 
   833)       468.9  Rx         05A0  8  7D 00 00 12 00 00 10 AB 
   834)       469.6  Rx         00C2  8  00 80 00 80 80 6A 00 95 
   835)       469.8  Rx         00D0  6  3B 30 07 0C 00 00 
   836)       470.0  Rx         0540  8  E0 00 FF 00 FE 00 10 26 
   837)       470.2  Rx         03D0  6  01 82 00 10 00 00 
   838)       470.5  Rx         03D2  7  01 00 00 20 00 07 53 
   839)       471.0  Rx         0320  8  20 02 20 01 00 0F 00 8D 
   840)       471.4  Rx         0280  8  01 00 00 00 27 00 1E 27 
   841)       471.6  Rx         0288  8  8A 51 10 04 00 6D 8C 8D 
   842)       472.0  Rx         0380  8  00 51 00 7D 20 00 00 14 
   843)       472.3  Rx         01A0  8  00 42 00 00 00 FE 00 53 
   844)       472.6  Rx         0488  8  74 27 8D 80 FE FF FF A0 
   845)       472.9  Rx         04A0  8  00 00 00 00 00 00 00 00 
   846)       473.1  Rx         038A  4  05 01 04 00 
   847)       473.4  Rx         0050  4  00 A4 E8 4C 
   848)       474.1  Rx         0480  8  C2 2C 00 00 19 40 04 B3 
   849)       474.3  Rx         0284  6  0E 0E 00 00 00 00 
   850)       474.7  Rx         0588  8  1B 2C 80 00 00 80 00 00 
   851)       475.0  Rx         00C2  8  00 80 00 80 80 7A 00 85 
   852)       475.3  Rx         056A  8  91 00 08 00 1A 00 02 81 
   853)       475.5  Rx         00D0  6  4B 40 07 0C 00 00 
   854)       475.8  Rx         0440  8  00 80 00 FE 80 00 F8 00 
   855)       476.0  Rx         05C0  8  C2 68 80 A6 21 01 89 25 
   856)       479.8  Rx         0540  8  F0 00 FF 00 FE 00 10 2F 
   857)       485.7  Rx         0440  8  00 80 00 FE 80 00 80 00 
   858)       486.4  Rx         05E0  8  20 00 00 00 00 00 80 00 
   859)       486.6  Rx         0280  8  01 00 00 00 27 00 1E 27 
   860)       486.9  Rx         0288  8  8A 51 10 04 00 6D 8C 8D 
   861)       487.3  Rx         0380  8  00 51 00 7D 20 00 00 14 
   862)       487.6  Rx         01A0  8  00 42 00 00 00 FE 00 54 
   863)       487.9  Rx         0488  8  64 27 8D 80 FE FF FF B0 
   864)       488.2  Rx         01AC  8  BB 02 00 00 69 01 03 D2 
   865)       488.5  Rx         04A0  8  00 00 00 00 00 00 00 00 
   866)       488.9  Rx         04A8  8  06 80 00 10 00 00 20 B6 
   867)       489.3  Rx         05A0  8  7E 00 00 22 00 00 10 AB 
   868)       489.9  Rx         05C6  8  00 20 00 00 00 00 00 13 
   869)       490.1  Rx         0540  8  00 00 FF 00 FE 00 10 2F 
   870)       490.3  Rx         00C2  8  00 80 00 80 80 8A 00 75 
   871)       490.6  Rx         00D0  6  5B 50 07 0C 00 00 
   872)       490.8  Rx         03D0  6  01 82 00 10 00 00 
   873)       491.0  Rx         03D2  7  02 00 00 20 00 06 53 
   874)       491.4  Rx         0320  8  20 02 20 01 00 00 00 8D 
   875)       492.0  Rx         0280  8  01 00 00 00 27 00 1E 27 
   876)       492.3  Rx         0288  8  E8 51 10 04 00 6D 8C 8D 
   877)       492.6  Rx         0380  8  00 51 00 7D 20 00 00 14 
   878)       492.9  Rx         01A0  8  00 42 00 00 00 FE 00 55 
   879)       493.3  Rx         0488  8  14 27 8D 80 FE FF FF C0 
   880)       493.5  Rx         04A0  8  00 00 00 00 00 00 00 00 
   881)       493.8  Rx         038A  4  15 01 14 00 
   882)       494.1  Rx         0050  4  00 A4 F8 5C 
   883)       494.3  Rx         0550  3  80 80 00 
   884)       495.0  Rx         0480  8  C2 2C 00 00 19 40 04 B3 
   885)       495.2  Rx         0284  6  0F 0F 00 00 00 00 
   886)       495.6  Rx         0588  8  1B 2C 80 00 00 80 00 00 
   887)       495.8  Rx         0440  8  00 80 00 FE 80 00 88 00 
   888)       496.1  Rx         00C2  8  00 80 00 80 80 9A 00 65 
   889)       496.3  Rx         00D0  6  6B 60 07 0C 00 00 
   890)       496.5  Rx         056A  8  81 00 08 00 1A 00 02 91 
   891)       496.7  Rx         05C0  8  C3 68 80 A6 21 01 89 24 
   892)       497.4  Rx         05E0  8  20 00 00 00 00 00 80 00 
   893)       499.8  Rx         0540  8  10 00 FF 00 FE 00 10 2F 
   894)       505.8  Rx         0440  8  00 80 00 FE 80 00 90 00 
   895)       507.1  Rx         0280  8  01 00 00 00 27 00 1E 27 
   896)       507.4  Rx         0288  8  E8 51 10 04 00 6D 8C 8D 
   897)       507.7  Rx         0380  8  00 51 00 7D 20 00 00 14 
   898)       508.0  Rx         01A0  8  00 42 00 00 00 FE 00 56 
   899)       508.3  Rx         0488  8  04 27 8D 80 FE FF FF D0 
   900)       508.6  Rx         01AC  8  BA 03 00 00 69 01 03 D2 
   901)       509.1  Rx         04A0  8  00 00 00 00 00 00 00 00 
   902)       509.4  Rx         04A8  8  25 00 00 10 00 00 30 05 
   903)       509.7  Rx         05A0  8  7D 00 00 32 00 00 10 AB 
   904)       509.9  Rx         0540  8  20 00 FF 00 FE 00 10 2F 
   905)       510.2  Rx         0570  5  C7 A0 A0 00 80 
   906)       510.5  Rx         00C2  8  00 80 00 80 80 AA 00 55 
   907)       510.8  Rx         0420  8  9A 7B 7B 00 00 00 FF 00 
   908)       511.1  Rx         00D0  6  7B 70 07 0C 00 00 
   909)       511.4  Rx         03D0  6  01 82 00 10 00 00 
   910)       511.8  Rx         03D2  7  03 00 00 20 00 06 53 
   911)       512.4  Rx         0320  8  20 02 20 01 00 01 00 8D 
   912)       512.7  Rx         0390  8  6A 40 50 00 00 00 20 00 
   913)       513.0  Rx         0280  8  01 00 00 00 27 00 1E 27 
   914)       513.4  Rx         0288  8  E8 51 10 04 00 6D 8C 8D 
   915)       513.7  Rx         0380  8  00 51 00 7D 20 00 00 14 
   916)       514.0  Rx         01A0  8  00 42 00 00 00 FE 00 57 
   917)       514.3  Rx         0488  8  34 27 8D 80 FE FF FF E0 
   918)       514.5  Rx         038A  4  25 01 24 00 
   919)       514.9  Rx         04A0  8  00 00 00 00 00 00 00 00 
   920)       515.1  Rx         0050  4  00 A4 08 AC 
   921)       515.7  Rx         0480  8  1C 2C 00 00 19 40 04 6D 
   922)       516.0  Rx         0440  8  00 80 00 FE 80 00 98 00 
   923)       516.2  Rx         0284  6  00 00 00 00 00 00 
   924)       516.5  Rx         0588  8  1B 2C 80 00 00 80 00 00 
   925)       516.7  Rx         00C2  8  00 80 00 80 80 BA 00 45 
   926)       516.9  Rx         05D0  8  C0 04 51 AF 29 48 01 00 
   927)       517.2  Rx         00D0  6  8B 80 07 0C 00 00 
   928)       517.6  Rx         056A  8  B1 00 08 00 1A 00 02 A1 
   929)       517.8  Rx         05C0  8  C4 68 80 A6 21 01 89 23 
   930)       518.4  Rx         05E0  8  20 00 00 00 00 00 80 00 
   931)       518.9  Rx         0280  8  01 00 00 00 27 00 1E 27 
   932)       519.2  Rx         0288  8  E8 51 10 04 00 6D 8C 8D 
   933)       519.5  Rx         0380  8  00 51 00 7D 20 00 00 14 
   934)       519.8  Rx         01A0  8  00 42 00 00 00 FE 00 58 
   935)       520.1  Rx         0540  8  30 00 FF 00 FE 00 10 26 
   936)       520.3  Rx         01AC  8  BC 04 00 00 69 01 02 D2 
   937)       520.5  Rx         0488  8  24 27 8D 80 FE FF FF F0 
   938)       520.8  Rx         04A0  8  00 00 00 00 00 00 00 00 
   939)       521.1  Rx         04A8  8  25 00 00 10 00 00 40 75 
   940)       521.4  Rx         05A0  8  7E 00 00 42 00 00 10 AB 
   941)       525.8  Rx         0440  8  00 80 00 FE 80 00 A0 00 
   942)       529.8  Rx         0540  8  40 00 FF 00 FE 00 10 26 
   943)       531.0  Rx         00C2  8  00 80 00 80 80 CA 00 35 
   944)       531.4  Rx         05DC  8  77 18 C0 3F 1E 00 30 42 
   945)       531.7  Rx         00D0  6  9B 90 07 0C 00 00 
   946)       532.0  Rx         03D0  6  01 82 00 10 00 00 
   947)       532.3  Rx         03D2  7  04 00 00 20 00 06 53 
   948)       532.9  Rx         0320  8  20 02 20 01 00 02 00 8D 
   949)       533.3  Rx         0280  8  01 00 00 00 27 00 1E 27 
   950)       533.5  Rx         0288  8  2C 51 10 04 00 6D 8C 8D 
   951)       533.9  Rx         0380  8  00 51 00 7D 20 00 00 14 
   952)       534.2  Rx         01A0  8  00 42 00 00 00 FE 00 59 
   953)       534.4  Rx         0488  8  2B 27 8D 80 FE FF 00 00 
   954)       534.8  Rx         04A0  8  00 00 00 00 00 00 00 00 
   955)       535.0  Rx         038A  4  35 01 34 00 
   956)       535.5  Rx         0050  4  00 A4 18 BC 
   957)       535.8  Rx         0440  8  00 80 00 FE 80 00 A8 00 
   958)       536.1  Rx         0480  8  1C 2C 00 00 19 40 04 6D 
   959)       536.3  Rx         0284  6  01 01 00 00 00 00 
   960)       536.5  Rx         00D0  6  AB A0 07 0C 00 00 
   961)       536.8  Rx         0588  8  1B 2C 80 00 00 80 00 00 
   962)       537.1  Rx         00C2  8  00 80 00 80 80 DA 00 25 
   963)       537.4  Rx         056A  8  A1 00 08 00 1A 00 02 B1 
   964)       537.7  Rx         05C0  8  C5 68 80 A6 21 01 89 22 
   965)       538.3  Rx         05E0  8  20 00 00 00 00 00 80 00 
   966)       538.6  Rx         0280  8  01 00 00 00 27 00 1E 27 
   967)       539.0  Rx         0288  8  2C 51 10 04 00 6D 8C 8D 
   968)       539.4  Rx         0380  8  00 51 00 7D 20 00 00 14 
   969)       539.7  Rx         01A0  8  00 42 00 00 00 FE 00 5A 
   970)       539.9  Rx         0540  8  50 00 FF 00 FE 00 10 26 
   971)       540.2  Rx         01AC  8  BD 05 00 00 69 01 02 D2 
   972)       540.4  Rx         0488  8  10 27 8D 80 FE FF 2B 10 
   973)       540.7  Rx         04A0  8  00 00 00 00 00 00 00 00 
   974)       540.9  Rx         04A8  8  00 00 00 10 00 00 50 40 
   975)       541.2  Rx         05A0  8  7E 00 00 52 00 00 10 AB 
   976)       545.7  Rx         0440  8  00 80 00 FE 80 00 B0 00 
   977)       549.8  Rx         0540  8  60 00 FF 00 FE 00 10 26 
   978)       551.0  Rx         00C2  8  00 80 00 80 80 EA 00 15 
   979)       551.3  Rx         00D0  6  BB B0 07 0C 00 00 
   980)       551.7  Rx         03D0  6  01 82 00 10 00 00 
   981)       552.0  Rx         03D2  7  05 00 00 20 00 07 53 
   982)       552.3  Rx         0320  8  20 02 20 01 00 03 00 8D 
   983)       552.7  Rx         0572  1  07 
   984)       553.2  Rx         0280  8  01 00 00 00 27 00 1E 27 
   985)       553.5  Rx         0288  8  2C 51 10 04 00 6D 8C 8D 
   986)       554.2  Rx         0380  8  00 51 00 7D 20 00 00 14 
   987)       554.5  Rx         01A0  8  00 42 00 00 00 FE 00 5B 
   988)       554.8  Rx         0488  8  3F 27 8D 80 FE FF 34 20 
   989)       555.1  Rx         04A0  8  00 00 00 00 00 00 00 00 
   990)       555.3  Rx         038A  4  45 01 44 00 
   991)       555.9  Rx         0440  8  00 80 00 FE 80 00 B8 00 
   992)       556.0  Rx         0050  4  00 A4 28 8C 
   993)       556.2  Rx         0480  8  1C 2C 00 00 19 40 04 6D 
   994)       556.5  Rx         0284  6  02 02 00 00 00 00 
   995)       556.8  Rx         0588  8  1B 2C 80 00 00 80 00 00 
   996)       557.1  Rx         00C2  8  00 80 00 80 80 FA 00 05 
   997)       557.4  Rx         056A  8  D1 00 08 00 1A 00 02 C1 
   998)       557.7  Rx         00D0  6  CB C0 07 0C 00 00 
   999)       558.0  Rx         05C0  8  C6 68 80 A6 21 01 89 21 
  1000)       558.6  Rx         05E0  8  20 00 00 00 00 00 80 00 
  1001)       559.0  Rx         0280  8  01 00 00 00 27 00 1E 27 
  1002)       559.4  Rx         0288  8  2C 51 10 04 00 6D 8C 8D 
  1003)       559.7  Rx         0380  8  00 51 00 7D 20 00 00 14 
  1004)       560.0  Rx         0540  8  70 00 FF 00 FE 00 10 2F 
  1005)       560.2  Rx         01A0  8  00 42 00 00 00 FE 00 5C 
  1006)       560.4  Rx         01AC  8  BE 06 00 00 69 01 02 D2 
  1007)       560.7  Rx         0488  8  1B 27 8D 80 FE FF 00 30 
  1008)       560.9  Rx         04A0  8  00 00 00 00 00 00 00 00 
  1009)       561.2  Rx         04A8  8  0C 80 00 10 00 00 60 FC 
  1010)       561.5  Rx         05A0  8  7E 00 00 62 00 00 10 AB 
  1011)       565.7  Rx         0440  8  00 80 00 FE 80 00 C0 00 
  1012)       569.8  Rx         0540  8  80 00 FF 00 FE 00 10 2F 
  1013)       572.0  Rx         00C2  8  00 80 00 80 80 0A 00 F5 
  1014)       572.3  Rx         00D0  6  DB D0 07 0C 00 00 
  1015)       572.6  Rx         03D0  6  01 82 00 10 00 00 
  1016)       572.9  Rx         03D2  7  06 00 00 20 00 06 53 
  1017)       573.6  Rx         0320  8  20 02 20 01 00 04 00 8D 
  1018)       573.9  Rx         0280  8  01 00 00 00 27 00 1E 27 
  1019)       574.2  Rx         0288  8  64 51 10 04 00 6D 8C 8D 
  1020)       574.5  Rx         0380  8  00 51 00 7D 20 00 00 14 
  1021)       574.8  Rx         01A0  8  00 42 00 00 00 FE 00 5D 
  1022)       575.2  Rx         04A0  8  00 00 00 00 00 00 00 00 
  1023)       575.4  Rx         0488  8  4D 27 8D 80 FE FF 26 40 
  1024)       575.6  Rx         038A  4  55 01 54 00 
  1025)       575.8  Rx         0440  8  00 80 00 FE 80 00 C8 00 
  1026)       576.2  Rx         0050  4  00 A4 38 9C 
  1027)       576.5  Rx         0284  6  03 03 00 00 00 00 
  1028)       576.8  Rx         0480  8  1C 2C 00 00 19 40 04 6D 
  1029)       577.1  Rx         0588  8  1B 2C 80 00 00 80 00 00 
  1030)       577.4  Rx         00C2  8  00 80 00 80 80 1A 00 E5 
  1031)       577.7  Rx         00D0  6  E4 E0 08 0C 00 00 
  1032)       578.1  Rx         056A  8  C1 00 08 00 1A 00 02 D1 
  1033)       578.3  Rx         05C0  8  C7 68 80 A6 21 01 89 20 
  1034)       579.1  Rx         05E0  8  20 00 00 00 00 00 80 00 
  1035)       579.5  Rx         0280  8  01 00 00 00 27 00 1E 27 
  1036)       579.7  Rx         0288  8  64 51 10 04 00 6D 8C 8D 
  1037)       580.0  Rx         0540  8  90 00 FF 00 FE 00 10 2F 
  1038)       580.2  Rx         0380  8  00 51 00 7D 20 00 00 14 
  1039)       580.5  Rx         01A0  8  00 42 00 00 00 FE 00 5E 
  1040)       580.7  Rx         0488  8  84 27 8D 80 FE FF FF 50 
  1041)       580.9  Rx         01AC  8  BF 07 00 00 69 01 02 D2 
  1042)       581.3  Rx         04A0  8  00 00 00 00 00 00 00 00 
  1043)       581.5  Rx         04A8  8  06 80 00 10 00 00 70 E6 
  1044)       581.8  Rx         05A0  8  7D 00 00 72 00 00 10 AB 
  1045)       582.4  Rx         05C6  8  00 20 00 00 00 00 00 13 
  1046)       582.7  Rx         00C2  8  00 80 00 80 80 2A 00 D5 
  1047)       583.0  Rx         00D0  6  F4 F0 08 0C 00 00 
  1048)       583.3  Rx         03D0  6  01 82 00 10 00 00 
  1049)       583.6  Rx         03D2  7  07 00 00 20 00 06 53 
  1050)       585.7  Rx         0440  8  00 80 00 FE 80 00 D0 00 
  1051)       589.8  Rx         0540  8  A0 00 FF 00 FE 00 10 2F 
  1052)       593.0  Rx         0320  8  20 02 20 01 00 05 00 8D 
  1053)       593.6  Rx         05D2  8  02 50 31 30 31 33 39 37 
  1054)       594.0  Rx         0280  8  01 00 00 00 27 00 1E 27 
  1055)       594.3  Rx         0288  8  64 51 10 04 00 6D 8C 8D 
  1056)       594.6  Rx         0380  8  00 51 00 7D 20 00 00 14 
  1057)       594.9  Rx         01A0  8  00 42 00 00 00 FE 00 5F 
  1058)       595.2  Rx         0488  8  B4 27 8D 80 FE FF FF 60 
  1059)       595.5  Rx         04A0  8  00 00 00 00 00 00 00 00 
  1060)       595.7  Rx         038A  4  65 01 64 00 
  1061)       595.9  Rx         0440  8  00 80 00 FE 80 00 D8 00 
  1062)       596.4  Rx         0480  8  54 2C 00 00 19 40 04 25 
  1063)       596.6  Rx         0284  6  04 04 00 00 00 00 
  1064)       596.8  Rx         0050  4  00 A4 48 EC 
  1065)       597.3  Rx         0588  8  1B 2C 80 00 00 80 00 00 
  1066)       597.5  Rx         00C2  8  00 80 00 80 80 3A 00 C5 
  1067)       597.8  Rx         00D0  6  04 00 08 0C 00 00 
  1068)       598.1  Rx         056A  8  F1 00 08 00 1A 00 02 E1 
  1069)       598.4  Rx         05C0  8  C8 68 80 A6 21 01 89 2F 
  1070)       599.2  Rx         05E0  8  20 00 00 00 00 00 80 00 
  1071)       599.5  Rx         0280  8  01 00 00 00 27 00 1E 27 
  1072)       599.8  Rx         0540  8  B0 00 FF 00 FE 00 10 26 
  1073)       600.0  Rx         0288  8  64 51 10 04 00 6D 8C 8D 
  1074)       600.3  Rx         0380  8  00 51 00 7D 20 00 00 14 
  1075)       600.5  Rx         01A0  8  00 42 00 00 00 FE 00 50 
  1076)       600.8  Rx         01AC  8  B3 08 00 00 69 01 01 D2 
  1077)       601.0  Rx         0488  8  A4 27 8D 80 FE FF FF 70 
  1078)       601.4  Rx         04A0  8  00 00 00 00 00 00 00 00 
  1079)       601.6  Rx         04A8  8  1F 00 00 10 00 00 80 8F 
  1080)       601.9  Rx         05A0  8  7E 00 00 82 00 00 10 AB 
  1081)       602.4  Rx         0570  5  C7 A0 A0 00 80 
  1082)       602.8  Rx         0520  8  A6 87 00 77 28 4F 33 03 
  1083)       603.2  Rx         00C2  8  00 80 00 80 80 4A 00 B5 
  1084)       603.4  Rx         00D0  6  15 10 09 0C 00 00 
  1085)       604.1  Rx         03D0  6  01 82 00 10 00 00 
  1086)       604.4  Rx         03D2  7  08 00 00 20 00 06 53 
  1087)       605.7  Rx         0440  8  00 80 00 FE 80 00 E0 00 
  1088)       609.8  Rx         0540  8  C0 00 FF 00 FE 00 10 26 
  1089)       614.1  Rx         0320  8  20 02 20 01 00 06 00 8D 
  1090)       614.7  Rx         0390  8  6A 40 50 00 00 00 20 00 
  1091)       615.0  Rx         0280  8  01 00 00 00 27 00 1E 27 
  1092)       615.3  Rx         0288  8  8A 51 10 04 00 6D 8C 8D 
  1093)       615.5  Rx         0380  8  00 51 00 7D 20 00 00 14 
  1094)       615.8  Rx         0440  8  00 80 00 FE 80 00 E8 00 
  1095)       616.0  Rx         01A0  8  00 42 00 00 00 FE 00 51 
  1096)       616.2  Rx         038A  4  75 01 74 00 
  1097)       616.5  Rx         0488  8  54 27 8D 80 FE FF FF 80 
  1098)       616.7  Rx         04A0  8  00 00 00 00 00 00 00 00 
  1099)       617.4  Rx         0480  8  54 2C 00 00 19 40 04 25 
  1100)       617.6  Rx         0284  6  05 05 00 00 00 00 
  1101)       617.9  Rx         0588  8  1B 2C 80 00 00 80 00 00 
  1102)       618.2  Rx         0050  4  00 A4 58 FC 
  1103)       618.5  Rx         00C2  8  00 80 00 80 80 5A 00 A5 
  1104)       618.9  Rx         00D0  6  25 20 09 0C 00 00 
  1105)       619.3  Rx         056A  8  E1 00 08 00 1A 00 02 F1 
  1106)       619.6  Rx         05C0  8  C9 68 80 A6 21 01 89 2E 
  1107)       619.9  Rx         0540  8  D0 00 FF 00 FE 00 10 26 
  1108)       620.1  Rx         05D0  8  C0 04 51 AF 29 48 01 00 
  1109)       620.5  Rx         05E0  8  20 00 00 00 00 00 80 00 
  1110)       620.8  Rx         0280  8  01 00 00 00 27 00 1E 27 
  1111)       621.1  Rx         0288  8  8A 51 10 04 00 6D 8C 8D 
  1112)       621.4  Rx         0380  8  00 51 00 7D 20 00 00 14 
  1113)       621.7  Rx         01A0  8  00 42 00 00 00 FE 00 52 
  1114)       622.0  Rx         0488  8  44 27 8D 80 FE FF FF 90 
  1115)       622.3  Rx         01AC  8  B1 09 00 00 69 01 02 D2 
  1116)       622.6  Rx         04A0  8  00 00 00 00 00 00 00 00 
  1117)       622.9  Rx         04A8  8  06 00 00 10 00 00 90 86 
  1118)       623.3  Rx         05A0  8  7E 00 00 92 00 00 10 AB 
  1119)       623.9  Rx         05DC  8  77 18 C0 3F 1E 00 30 42 
  1120)       624.2  Rx         00C2  8  00 80 00 80 80 6A 00 95 
  1121)       624.5  Rx         00D0  6  36 30 0A 0C 00 00 
  1122)       624.8  Rx         03D0  6  01 82 00 10 00 00 
  1123)       625.1  Rx         03D2  7  09 00 00 20 00 06 53 
  1124)       625.7  Rx         0440  8  00 80 00 FE 80 00 F0 00 
  1125)       629.7  Rx         0540  8  E0 00 FF 00 FE 00 10 26 
  1126)       635.3  Rx         0320  8  20 02 20 01 00 07 00 8D 
  1127)       635.6  Rx         0280  8  01 00 00 00 27 00 1E 27 
  1128)       635.9  Rx         0440  8  00 80 00 FE 80 00 F8 00 
  1129)       636.1  Rx         0288  8  8A 51 10 04 00 6D 8C 8D 
  1130)       636.3  Rx         01A0  8  00 42 00 00 00 FE 00 53 
  1131)       636.6  Rx         0380  8  00 51 00 7D 20 00 00 14 
  1132)       636.8  Rx         04A0  8  00 00 00 00 00 00 00 00 
  1133)       637.0  Rx         038A  4  85 01 84 00 
  1134)       637.4  Rx         0488  8  74 27 8D 80 FE FF FF A0 
  1135)       638.0  Rx         0480  8  54 2C 00 00 19 40 04 25 
  1136)       638.3  Rx         0284  6  06 06 00 00 00 00 
  1137)       638.6  Rx         0588  8  1B 2C 80 00 00 80 00 00 
  1138)       639.0  Rx         00C2  8  00 80 00 80 80 7A 00 85 
  1139)       639.4  Rx         00D0  6  47 40 0B 0C 00 00 
  1140)       639.6  Rx         0050  4  00 A4 68 CC 
  1141)       639.8  Rx         0540  8  F0 00 FF 00 FE 00 10 2F 
  1142)       640.0  Rx         056A  8  11 00 08 00 1A 00 02 01 
  1143)       640.3  Rx         05C0  8  CA 68 80 A6 21 01 89 2D 
  1144)       640.8  Rx         05E0  8  20 00 00 00 00 00 80 00 
  1145)       641.2  Rx         0280  8  01 00 00 00 27 00 1E 27 
  1146)       641.4  Rx         0288  8  8A 51 10 04 00 6D 8C 8D 
  1147)       641.7  Rx         01A0  8  00 42 00 00 00 FE 00 54 
  1148)       642.0  Rx         0380  8  00 51 00 7D 20 00 00 14 
  1149)       642.3  Rx         01AC  8  B3 0A 00 00 69 01 03 D2 
  1150)       642.6  Rx         0488  8  64 27 8D 80 FE FF FF B0 
  1151)       643.0  Rx         04A0  8  00 00 00 00 00 00 00 00 
  1152)       643.3  Rx         04A8  8  00 00 00 10 00 00 A0 B0 
  1153)       643.5  Rx         05A0  8  7D 00 00 A2 00 00 10 AB 
  1154)       644.2  Rx         00C2  8  00 80 00 80 80 8A 00 75 
  1155)       644.5  Rx         00D0  6  50 50 0C 0C 00 00 
  1156)       644.8  Rx         03D0  6  01 82 00 10 00 00 
  1157)       645.1  Rx         03D2  7  0A 00 00 20 00 06 53 
  1158)       645.7  Rx         0440  8  00 80 00 FE 80 00 80 00 
  1159)       649.7  Rx         0540  8  00 00 FF 00 FE 00 10 2F 
  1160)       655.0  Rx         0320  8  20 02 20 01 00 08 00 8D 
  1161)       655.7  Rx         0440  8  00 80 00 FE 80 00 88 00 
  1162)       655.8  Rx         0572  1  07 
  1163)       656.0  Rx         0280  8  01 00 00 00 27 00 1E 27 
  1164)       656.3  Rx         0288  8  E8 51 10 04 00 6D 8C 8D 
  1165)       656.6  Rx         01A0  8  00 42 00 00 00 FE 00 55 
  1166)       656.9  Rx         0380  8  00 51 00 7D 20 00 00 14 
  1167)       657.3  Rx         04A0  8  00 00 00 00 00 00 00 00 
  1168)       657.5  Rx         0488  8  14 27 8D 80 FE FF FF C0 
  1169)       657.7  Rx         038A  4  95 01 94 00 
  1170)       658.4  Rx         0480  8  54 2C 00 00 19 40 04 25 
  1171)       658.8  Rx         0284  6  07 07 00 00 00 00 
  1172)       659.2  Rx         0588  8  1B 2C 80 00 00 80 00 00 
  1173)       659.5  Rx         00C2  8  00 80 00 80 80 9A 00 65 
  1174)       659.8  Rx         0540  8  10 00 FF 00 FE 00 10 2F 
  1175)       660.0  Rx         00D0  6  61 60 0D 0C 00 00 
  1176)       660.2  Rx         056A  8  01 00 08 00 1A 00 02 11 
  1177)       660.5  Rx         05C0  8  CB 68 80 A6 21 01 89 2C 
  1178)       660.7  Rx         0050  4  00 A4 78 DC 
  1179)       661.3  Rx         05E0  8  20 00 00 00 00 00 80 00 
  1180)       661.6  Rx         0280  8  01 00 00 00 27 00 1E 27 
  1181)       661.9  Rx         0288  8  E8 51 10 04 00 6D 8C 8D 
  1182)       662.2  Rx         01A0  8  00 42 00 00 00 FE 00 56 
  1183)       662.5  Rx         0380  8  00 51 00 7D 20 00 00 14 
  1184)       662.8  Rx         01AC  8  B2 0B 00 00 69 01 03 D2 
  1185)       663.1  Rx         0488  8  04 27 8D 80 FE FF FF D0 
  1186)       663.4  Rx         04A0  8  00 00 00 00 00 00 00 00 
  1187)       663.8  Rx         04A8  8  19 00 00 10 00 00 B0 B9 
  1188)       664.1  Rx         05A0  8  7D 00 00 B2 00 00 10 AB 
  1189)       664.7  Rx         0580  8  8D 00 00 7F 00 F0 47 01 
  1190)       665.0  Rx         00C2  8  00 80 00 80 80 AA 00 55 
  1191)       665.3  Rx         00D0  6  71 70 0D 0C 00 00 
  1192)       665.5  Rx         03D0  6  01 82 00 10 00 00 
  1193)       665.8  Rx         0440  8  00 80 00 FE 80 00 90 00 
  1194)       666.0  Rx         03D2  7  0B 00 00 20 00 06 53 
  1195)       669.7  Rx         0540  8  20 00 FF 00 FE 00 10 2F 
  1196)       675.7  Rx         0440  8  00 80 00 FE 80 00 98 00 
  1197)       676.3  Rx         0320  8  20 02 20 01 00 09 00 8D 
  1198)       676.6  Rx         0280  8  01 00 00 00 27 00 1E 27 
  1199)       676.9  Rx         0288  8  E8 51 10 04 00 6D 8C 8D 
  1200)       677.2  Rx         01A0  8  00 42 00 00 00 FE 00 57 
  1201)       677.5  Rx         0380  8  00 51 00 7D 20 00 00 14 
  1202)       677.8  Rx         04A0  8  00 00 00 00 00 00 00 00 
  1203)       678.1  Rx         0488  8  34 27 8D 80 FE FF FF E0 
  1204)       678.3  Rx         038A  4  A5 01 A4 00 
  1205)       679.1  Rx         0480  8  84 2C 00 00 19 40 04 F5 
  1206)       679.4  Rx         0284  6  08 08 00 00 00 00 
  1207)       679.7  Rx         0588  8  1B 2C 80 00 00 80 00 00 
  1208)       680.0  Rx         0540  8  30 00 FF 00 FE 00 10 26 
  1209)       680.2  Rx         00C2  8  00 80 00 80 80 BA 00 45 
  1210)       680.4  Rx         00D0  6  82 80 0E 0C 00 00 
  1211)       680.7  Rx         056A  8  31 00 08 00 1A 00 02 21 
  1212)       680.9  Rx         05C0  8  CC 68 80 A6 21 01 89 2B 
  1213)       681.1  Rx         0050  4  00 A4 88 2C 
  1214)       681.8  Rx         05E0  8  20 00 00 00 00 00 80 00 
  1215)       682.1  Rx         0280  8  01 00 00 00 27 00 1E 27 
  1216)       682.4  Rx         0288  8  E8 51 10 04 00 6D 8C 8D 
  1217)       682.7  Rx         01A0  8  00 42 00 00 00 FE 00 58 
  1218)       683.0  Rx         0380  8  00 51 00 7D 20 00 00 14 
  1219)       683.3  Rx         01AC  8  B5 0C 00 00 69 01 03 D2 
  1220)       683.6  Rx         0488  8  24 27 8D 80 FE FF FF F0 
  1221)       684.0  Rx         04A0  8  00 00 00 00 00 00 00 00 
  1222)       684.3  Rx         04A8  8  00 00 00 10 00 00 C0 D0 
  1223)       684.6  Rx         05A0  8  7D 00 00 C2 00 00 10 AB 
  1224)       685.2  Rx         05C6  8  00 20 00 00 00 00 00 13 
  1225)       685.5  Rx         00C2  8  00 80 00 80 80 CA 00 35 
  1226)       685.7  Rx         0440  8  00 80 00 FE 80 00 A0 00 
  1227)       686.0  Rx         00D0  6  92 90 0E 0C 00 00 
  1228)       686.2  Rx         03D0  6  01 82 00 10 00 00 
  1229)       686.4  Rx         03D2  7  0C 00 00 20 00 06 53 
  1230)       686.6  Rx         0320  8  20 02 20 01 00 0A 00 8D 
  1231)       689.7  Rx         0540  8  40 00 FF 00 FE 00 10 26 
  1232)       695.7  Rx         0440  8  00 80 00 FE 80 00 A8 00 
  1233)       697.0  Rx         0280  8  01 00 00 00 27 00 1E 27 
  1234)       697.3  Rx         01A0  8  00 42 00 00 00 FE 00 59 
  1235)       697.6  Rx         0288  8  2C 51 10 04 00 6D 8C 8D 
  1236)       697.9  Rx         0380  8  00 51 00 7D 20 00 00 14 
  1237)       698.2  Rx         04A0  8  00 00 00 00 00 00 00 00 
  1238)       698.5  Rx         0488  8  2B 27 8D 80 FE FF 00 00 
  1239)       698.8  Rx         038A  4  B5 01 B4 00 
  1240)       699.6  Rx         0480  8  84 2C 00 00 19 40 04 F5 
  1241)       699.8  Rx         0540  8  50 00 FF 00 FE 00 10 26 
  1242)       700.0  Rx         00D0  6  A2 A0 0E 0C 00 00 
  1243)       700.2  Rx         0284  6  09 09 00 00 00 00 
  1244)       700.5  Rx         0588  8  1B 2C 80 00 00 80 00 00 
  1245)       700.8  Rx         00C2  8  00 80 00 80 80 DA 00 25 
  1246)       701.1  Rx         056A  8  21 00 08 00 1A 00 02 31 
  1247)       701.4  Rx         05C0  8  CD 68 80 A6 21 01 89 2A 
  1248)       701.5  Rx         0050  4  00 A4 98 3C 
  1249)       701.8  Rx         0550  3  80 80 00 
  1250)       702.5  Rx         05E0  8  20 00 00 00 00 00 80 00 
  1251)       702.8  Rx         0280  8  01 00 00 00 27 00 1E 27 
  1252)       703.1  Rx         0288  8  2C 51 10 04 00 6D 8C 8D 
  1253)       703.5  Rx         01A0  8  00 42 00 00 00 FE 00 5A 
  1254)       704.1  Rx         0380  8  00 51 00 7D 20 00 00 14 
  1255)       704.4  Rx         01AC  8  B5 0D 00 00 69 01 02 D2 
  1256)       704.7  Rx         0488  8  10 27 8D 80 FE FF 2B 10 
  1257)       705.0  Rx         04A0  8  00 00 00 00 00 00 00 00 
  1258)       705.3  Rx         04A8  8  0C 80 00 10 00 00 D0 4C 
  1259)       705.6  Rx         05A0  8  7D 00 00 D2 00 00 10 AB 
  1260)       705.8  Rx         0440  8  00 80 00 FE 80 00 B0 00 
  1261)       706.1  Rx         0570  5  C7 A0 A0 00 80 
  1262)       706.5  Rx         0420  8  9A 7B 7B 00 00 00 FF 00 
  1263)       706.8  Rx         00C2  8  00 80 00 80 80 EA 00 15 
  1264)       707.1  Rx         00D0  6  B3 B0 0F 0C 00 00 
  1265)       707.4  Rx         03D0  6  01 82 00 10 00 00 
  1266)       707.7  Rx         03D2  7  0D 00 00 20 00 06 53 
  1267)       708.0  Rx         0320  8  20 02 20 01 00 0B 00 8D 
  1268)       708.6  Rx         0390  8  6A 40 50 00 00 00 20 00 
  1269)       709.1  Rx         0280  8  01 00 00 00 27 00 1E 27 
  1270)       709.4  Rx         0288  8  2C 51 10 04 00 6D 8C 8D 
  1271)       709.7  Rx         01A0  8  00 42 00 00 00 FE 00 5B 
  1272)       709.9  Rx         0540  8  60 00 FF 00 FE 00 10 26 
  1273)       710.2  Rx         0380  8  00 51 00 7D 20 00 00 14 
  1274)       710.4  Rx         038A  4  C5 01 C4 00 
  1275)       710.6  Rx         0488  8  3F 27 8D 80 FE FF 34 20 
  1276)       710.8  Rx         04A0  8  00 00 00 00 00 00 00 00 
  1277)       715.6  Rx         0440  8  00 80 00 FE 80 00 B8 00 
  1278)       719.7  Rx         0540  8  70 00 FF 00 FE 00 10 2F 
  1279)       720.9  Rx         0480  8  84 2C 00 00 19 40 04 F5 
  1280)       721.3  Rx         0284  6  0A 0A 00 00 00 00 
  1281)       721.6  Rx         0588  8  1B 2C 80 00 00 80 00 00 
  1282)       721.9  Rx         05D0  8  C0 04 51 AF 29 48 01 00 
  1283)       722.2  Rx         00C2  8  00 80 00 80 80 FA 00 05 
  1284)       722.4  Rx         00D0  6  C3 C0 0F 0C 00 00 
  1285)       722.7  Rx         056A  8  51 00 08 00 1A 00 02 41 
  1286)       723.1  Rx         05C0  8  CE 68 80 A6 21 01 89 29 
  1287)       723.3  Rx         0050  4  00 A4 A8 0C 
  1288)       724.1  Rx         05E0  8  20 00 00 00 00 00 80 00 
  1289)       724.3  Rx         01A0  8  00 42 00 00 00 FE 00 5C 
  1290)       724.6  Rx         01AC  8  B7 0E 00 00 69 01 03 D2 
  1291)       724.9  Rx         04A0  8  00 00 00 00 00 00 00 00 
  1292)       725.2  Rx         0280  8  01 00 00 00 27 00 1E 27 
  1293)       725.5  Rx         0288  8  2C 51 10 04 00 6D 8C 8D 
  1294)       725.7  Rx         0440  8  00 80 00 FE 80 00 C0 00 
  1295)       726.0  Rx         0380  8  00 51 00 7D 20 00 00 14 
  1296)       726.2  Rx         04A8  8  00 00 00 10 00 00 E0 F0 
  1297)       726.5  Rx         0488  8  1B 27 8D 80 FE FF 00 30 
  1298)       727.0  Rx         05A0  8  7D 00 00 E2 00 00 10 AB 
  1299)       727.3  Rx         05DC  8  77 18 C0 3F 1E 00 30 42 
  1300)       727.6  Rx         00D0  6  D3 D0 0F 0C 00 00 
  1301)       727.9  Rx         00C2  8  00 80 00 80 80 0A 00 F5 
  1302)       728.2  Rx         03D0  6  01 82 00 10 00 00 
  1303)       728.5  Rx         03D2  7  0E 00 00 20 00 07 53 
  1304)       729.0  Rx         0320  8  20 02 20 01 00 0C 00 8D 
  1305)       729.6  Rx         0280  8  01 00 00 00 27 00 1E 27 
  1306)       729.8  Rx         0540  8  80 00 FF 00 FE 00 10 2F 
  1307)       730.0  Rx         01A0  8  00 42 00 00 00 FE 00 5D 
  1308)       730.3  Rx         0288  8  64 51 10 04 00 6D 8C 8D 
  1309)       730.5  Rx         0380  8  00 51 00 7D 20 00 00 14 
  1310)       730.7  Rx         038A  4  D5 01 D4 00 
  1311)       731.1  Rx         0488  8  4D 27 8D 80 FE FF 26 40 
  1312)       731.4  Rx         04A0  8  00 00 00 00 00 00 00 00 
  1313)       735.7  Rx         0440  8  00 80 00 FE 80 00 C8 00 
  1314)       739.7  Rx         0540  8  90 00 FF 00 FE 00 10 2F 
  1315)       740.9  Rx         0480  8  84 2C 00 00 19 40 04 F5 
  1316)       741.2  Rx         0284  6  0B 0B 00 00 00 00 
  1317)       741.5  Rx         00D0  6  E2 E0 0E 0C 00 00 
  1318)       741.8  Rx         00C2  8  00 80 00 80 80 1A 00 E5 
  1319)       742.1  Rx         056A  8  41 00 08 00 1A 00 02 51 
  1320)       742.4  Rx         0588  8  1B 2C 80 00 00 80 00 00 
  1321)       742.7  Rx         05C0  8  CF 68 80 A6 21 01 89 28 
  1322)       743.0  Rx         0050  4  00 A4 B8 1C 
  1323)       743.7  Rx         05E0  8  20 00 00 00 00 00 80 00 
  1324)       744.0  Rx         0280  8  01 00 00 00 27 00 1E 27 
  1325)       744.3  Rx         01A0  8  00 42 00 00 00 FE 00 5E 
  1326)       744.6  Rx         0288  8  64 51 10 04 00 6D 8C 8D 
  1327)       744.9  Rx         01AC  8  B7 0F 00 00 69 01 02 D2 
  1328)       745.2  Rx         0380  8  00 51 00 7D 20 00 00 14 
  1329)       745.5  Rx         0488  8  84 27 8D 80 FE FF FF 50 
  1330)       745.7  Rx         0440  8  00 80 00 FE 80 00 D0 00 
  1331)       746.0  Rx         04A0  8  00 00 00 00 00 00 00 00 
  1332)       746.2  Rx         04A8  8  00 00 00 10 00 00 F0 E0 
  1333)       746.5  Rx         05A0  8  7D 00 00 F2 00 00 10 AB 
  1334)       747.0  Rx         00D0  6  F2 F0 0E 0C 00 00 
  1335)       747.3  Rx         00C2  8  00 80 00 80 80 2A 00 D5 
  1336)       747.6  Rx         03D0  6  01 82 00 10 00 00 
  1337)       747.9  Rx         03D2  7  0F 00 00 20 00 06 53 
  1338)       748.5  Rx         0320  8  20 02 20 01 00 0D 00 8D 
  1339)       748.7  Rx         0572  1  07 
  1340)       749.2  Rx         0280  8  01 00 00 00 27 00 1E 27 
  1341)       749.5  Rx         01A0  8  00 42 00 00 00 FE 00 5F 
  1342)       749.7  Rx         0540  8  A0 00 FF 00 FE 00 10 2F 
  1343)       749.9  Rx         0288  8  64 51 10 04 00 6D 8C 8D 
  1344)       750.2  Rx         0380  8  00 51 00 7D 20 00 00 14 
  1345)       750.5  Rx         0488  8  B4 27 8D 80 FE FF FF 60 
  1346)       750.7  Rx         04A0  8  00 00 00 00 00 00 00 00 
  1347)       750.9  Rx         038A  4  E5 01 E4 00 
  1348)       755.6  Rx         0440  8  00 80 00 FE 80 00 D8 00 
  1349)       759.7  Rx         0540  8  B0 00 FF 00 FE 00 10 26 
  1350)       761.0  Rx         0480  8  C2 2C 00 00 19 40 04 B3 
  1351)       761.3  Rx         0284  6  0C 0C 00 00 00 00 
  1352)       761.6  Rx         0588  8  1B 2C 80 00 00 80 00 00 
  1353)       761.8  Rx         00D0  6  02 00 0E 0C 00 00 
  1354)       762.1  Rx         00C2  8  00 80 00 80 80 3A 00 C5 
  1355)       762.4  Rx         056A  8  71 00 08 00 1A 00 02 61 
  1356)       762.7  Rx         05C0  8  C0 68 80 A6 21 01 89 27 
  1357)       763.0  Rx         0050  4  00 A4 C8 6C 
  1358)       763.8  Rx         05E0  8  20 00 00 00 00 00 80 00 
  1359)       764.1  Rx         0280  8  01 00 00 00 27 00 1E 27 
  1360)       764.3  Rx         01A0  8  00 42 00 00 00 FE 00 50 
  1361)       764.6  Rx         0288  8  64 51 10 04 00 6D 8C 8D 
  1362)       764.9  Rx         01AC  8  B8 00 00 00 69 01 02 D2 
  1363)       765.2  Rx         0380  8  00 51 00 7D 20 00 00 14 
  1364)       765.5  Rx         0488  8  A4 27 8D 80 FE FF FF 70 
  1365)       765.7  Rx         0440  8  00 80 00 FE 80 00 E0 00 
  1366)       766.0  Rx         04A0  8  00 00 00 00 00 00 00 00 
  1367)       766.2  Rx         04A8  8  0C 00 00 10 00 00 00 1C 
  1368)       766.5  Rx         05A0  8  7D 00 00 02 00 00 10 AB 
  1369)       767.0  Rx         00D0  6  12 10 0E 0C 00 00 
  1370)       767.3  Rx         00C2  8  00 80 00 80 80 4A 00 B5 
  1371)       767.6  Rx         03D0  6  01 82 00 10 00 00 
  1372)       767.9  Rx         03D2  7  00 00 00 20 00 06 53 
  1373)       768.5  Rx         0320  8  20 02 20 01 00 0E 00 8D 
  1374)       768.9  Rx         0280  8  01 00 00 00 27 00 1E 27 
  1375)       769.2  Rx         01A0  8  00 42 00 00 00 FE 00 51 
  1376)       769.5  Rx         0288  8  8A 51 10 04 00 6D 8C 8D 
  1377)       769.8  Rx         0540  8  C0 00 FF 00 FE 00 10 26 
  1378)       770.0  Rx         0380  8  00 51 00 7D 20 00 00 14 
  1379)       770.2  Rx         038A  4  F5 01 F4 00 
  1380)       770.4  Rx         0488  8  54 27 8D 80 FE FF FF 80 
  1381)       770.7  Rx         04A0  8  00 00 00 00 00 00 00 00 
  1382)       775.6  Rx         0440  8  00 80 00 FE 80 00 E8 00 
  1383)       779.6  Rx         0540  8  D0 00 FF 00 FE 00 10 26 
  1384)       780.9  Rx         00D0  6  22 20 0E 0C 00 00 
  1385)       781.2  Rx         0284  6  0D 0D 00 00 00 00 
  1386)       781.5  Rx         0480  8  C2 2C 00 00 19 40 04 B3 
  1387)       781.8  Rx         0588  8  1B 2C 80 00 00 80 00 00 
  1388)       782.1  Rx         00C2  8  00 80 00 80 80 5A 00 A5 
  1389)       782.4  Rx         056A  8  61 00 08 00 1A 00 02 71 
  1390)       782.7  Rx         05C0  8  C1 68 80 A6 21 01 89 26 
  1391)       783.3  Rx         0050  4  00 A4 D8 7C 
  1392)       783.7  Rx         05E0  8  20 00 00 00 00 00 80 00 
  1393)       784.0  Rx         0280  8  01 00 00 00 27 00 1E 27 
  1394)       784.3  Rx         01A0  8  00 42 00 00 00 FE 00 52 
  1395)       784.5  Rx         0288  8  8A 51 10 04 00 6D 8C 8D 
  1396)       784.9  Rx         01AC  8  B9 01 00 00 69 01 02 D2 
  1397)       785.2  Rx         0380  8  00 51 00 7D 20 00 00 14 
  1398)       785.5  Rx         0488  8  44 27 8D 80 FE FF FF 90 
  1399)       785.7  Rx         0440  8  00 80 00 FE 80 00 F0 00 
  1400)       786.0  Rx         04A0  8  00 00 00 00 00 00 00 00 
  1401)       786.2  Rx         04A8  8  1F 00 00 10 00 00 10 1F 
  1402)       786.5  Rx         05A0  8  7D 00 00 12 00 00 10 AB 
  1403)       787.0  Rx         05C6  8  00 20 00 00 00 00 00 13 
  1404)       787.3  Rx         00D0  6  32 30 0E 0C 00 00 
  1405)       787.6  Rx         00C2  8  00 80 00 80 80 6A 00 95 
  1406)       787.9  Rx         03D0  6  01 82 00 10 00 00 
  1407)       788.2  Rx         03D2  7  01 00 00 20 00 07 53 
  1408)       788.5  Rx         0320  8  20 02 20 01 00 0F 00 8D 
  1409)       789.3  Rx         05D2  8  00 00 00 00 00 57 56 57 
  1410)       789.6  Rx         01A0  8  00 42 00 00 00 FE 00 53 
  1411)       789.8  Rx         0540  8  E0 00 FF 00 FE 00 10 26 
  1412)       790.1  Rx         0280  8  01 00 00 00 27 00 1E 27 
  1413)       790.3  Rx         0288  8  8A 51 10 04 00 6D 8C 8D 
  1414)       790.5  Rx         0380  8  00 51 00 7D 20 00 00 14 
  1415)       790.8  Rx         04A0  8  00 00 00 00 00 00 00 00 
  1416)       791.0  Rx         038A  4  05 01 04 00 
  1417)       791.3  Rx         0488  8  74 27 8D 80 FE FF FF A0 
  1418)       795.6  Rx         0440  8  00 80 00 FE 80 00 F8 00 
  1419)       799.6  Rx         0540  8  F0 00 FF 00 FE 00 10 2F 
  1420)       801.9  Rx         0480  8  C2 2C 00 00 19 40 04 B3 
  1421)       802.2  Rx         0284  6  0E 0E 00 00 00 00 
  1422)       802.5  Rx         00D0  6  42 40 0E 0C 00 00 
  1423)       802.8  Rx         00C2  8  00 80 00 80 80 7A 00 85 
  1424)       803.2  Rx         056A  8  91 00 08 00 1A 00 02 81 
  1425)       803.5  Rx         0588  8  1B 2C 80 00 00 80 00 00 
  1426)       804.1  Rx         05C0  8  C2 68 80 A6 21 01 89 25 
  1427)       804.6  Rx         0050  4  00 A4 E8 4C 
  1428)       805.1  Rx         05E0  8  20 00 00 00 00 00 80 00 
  1429)       805.3  Rx         01A0  8  00 42 00 00 00 FE 00 54 
  1430)       805.6  Rx         01AC  8  BA 02 00 00 69 01 02 D2 
  1431)       805.9  Rx         0440  8  00 80 00 FE 80 00 80 00 
  1432)       806.1  Rx         04A0  8  00 00 00 00 00 00 00 00 
  1433)       806.3  Rx         04A8  8  06 00 00 10 00 00 20 36 
  1434)       806.6  Rx         0280  8  01 00 00 00 27 00 1E 27 
  1435)       806.8  Rx         0288  8  8A 51 10 04 00 6D 8C 8D 
  1436)       807.2  Rx         0380  8  00 51 00 7D 20 00 00 14 
  1437)       807.4  Rx         05A0  8  7D 00 00 22 00 00 10 AB 
  1438)       807.7  Rx         0488  8  64 27 8D 80 FE FF FF B0 
  1439)       808.2  Rx         0570  5  C7 A0 A0 00 80 
  1440)       808.7  Rx         0520  8  57 C4 00 77 28 4F 33 03 
  1441)       809.0  Rx         00D0  6  52 50 0E 0C 00 00 
  1442)       809.4  Rx         03D0  6  01 82 00 10 00 00 
  1443)       809.7  Rx         0540  8  00 00 FF 00 FE 00 10 2F 
  1444)       809.9  Rx         00C2  8  00 80 00 80 80 8A 00 75 
  1445)       810.1  Rx         03D2  7  02 00 00 20 00 07 53 
  1446)       810.3  Rx         0320  8  20 02 20 01 00 00 00 8D 
  1447)       810.9  Rx         0390  8  6A 40 50 00 00 00 20 00 
  1448)       811.2  Rx         01A0  8  00 42 00 00 00 FE 00 55 
  1449)       811.5  Rx         0280  8  01 00 00 00 27 00 1E 27 
  1450)       811.8  Rx         0288  8  E8 51 10 04 00 6D 8C 8D 
  1451)       812.1  Rx         0380  8  00 51 00 7D 20 00 00 14 
  1452)       812.3  Rx         038A  4  15 01 14 00 
  1453)       812.7  Rx         0488  8  14 27 8D 80 FE FF FF C0 
  1454)       813.0  Rx         04A0  8  00 00 00 00 00 00 00 00 
  1455)       813.7  Rx         05D0  8  C0 04 51 AF 29 48 01 00 
  1456)       814.0  Rx         0284  6  0F 0F 00 00 00 00 
  1457)       814.3  Rx         0480  8  C2 2C 00 00 19 40 04 B3 
  1458)       814.5  Rx         00D0  6  62 60 0E 0C 00 00 
  1459)       814.9  Rx         0588  8  1B 2C 80 00 00 80 00 00 
  1460)       815.2  Rx         00C2  8  00 80 00 80 80 9A 00 65 
  1461)       815.5  Rx         056A  8  81 00 08 00 1A 00 02 91 
  1462)       815.8  Rx         0440  8  00 80 00 FE 80 00 88 00 
  1463)       816.0  Rx         05C0  8  C3 68 80 A6 21 01 89 24 
  1464)       819.6  Rx         0540  8  10 00 FF 00 FE 00 10 2F 
  1465)       825.6  Rx         0440  8  00 80 00 FE 80 00 90 00 
  1466)       826.2  Rx         05E0  8  20 00 00 00 00 00 80 00 
  1467)       826.4  Rx         0050  4  00 A4 F8 5C 
  1468)       826.8  Rx         01A0  8  00 42 00 00 00 FE 00 56 
  1469)       827.1  Rx         0280  8  01 00 00 00 27 00 1E 27 
  1470)       827.4  Rx         01AC  8  BB 03 00 00 69 01 02 D2 
  1471)       827.7  Rx         0288  8  E8 51 10 04 00 6D 8C 8D 
  1472)       828.0  Rx         0380  8  00 51 00 7D 20 00 00 14 
  1473)       828.3  Rx         0488  8  04 27 8D 80 FE FF FF D0 
  1474)       828.6  Rx         04A0  8  00 00 00 00 00 00 00 00 
  1475)       829.0  Rx         04A8  8  00 00 00 10 00 00 30 20 
  1476)       829.4  Rx         05A0  8  7D 00 00 32 00 00 10 AB 
  1477)       829.8  Rx         0540  8  20 00 FF 00 FE 00 10 2F 
  1478)       830.0  Rx         05DC  8  77 18 C0 3F 1E 00 30 42 
  1479)       830.2  Rx         00D0  6  72 70 0E 0C 00 00 
  1480)       830.5  Rx         03D0  6  01 82 00 10 00 00 
  1481)       830.8  Rx         00C2  8  00 80 00 80 80 AA 00 55 
  1482)       831.1  Rx         03D2  7  03 00 00 20 00 06 53 
  1483)       831.7  Rx         0320  8  20 02 20 01 00 01 00 8D 
  1484)       832.0  Rx         01A0  8  00 42 00 00 00 FE 00 57 
  1485)       832.3  Rx         0280  8  01 00 00 00 27 00 1E 27 
  1486)       832.6  Rx         0288  8  E8 51 10 04 00 6D 8C 8D 
  1487)       832.9  Rx         0380  8  00 51 00 7D 20 00 00 14 
  1488)       833.2  Rx         038A  4  25 01 24 00 
  1489)       833.5  Rx         0488  8  34 27 8D 80 FE FF FF E0 
  1490)       834.0  Rx         04A0  8  00 00 00 00 00 00 00 00 
  1491)       834.5  Rx         0480  8  1C 2C 00 00 19 40 04 6D 
  1492)       834.8  Rx         0284  6  00 00 00 00 00 00 
  1493)       835.1  Rx         0588  8  1B 2C 80 00 00 80 00 00 
  1494)       835.3  Rx         00D0  6  82 80 0E 0C 00 00 
  1495)       835.6  Rx         0440  8  00 80 00 FE 80 00 98 00 
  1496)       835.9  Rx         00C2  8  00 80 00 80 80 BA 00 45 
  1497)       836.1  Rx         056A  8  B1 00 08 00 1A 00 02 A1 
  1498)       836.4  Rx         05C0  8  C4 68 80 A6 21 01 89 23 
  1499)       839.6  Rx         0540  8  30 00 FF 00 FE 00 10 26 
  1500)       845.6  Rx         0440  8  00 80 00 FE 80 00 A0 00 
  1501)       846.0  Rx         05E0  8  20 00 00 00 00 00 80 00 
  1502)       846.1  Rx         0050  4  00 A4 08 AC 
  1503)       846.5  Rx         01A0  8  00 42 00 00 00 FE 00 58 
  1504)       846.8  Rx         0280  8  01 00 00 00 27 00 1E 27 
  1505)       847.1  Rx         01AC  8  BC 04 00 00 69 01 02 D2 
  1506)       847.4  Rx         0288  8  E8 51 10 04 00 6D 8C 8D 
  1507)       847.7  Rx         0380  8  00 51 00 7D 20 00 00 14 
  1508)       848.0  Rx         0488  8  24 27 8D 80 FE FF FF F0 
  1509)       848.3  Rx         04A0  8  00 00 00 00 00 00 00 00 
  1510)       848.7  Rx         04A8  8  0C 00 00 10 00 00 40 5C 
  1511)       849.0  Rx         05A0  8  7E 00 00 42 00 00 10 AB 
  1512)       849.6  Rx         00D0  6  92 90 0E 0C 00 00 
  1513)       849.8  Rx         0540  8  40 00 FF 00 FE 00 10 26 
  1514)       850.0  Rx         03D0  6  01 82 00 10 00 00 
  1515)       850.3  Rx         00C2  8  00 80 00 80 80 CA 00 35 
  1516)       850.5  Rx         03D2  7  04 00 00 20 00 06 53 
  1517)       850.8  Rx         0320  8  20 02 20 01 00 02 00 8D 
  1518)       851.2  Rx         0572  1  07 
  1519)       851.7  Rx         01A0  8  00 42 00 00 00 FE 00 59 
  1520)       852.0  Rx         0280  8  01 00 00 00 27 00 1E 27 
  1521)       852.2  Rx         0288  8  2C 51 10 04 00 6D 8C 8D 
  1522)       852.5  Rx         0380  8  00 51 00 7D 20 00 00 14 
  1523)       852.9  Rx         04A0  8  00 00 00 00 00 00 00 00 
  1524)       853.3  Rx         0488  8  2B 27 8D 80 FE FF 00 00 
  1525)       853.4  Rx         038A  4  35 01 34 00 
  1526)       854.4  Rx         00D0  6  A2 A0 0E 0C 00 00 
  1527)       854.8  Rx         0480  8  1C 2C 00 00 19 40 04 6D 
  1528)       855.1  Rx         0284  6  01 01 00 00 00 00 
  1529)       855.4  Rx         0588  8  1B 2C 80 00 00 80 00 00 
  1530)       855.7  Rx         0440  8  00 80 00 FE 80 00 A8 00 
  1531)       855.9  Rx         05C0  8  C5 68 80 A6 21 01 89 22 
  1532)       856.1  Rx         00C2  8  00 80 00 80 80 DA 00 25 
  1533)       856.3  Rx         056A  8  A1 00 08 00 1A 00 02 B1 
  1534)       859.6  Rx         0540  8  50 00 FF 00 FE 00 10 26 
  1535)       865.6  Rx         0440  8  00 80 00 FE 80 00 B0 00 
  1536)       865.9  Rx         05E0  8  20 00 00 00 00 00 80 00 
  1537)       866.2  Rx         01A0  8  00 42 00 00 00 FE 00 5A 
  1538)       866.4  Rx         0050  4  00 A4 18 BC 
  1539)       866.8  Rx         01AC  8  BC 05 00 00 69 01 03 D2 
  1540)       867.1  Rx         0280  8  01 00 00 00 27 00 1E 27 
  1541)       867.4  Rx         0288  8  2C 51 10 04 00 6D 8C 8D 
  1542)       867.7  Rx         0380  8  00 51 00 7D 20 00 00 14 
  1543)       868.0  Rx         0488  8  10 27 8D 80 FE FF 2B 10 
  1544)       868.3  Rx         04A0  8  00 00 00 00 00 00 00 00 
  1545)       868.7  Rx         04A8  8  00 00 00 10 00 00 50 40 
  1546)       869.4  Rx         05A0  8  7E 00 00 52 00 00 10 AB 
