;$FILEVERSION=1.1
;$STARTTIME=45493.8548870949
;
;   Start time: 20.07.2024 20:31:02.245.0
;   Generated by PCAN-View v4.3.4.615
;
;   Message Number
;   |         Time Offset (ms)
;   |         |        Type
;   |         |        |        ID (hex)
;   |         |        |        |     Data Length
;   |         |        |        |     |   Data Bytes (hex) ...
;   |         |        |        |     |   |
;---+--   ----+----  --+--  ----+---  +  -+ -- -- -- -- -- -- --
     1)      5084.8  Rx     18DBEFF1  8  02 3E 00 00 00 00 00 00 
     2)      5086.6  Rx     18DAF125  8  02 7E 00 55 55 55 55 55 
     3)      5086.9  Rx     18DAF1B5  8  02 7E 00 55 55 55 55 55 
     4)      5088.1  Rx     18DAF110  8  02 7E 00 55 55 55 55 55 
     5)      5089.1  Rx     18DAF11E  8  02 7E 00 55 55 55 55 55 
     6)      5089.5  Rx     18DAF130  8  02 7E 00 55 55 55 55 55 
     7)      5089.7  Rx     18DAF13A  8  02 7E 00 55 55 55 55 55 
     8)      5090.2  Rx     18DAF1B6  8  02 7E 00 55 55 55 55 55 
     9)      5090.5  Rx     18DAF12B  8  02 7E 00 55 55 55 55 55 
    10)      5092.1  Rx     18DAF126  8  02 7E 00 55 55 55 55 55 
    11)      5093.8  Rx     18DAF160  8  02 7E 00 55 55 55 55 55 
    12)      5094.0  Rx     18DAF1EF  8  02 7E 00 55 55 55 55 55 
    13)      5095.8  Rx     18DAF153  8  02 7E 00 55 55 55 55 55 
    14)      5097.7  Rx     18DAF10B  8  02 7E 00 55 55 55 55 55 
    15)      5100.8  Rx     18DAF128  8  02 7E 00 00 00 00 00 00 
    16)      5103.5  Rx     18DAF1B0  8  02 7E 00 55 55 55 55 55 
    17)      5319.8  Rx     18DBEFF1  8  02 3E 00 00 00 00 00 00 
    18)      5320.7  Rx     18DAF110  8  02 7E 00 55 55 55 55 55 
    19)      5320.9  Rx     18DAF11E  8  02 7E 00 55 55 55 55 55 
    20)      5321.4  Rx     18DAF130  8  02 7E 00 55 55 55 55 55 
    21)      5322.6  Rx     18DAF125  8  02 7E 00 55 55 55 55 55 
    22)      5323.4  Rx     18DAF1B5  8  02 7E 00 55 55 55 55 55 
    23)      5323.7  Rx     18DAF13A  8  02 7E 00 55 55 55 55 55 
    24)      5324.0  Rx     18DAF1EF  8  02 7E 00 55 55 55 55 55 
    25)      5324.2  Rx     18DAF160  8  02 7E 00 55 55 55 55 55 
    26)      5324.9  Rx     18DAF153  8  02 7E 00 55 55 55 55 55 
    27)      5326.0  Rx     18DAF12B  8  02 7E 00 55 55 55 55 55 
    28)      5326.4  Rx     18DAF1B6  8  02 7E 00 55 55 55 55 55 
    29)      5330.3  Rx     18DAF10B  8  02 7E 00 55 55 55 55 55 
    30)      5330.7  Rx     18DAF126  8  02 7E 00 55 55 55 55 55 
    31)      5334.4  Rx     18DAF128  8  02 7E 00 00 00 00 00 00 
    32)      5335.8  Rx     18DAF1B0  8  02 7E 00 55 55 55 55 55 
    33)      6086.0  Rx     18DA10F1  8  03 22 26 00 00 00 00 00 
    34)      6088.2  Rx     18DAF110  8  10 0D 62 26 00 12 21 30 
    35)      6091.3  Rx     18DA10F1  8  30 00 00 00 00 00 00 00 
    36)      6092.3  Rx     18DAF110  8  21 00 01 EE 0E 00 00 00 
    37)      6164.7  Rx     18DA10F1  8  02 10 03 00 00 00 00 00 
    38)      6168.2  Rx     18DAF110  8  02 50 03 55 55 55 55 55 
    39)      6198.5  Rx     18DA10F1  8  02 27 05 00 00 00 00 00 
    40)      6199.4  Rx     18DAF110  8  05 67 05 97 30 16 55 55 
    41)      6242.2  Rx     18DA10F1  8  05 27 06 E6 74 16 00 00 
    42)      6243.1  Rx     18DAF110  8  02 67 06 55 55 55 55 55 
    43)      6345.9  Rx     18DA10F1  8  03 22 F1 81 00 00 00 00 
    44)      6347.5  Rx     18DAF110  8  10 13 62 F1 81 33 37 38 
    45)      6351.3  Rx     18DA10F1  8  30 00 00 00 00 00 00 00 
    46)      6352.2  Rx     18DAF110  8  21 30 35 2D 35 59 46 2D 
    47)      6352.5  Rx     18DAF110  8  22 43 32 32 30 00 00 55 
    48)      6392.2  Rx     18DA10F1  8  03 22 26 0F 00 00 00 00 
    49)      6393.1  Rx     18DAF110  8  03 7F 22 31 55 55 55 55 
    50)      6443.5  Rx     18DA10F1  8  03 22 26 10 00 00 00 00 
    51)      6444.3  Rx     18DAF110  8  10 39 62 26 10 FF 9F B0 
    52)      6448.8  Rx     18DA10F1  8  30 00 00 00 00 00 00 00 
    53)      6449.6  Rx     18DAF110  8  21 6D F8 FC 00 00 2D 14 
    54)      6449.9  Rx     18DAF110  8  22 66 53 6C 51 58 00 00 
    55)      6450.5  Rx     18DAF110  8  23 65 00 00 78 80 78 00 
    56)      6450.8  Rx     18DAF110  8  24 00 00 00 00 00 00 00 
    57)      6451.1  Rx     18DAF110  8  25 0F 00 00 00 00 00 84 
    58)      6451.4  Rx     18DAF110  8  26 47 00 00 6C 50 00 00 
    59)      6451.6  Rx     18DAF110  8  27 00 12 CC 1D B3 00 00 
    60)      6452.0  Rx     18DAF110  8  28 00 00 55 55 55 55 55 
    61)      6524.7  Rx     18DA10F1  8  03 22 26 11 00 00 00 00 
    62)      6530.6  Rx     18DAF110  8  10 39 62 26 11 FF F0 00 
    63)      6531.0  Rx     18DA10F1  8  30 00 00 00 00 00 00 00 
    64)      6531.8  Rx     18DAF110  8  21 00 0C 00 82 59 FF FF 
    65)      6532.1  Rx     18DAF110  8  22 80 83 80 00 00 B3 00 
    66)      6532.4  Rx     18DAF110  8  23 00 00 00 00 00 00 00 
    67)      6532.9  Rx     18DAF110  8  24 00 00 00 00 00 00 00 
    68)      6533.1  Rx     18DAF110  8  25 00 00 00 00 00 00 00 
    69)      6533.8  Rx     18DAF110  8  26 00 00 00 00 03 00 00 
    70)      6534.6  Rx     18DAF110  8  27 00 00 00 00 00 00 00 
    71)      6535.6  Rx     18DAF110  8  28 00 00 55 55 55 55 55 
    72)      6638.4  Rx     18DA10F1  8  03 22 26 12 00 00 00 00 
    73)      6639.3  Rx     18DAF110  8  10 39 62 26 12 FF F3 F0 
    74)      6643.7  Rx     18DA10F1  8  30 00 00 00 00 00 00 00 
    75)      6644.6  Rx     18DAF110  8  21 70 02 43 32 18 00 00 
    76)      6645.1  Rx     18DAF110  8  22 2D D3 05 B8 02 C9 1E 
    77)      6647.8  Rx     18DAF110  8  23 E1 00 00 01 00 01 00 
    78)      6648.3  Rx     18DAF110  8  24 28 00 00 00 00 00 00 
    79)      6648.6  Rx     18DAF110  8  25 27 00 00 00 00 00 00 
    80)      6648.9  Rx     18DAF110  8  26 00 00 00 00 00 00 00 
    81)      6649.2  Rx     18DAF110  8  27 00 00 64 00 00 00 00 
    82)      6649.4  Rx     18DAF110  8  28 40 00 55 55 55 55 55 
    83)      6728.4  Rx     18DA10F1  8  03 22 26 13 00 00 00 00 
    84)      6731.2  Rx     18DAF110  8  10 39 62 26 13 FF E0 00 
    85)      6733.8  Rx     18DA10F1  8  30 00 00 00 00 00 00 00 
    86)      6735.1  Rx     18DAF110  8  21 00 00 F0 00 06 00 7F 
    87)      6737.6  Rx     18DAF110  8  22 9F 92 02 3E 44 02 AE 
    88)      6738.1  Rx     18DAF110  8  23 00 00 00 00 00 00 00 
    89)      6738.6  Rx     18DAF110  8  24 00 00 00 00 00 00 00 
    90)      6739.2  Rx     18DAF110  8  25 00 00 00 00 00 00 00 
    91)      6739.5  Rx     18DAF110  8  26 00 00 00 00 00 00 00 
    92)      6739.8  Rx     18DAF110  8  27 00 FF 61 00 00 00 00 
    93)      6740.2  Rx     18DAF110  8  28 00 00 55 55 55 55 55 
    94)      6865.9  Rx     18DA10F1  8  03 22 26 14 00 00 00 00 
    95)      6867.5  Rx     18DAF110  8  03 7F 22 31 55 55 55 55 
    96)      6955.9  Rx     18DA10F1  8  03 22 26 15 00 00 00 00 
    97)      6958.2  Rx     18DAF110  8  10 39 62 26 15 F8 32 00 
    98)      6961.2  Rx     18DA10F1  8  30 00 00 00 00 00 00 00 
    99)      6962.3  Rx     18DAF110  8  21 00 00 00 58 1D B3 20 
   100)      6962.6  Rx     18DAF110  8  22 B8 00 00 00 00 00 03 
   101)      6962.9  Rx     18DAF110  8  23 03 00 00 78 00 00 00 
   102)      6963.2  Rx     18DAF110  8  24 00 00 00 00 00 00 00 
   103)      6963.6  Rx     18DAF110  8  25 00 00 00 00 00 00 00 
   104)      6964.1  Rx     18DAF110  8  26 00 00 00 00 00 00 00 
   105)      6964.4  Rx     18DAF110  8  27 00 00 00 00 00 00 00 
   106)      6964.7  Rx     18DAF110  8  28 00 00 55 55 55 55 55 
   107)      7043.4  Rx     18DA10F1  8  03 22 26 16 00 00 00 00 
   108)      7044.3  Rx     18DAF110  8  03 7F 22 31 55 55 55 55 
   109)      7124.7  Rx     18DA10F1  8  03 22 26 17 00 00 00 00 
   110)      7130.9  Rx     18DAF110  8  10 39 62 26 17 00 00 00 
   111)      7131.2  Rx     18DA10F1  8  30 00 00 00 00 00 00 00 
   112)      7132.1  Rx     18DAF110  8  21 03 00 00 00 00 00 00 
   113)      7132.4  Rx     18DAF110  8  22 00 00 00 00 00 00 00 
   114)      7132.8  Rx     18DAF110  8  23 00 00 00 00 00 00 00 
   115)      7133.1  Rx     18DAF110  8  24 00 00 00 00 00 00 00 
   116)      7133.8  Rx     18DAF110  8  25 00 00 00 00 00 80 00 
   117)      7134.3  Rx     18DAF110  8  26 00 00 00 00 00 00 00 
   118)      7134.9  Rx     18DAF110  8  27 00 00 00 00 00 00 00 
   119)      7137.5  Rx     18DAF110  8  28 00 00 55 55 55 55 55 
   120)      7303.4  Rx     18DA10F1  8  03 22 26 1A 00 00 00 00 
   121)      7304.3  Rx     18DAF110  8  03 7F 22 31 55 55 55 55 
   122)      7380.9  Rx     18DA10F1  8  03 22 26 20 00 00 00 00 
   123)      7381.7  Rx     18DAF110  8  10 39 62 26 20 FF 9D B0 
   124)      7386.2  Rx     18DA10F1  8  30 00 00 00 00 00 00 00 
   125)      7387.8  Rx     18DAF110  8  21 0C 60 00 00 00 00 00 
   126)      7388.1  Rx     18DAF110  8  22 00 00 00 00 00 00 00 
   127)      7388.4  Rx     18DAF110  8  23 00 00 00 00 00 00 00 
   128)      7388.7  Rx     18DAF110  8  24 00 00 00 00 00 00 00 
   129)      7389.0  Rx     18DAF110  8  25 00 00 00 00 00 00 00 
   130)      7389.3  Rx     18DAF110  8  26 00 00 00 00 00 00 00 
   131)      7389.5  Rx     18DAF110  8  27 00 00 00 00 00 00 00 
   132)      7389.8  Rx     18DAF110  8  28 00 00 55 55 55 55 55 
   133)      7554.6  Rx     18DA10F1  8  03 22 26 21 00 00 00 00 
   134)      7556.1  Rx     18DAF110  8  10 39 62 26 21 FF C0 00 
   135)      7560.0  Rx     18DA10F1  8  30 00 00 00 00 00 00 00 
   136)      7560.9  Rx     18DAF110  8  21 00 00 00 00 00 00 00 
   137)      7561.2  Rx     18DAF110  8  22 80 80 00 00 00 00 00 
   138)      7561.5  Rx     18DAF110  8  23 00 00 00 00 00 00 00 
   139)      7561.8  Rx     18DAF110  8  24 00 00 00 00 00 00 00 
   140)      7562.2  Rx     18DAF110  8  25 00 00 00 00 00 00 00 
   141)      7562.5  Rx     18DAF110  8  26 00 00 00 00 00 00 00 
   142)      7562.7  Rx     18DAF110  8  27 00 00 00 00 00 00 00 
   143)      7563.0  Rx     18DAF110  8  28 00 00 55 55 55 55 55 
   144)      7638.4  Rx     18DA10F1  8  03 22 26 22 00 00 00 00 
   145)      7639.2  Rx     18DAF110  8  10 39 62 26 22 FF F0 20 
   146)      7643.7  Rx     18DA10F1  8  30 00 00 00 00 00 00 00 
   147)      7644.6  Rx     18DAF110  8  21 70 00 00 00 00 00 00 
   148)      7645.0  Rx     18DAF110  8  22 00 00 00 00 00 00 00 
   149)      7647.8  Rx     18DAF110  8  23 00 00 00 00 00 00 00 
   150)      7648.3  Rx     18DAF110  8  24 00 00 00 00 00 00 00 
   151)      7648.6  Rx     18DAF110  8  25 00 00 00 00 00 00 00 
   152)      7648.9  Rx     18DAF110  8  26 00 00 00 00 00 00 00 
   153)      7649.2  Rx     18DAF110  8  27 00 00 00 00 00 00 00 
   154)      7649.5  Rx     18DAF110  8  28 00 00 55 55 55 55 55 
   155)      7723.4  Rx     18DA10F1  8  03 22 26 23 00 00 00 00 
   156)      7724.2  Rx     18DAF110  8  10 39 62 26 23 84 00 00 
   157)      7728.7  Rx     18DA10F1  8  30 00 00 00 00 00 00 00 
   158)      7731.2  Rx     18DAF110  8  21 00 00 C0 00 00 00 00 
   159)      7731.5  Rx     18DAF110  8  22 00 00 00 00 00 00 00 
   160)      7731.8  Rx     18DAF110  8  23 00 00 00 00 00 00 00 
   161)      7732.2  Rx     18DAF110  8  24 00 00 00 00 00 00 00 
   162)      7732.5  Rx     18DAF110  8  25 00 00 00 00 00 00 00 
   163)      7732.8  Rx     18DAF110  8  26 00 00 00 00 00 00 00 
   164)      7733.1  Rx     18DAF110  8  27 00 00 00 00 00 00 00 
   165)      7733.8  Rx     18DAF110  8  28 00 00 55 55 55 55 55 
   166)      7833.4  Rx     18DA10F1  8  03 22 26 24 00 00 00 00 
   167)      7834.9  Rx     18DAF110  8  03 7F 22 31 55 55 55 55 
   168)      7980.9  Rx     18DA10F1  8  03 22 26 25 00 00 00 00 
   169)      7981.7  Rx     18DAF110  8  10 39 62 26 25 E0 00 00 
   170)      7986.2  Rx     18DA10F1  8  30 00 00 00 00 00 00 00 
   171)      7987.6  Rx     18DAF110  8  21 00 00 00 00 00 00 00 
   172)      7988.1  Rx     18DAF110  8  22 00 00 00 00 00 00 00 
   173)      7988.4  Rx     18DAF110  8  23 00 00 00 00 00 00 00 
   174)      7988.7  Rx     18DAF110  8  24 00 00 00 00 00 00 00 
   175)      7989.0  Rx     18DAF110  8  25 00 00 00 00 00 00 00 
   176)      7989.3  Rx     18DAF110  8  26 00 00 00 00 00 00 00 
   177)      7989.6  Rx     18DAF110  8  27 00 00 00 00 00 00 00 
   178)      7989.9  Rx     18DAF110  8  28 00 00 55 55 55 55 55 
   179)      8065.9  Rx     18DA10F1  8  03 22 26 27 00 00 00 00 
   180)      8067.6  Rx     18DAF110  8  10 39 62 26 27 00 00 00 
   181)      8071.2  Rx     18DA10F1  8  30 00 00 00 00 00 00 00 
   182)      8072.2  Rx     18DAF110  8  21 03 00 00 00 00 00 00 
   183)      8072.5  Rx     18DAF110  8  22 00 00 00 00 00 00 00 
   184)      8072.8  Rx     18DAF110  8  23 00 00 00 00 00 00 00 
   185)      8073.1  Rx     18DAF110  8  24 00 00 00 00 00 00 00 
   186)      8073.8  Rx     18DAF110  8  25 00 00 00 00 00 80 00 
   187)      8074.3  Rx     18DAF110  8  26 00 00 00 00 00 00 00 
   188)      8074.9  Rx     18DAF110  8  27 00 00 00 00 00 00 00 
   189)      8075.6  Rx     18DAF110  8  28 00 00 55 55 55 55 55 
   190)      8152.1  Rx     18DA10F1  8  03 22 26 2A 00 00 00 00 
   191)      8153.0  Rx     18DAF110  8  03 7F 22 31 55 55 55 55 
   192)      8238.3  Rx     18DA10F1  8  03 22 26 30 00 00 00 00 
   193)      8239.4  Rx     18DAF110  8  06 62 26 30 00 00 00 55 
   194)      8325.8  Rx     18DA10F1  8  03 22 26 60 00 00 00 00 
   195)      8330.7  Rx     18DAF110  8  10 39 62 26 60 80 1F FF 
   196)      8331.2  Rx     18DA10F1  8  30 00 00 00 00 00 00 00 
   197)      8332.2  Rx     18DAF110  8  21 F3 FF F0 00 00 00 00 
   198)      8332.5  Rx     18DAF110  8  22 00 00 00 00 00 00 00 
   199)      8332.7  Rx     18DAF110  8  23 00 00 06 53 3B 22 01 
   200)      8333.0  Rx     18DAF110  8  24 00 04 00 40 00 83 00 
   201)      8333.7  Rx     18DAF110  8  25 01 02 EE 00 00 00 00 
   202)      8334.3  Rx     18DAF110  8  26 00 00 00 00 28 01 23 
   203)      8335.0  Rx     18DAF110  8  27 3D 00 00 00 00 00 00 
   204)      8335.6  Rx     18DAF110  8  28 00 00 55 55 55 55 55 
   205)      8409.6  Rx     18DA10F1  8  03 22 26 61 00 00 00 00 
   206)      8410.5  Rx     18DAF110  8  10 39 62 26 61 FF CC 01 
   207)      8414.9  Rx     18DA10F1  8  30 00 00 00 00 00 00 00 
   208)      8418.9  Rx     18DAF110  8  21 80 01 FF 01 10 00 00 
   209)      8419.4  Rx     18DAF110  8  22 00 00 00 00 21 01 00 
   210)      8420.0  Rx     18DAF110  8  23 00 00 00 00 00 00 00 
   211)      8420.3  Rx     18DAF110  8  24 00 00 00 00 00 12 24 
   212)      8420.8  Rx     18DAF110  8  25 00 00 00 00 00 00 00 
   213)      8421.1  Rx     18DAF110  8  26 00 00 00 00 00 00 00 
   214)      8421.3  Rx     18DAF110  8  27 18 00 08 00 10 00 36 
   215)      8421.6  Rx     18DAF110  8  28 00 7F 55 55 55 55 55 
   216)      8580.8  Rx     18DA10F1  8  03 22 26 62 00 00 00 00 
   217)      8581.6  Rx     18DAF110  8  10 39 62 26 62 2B 00 33 
   218)      8586.1  Rx     18DA10F1  8  30 00 00 00 00 00 00 00 
   219)      8587.3  Rx     18DAF110  8  21 71 7F FF 00 00 00 00 
   220)      8587.8  Rx     18DAF110  8  22 49 00 03 2D 00 00 00 
   221)      8588.3  Rx     18DAF110  8  23 00 00 00 00 00 00 00 
   222)      8588.6  Rx     18DAF110  8  24 01 00 00 00 00 28 00 
   223)      8588.9  Rx     18DAF110  8  25 5E 00 00 00 00 00 AA 
   224)      8589.2  Rx     18DAF110  8  26 00 51 53 01 B7 01 B7 
   225)      8589.5  Rx     18DAF110  8  27 1F 00 00 00 00 00 47 
   226)      8589.7  Rx     18DAF110  8  28 00 00 55 55 55 55 55 
   227)      8757.0  Rx     18DA10F1  8  03 22 26 63 00 00 00 00 
   228)      8757.9  Rx     18DAF110  8  10 39 62 26 63 F3 3F FC 
   229)      8762.4  Rx     18DA10F1  8  30 00 00 00 00 00 00 00 
   230)      8763.4  Rx     18DAF110  8  21 3F F0 E0 00 00 0F 00 
   231)      8764.0  Rx     18DAF110  8  22 00 00 01 01 00 00 02 
   232)      8764.3  Rx     18DAF110  8  23 00 91 00 00 00 00 00 
   233)      8764.6  Rx     18DAF110  8  24 00 00 00 00 00 00 00 
   234)      8764.9  Rx     18DAF110  8  25 00 00 00 00 00 00 00 
   235)      8767.7  Rx     18DAF110  8  26 00 00 00 00 00 00 00 
   236)      8768.2  Rx     18DAF110  8  27 00 00 00 10 00 00 00 
   237)      8768.5  Rx     18DAF110  8  28 00 00 55 55 55 55 55 
   238)      8872.0  Rx     18DA10F1  8  03 22 26 64 00 00 00 00 
   239)      8872.9  Rx     18DAF110  8  10 39 62 26 64 FF FF FE 
   240)      8877.4  Rx     18DA10F1  8  30 00 00 00 00 00 00 00 
   241)      8878.3  Rx     18DAF110  8  21 01 80 C0 A0 20 00 00 
   242)      8878.6  Rx     18DAF110  8  22 00 00 00 00 00 00 00 
   243)      8879.3  Rx     18DAF110  8  23 00 00 00 00 00 00 00 
   244)      8879.6  Rx     18DAF110  8  24 00 00 00 00 00 00 00 
   245)      8879.9  Rx     18DAF110  8  25 00 00 00 00 00 00 05 
   246)      8880.7  Rx     18DAF110  8  26 04 00 00 00 00 00 00 
   247)      8881.0  Rx     18DAF110  8  27 00 C0 00 00 00 00 00 
   248)      8881.3  Rx     18DAF110  8  28 00 00 55 55 55 55 55 
   249)      9009.5  Rx     18DA10F1  8  03 22 26 65 00 00 00 00 
   250)      9010.5  Rx     18DAF110  8  10 39 62 26 65 FF 00 00 
   251)      9014.9  Rx     18DA10F1  8  30 00 00 00 00 00 00 00 
   252)      9017.6  Rx     18DAF110  8  21 F0 C0 00 8F 00 00 00 
   253)      9018.2  Rx     18DAF110  8  22 07 68 00 00 00 00 00 
   254)      9018.7  Rx     18DAF110  8  23 00 00 00 00 00 00 00 
   255)      9019.7  Rx     18DAF110  8  24 00 00 00 00 00 00 00 
   256)      9020.0  Rx     18DAF110  8  25 00 00 00 00 00 00 00 
   257)      9020.3  Rx     18DAF110  8  26 00 00 00 00 00 00 00 
   258)      9020.8  Rx     18DAF110  8  27 00 00 00 00 00 00 00 
   259)      9021.3  Rx     18DAF110  8  28 00 00 55 55 55 55 55 
   260)      9120.8  Rx     18DA10F1  8  03 22 26 66 00 00 00 00 
   261)      9121.6  Rx     18DAF110  8  03 7F 22 31 55 55 55 55 
   262)      9268.2  Rx     18DA10F1  8  03 22 26 67 00 00 00 00 
   263)      9269.1  Rx     18DAF110  8  03 7F 22 31 55 55 55 55 
   264)      9327.0  Rx     18DA10F1  8  03 22 26 68 00 00 00 00 
   265)      9331.1  Rx     18DAF110  8  10 39 62 26 68 78 00 04 
   266)      9332.3  Rx     18DA10F1  8  30 00 00 00 00 00 00 00 
   267)      9333.6  Rx     18DAF110  8  21 03 01 E0 00 00 3A 00 
   268)      9334.2  Rx     18DAF110  8  22 39 00 00 00 00 00 00 
   269)      9334.9  Rx     18DAF110  8  23 00 00 00 00 00 00 00 
   270)      9335.7  Rx     18DAF110  8  24 00 00 00 80 00 00 00 
   271)      9336.3  Rx     18DAF110  8  25 00 00 00 00 00 03 01 
   272)      9337.2  Rx     18DAF110  8  26 00 00 00 00 00 00 00 
   273)      9337.8  Rx     18DAF110  8  27 23 7F FF 00 00 00 00 
   274)      9338.3  Rx     18DAF110  8  28 00 00 55 55 55 55 55 
   275)      9389.5  Rx     18DA10F1  8  03 22 26 6A 00 00 00 00 
   276)      9390.6  Rx     18DAF110  8  10 39 62 26 6A FF 00 00 
   277)      9394.8  Rx     18DA10F1  8  30 00 00 00 00 00 00 00 
   278)      9396.1  Rx     18DAF110  8  21 00 00 00 00 00 00 00 
   279)      9397.1  Rx     18DAF110  8  22 00 00 00 00 00 00 00 
   280)      9397.6  Rx     18DAF110  8  23 00 00 00 00 00 00 00 
   281)      9398.1  Rx     18DAF110  8  24 00 00 00 00 00 00 00 
   282)      9398.7  Rx     18DAF110  8  25 00 00 00 00 00 00 00 
   283)      9399.2  Rx     18DAF110  8  26 00 00 00 00 00 00 00 
   284)      9399.7  Rx     18DAF110  8  27 00 00 00 00 00 00 00 
   285)      9400.8  Rx     18DAF110  8  28 00 00 55 55 55 55 55 
   286)      9455.8  Rx     18DA10F1  8  03 22 26 6B 00 00 00 00 
   287)      9457.2  Rx     18DAF110  8  03 7F 22 31 55 55 55 55 
   288)      9493.3  Rx     18DA10F1  8  03 22 26 6C 00 00 00 00 
   289)      9494.9  Rx     18DAF110  8  10 39 62 26 6C F0 00 00 
   290)      9498.6  Rx     18DA10F1  8  30 00 00 00 00 00 00 00 
   291)      9499.5  Rx     18DAF110  8  21 3C FC 00 00 00 00 00 
   292)      9499.8  Rx     18DAF110  8  22 00 00 00 00 00 00 00 
   293)      9500.8  Rx     18DAF110  8  23 00 00 00 00 00 00 00 
   294)      9501.1  Rx     18DAF110  8  24 00 00 00 00 00 00 00 
   295)      9501.4  Rx     18DAF110  8  25 00 00 00 00 00 00 00 
   296)      9501.9  Rx     18DAF110  8  26 80 00 00 00 00 59 00 
   297)      9502.2  Rx     18DAF110  8  27 00 00 00 00 00 00 00 
   298)      9502.6  Rx     18DAF110  8  28 00 00 55 55 55 55 55 
   299)      9553.2  Rx     18DA10F1  8  03 22 26 6D 00 00 00 00 
   300)      9555.0  Rx     18DAF110  8  10 39 62 26 6D 00 00 00 
   301)      9558.6  Rx     18DA10F1  8  30 00 00 00 00 00 00 00 
   302)      9559.5  Rx     18DAF110  8  21 E5 00 00 00 00 00 00 
   303)      9559.8  Rx     18DAF110  8  22 00 00 00 00 00 00 00 
   304)      9560.8  Rx     18DAF110  8  23 00 00 00 00 00 00 00 
   305)      9561.1  Rx     18DAF110  8  24 00 00 00 00 00 00 00 
   306)      9561.4  Rx     18DAF110  8  25 80 83 00 00 FF 00 00 
   307)      9561.7  Rx     18DAF110  8  26 00 00 00 00 00 00 00 
   308)      9562.2  Rx     18DAF110  8  27 00 00 00 00 00 00 00 
   309)      9562.6  Rx     18DAF110  8  28 00 00 55 55 55 55 55 
   310)      9595.8  Rx     18DA10F1  8  03 22 26 6E 00 00 00 00 
   311)      9597.3  Rx     18DAF110  8  10 39 62 26 6E 18 00 00 
   312)      9601.1  Rx     18DA10F1  8  30 00 00 00 00 00 00 00 
   313)      9602.2  Rx     18DAF110  8  21 00 00 00 00 00 00 00 
   314)      9602.8  Rx     18DAF110  8  22 00 00 00 00 00 00 00 
   315)      9603.1  Rx     18DAF110  8  23 00 00 00 00 00 00 00 
   316)      9603.6  Rx     18DAF110  8  24 00 00 00 00 00 00 00 
   317)      9604.1  Rx     18DAF110  8  25 00 00 00 00 00 00 00 
   318)      9604.4  Rx     18DAF110  8  26 00 00 00 00 00 00 00 
   319)      9605.1  Rx     18DAF110  8  27 00 00 00 00 00 00 00 
   320)      9605.6  Rx     18DAF110  8  28 00 00 55 55 55 55 55 
   321)      9643.3  Rx     18DA10F1  8  03 22 26 6F 00 00 00 00 
   322)      9644.1  Rx     18DAF110  8  10 27 62 26 6F 00 00 03 
   323)      9648.6  Rx     18DA10F1  8  30 00 00 00 00 00 00 00 
   324)      9649.5  Rx     18DAF110  8  21 FF 00 00 00 00 00 00 
   325)      9649.8  Rx     18DAF110  8  22 00 00 00 00 00 00 00 
   326)      9650.1  Rx     18DAF110  8  23 00 00 00 00 00 00 00 
   327)      9650.6  Rx     18DAF110  8  24 00 00 01 00 00 00 00 
   328)      9650.9  Rx     18DAF110  8  25 00 00 00 00 00 55 55 
   329)      9699.5  Rx     18DA10F1  8  03 22 26 70 00 00 00 00 
   330)      9701.1  Rx     18DAF110  8  03 7F 22 31 55 55 55 55 
   331)      9754.6  Rx     18DA10F1  8  03 22 26 71 00 00 00 00 
   332)      9755.6  Rx     18DAF110  8  03 7F 22 31 55 55 55 55 
   333)      9803.3  Rx     18DA10F1  8  03 22 26 72 00 00 00 00 
   334)      9804.2  Rx     18DAF110  8  03 7F 22 31 55 55 55 55 
   335)      9843.3  Rx     18DA10F1  8  03 22 26 73 00 00 00 00 
   336)      9844.2  Rx     18DAF110  8  10 39 62 26 73 CC CC C0 
   337)      9848.6  Rx     18DA10F1  8  30 00 00 00 00 00 00 00 
   338)      9849.5  Rx     18DAF110  8  21 00 C0 00 01 00 00 00 
   339)      9849.8  Rx     18DAF110  8  22 01 00 00 00 01 00 00 
   340)      9850.4  Rx     18DAF110  8  23 00 01 01 00 00 07 00 
   341)      9850.7  Rx     18DAF110  8  24 00 00 00 00 00 00 00 
   342)      9851.0  Rx     18DAF110  8  25 00 00 00 00 00 00 00 
   343)      9851.3  Rx     18DAF110  8  26 0F 00 00 00 00 00 00 
   344)      9851.5  Rx     18DAF110  8  27 00 00 00 00 00 00 00 
   345)      9851.9  Rx     18DAF110  8  28 00 00 55 55 55 55 55 
   346)      9905.8  Rx     18DA10F1  8  03 22 26 74 00 00 00 00 
   347)      9907.6  Rx     18DAF110  8  03 7F 22 31 55 55 55 55 
   348)      9963.3  Rx     18DA10F1  8  03 22 26 7B 00 00 00 00 
   349)      9964.2  Rx     18DAF110  8  10 39 62 26 7B CC 0D FF 
   350)      9968.7  Rx     18DA10F1  8  30 00 00 00 00 00 00 00 
   351)      9969.5  Rx     18DAF110  8  21 FF FF FF 00 00 00 00 
   352)      9969.8  Rx     18DAF110  8  22 00 00 00 00 00 00 00 
   353)      9970.1  Rx     18DAF110  8  23 00 00 00 00 00 00 00 
   354)      9970.6  Rx     18DAF110  8  24 00 00 00 00 00 00 00 
   355)      9970.9  Rx     18DAF110  8  25 00 00 00 00 FF 7F FF 
   356)      9971.2  Rx     18DAF110  8  26 00 00 00 00 00 00 00 
   357)      9971.5  Rx     18DAF110  8  27 00 00 00 00 00 00 00 
   358)      9971.9  Rx     18DAF110  8  28 00 00 55 55 55 55 55 
   359)     10010.8  Rx     18DA10F1  8  03 22 26 7C 00 00 00 00 
   360)     10011.8  Rx     18DAF110  8  10 39 62 26 7C CF C0 30 
   361)     10016.1  Rx     18DA10F1  8  30 00 00 00 00 00 00 00 
   362)     10017.6  Rx     18DAF110  8  21 00 00 00 00 01 00 00 
   363)     10018.1  Rx     18DAF110  8  22 01 00 00 00 00 00 00 
   364)     10018.6  Rx     18DAF110  8  23 00 00 00 00 00 00 00 
   365)     10019.2  Rx     18DAF110  8  24 00 00 00 00 00 00 00 
   366)     10019.5  Rx     18DAF110  8  25 00 00 00 00 00 00 00 
   367)     10019.7  Rx     18DAF110  8  26 00 00 00 00 00 00 00 
   368)     10020.0  Rx     18DAF110  8  27 00 00 00 00 00 00 00 
   369)     10020.6  Rx     18DAF110  8  28 00 00 55 55 55 55 55 
   370)     10089.6  Rx     18DA10F1  8  03 22 26 7F 00 00 00 00 
   371)     10090.6  Rx     18DAF110  8  10 0D 62 26 7F 00 00 00 
   372)     10094.9  Rx     18DA10F1  8  30 00 00 00 00 00 00 00 
   373)     10096.1  Rx     18DAF110  8  21 00 00 00 00 00 00 00 
   374)     10123.3  Rx     18DA10F1  8  03 22 26 80 00 00 00 00 
   375)     10124.2  Rx     18DAF110  8  10 39 62 26 80 F8 C0 00 
   376)     10128.7  Rx     18DA10F1  8  30 00 00 00 00 00 00 00 
   377)     10130.7  Rx     18DAF110  8  21 00 00 00 91 1F E0 80 
   378)     10131.0  Rx     18DAF110  8  22 06 00 00 00 40 00 00 
   379)     10131.3  Rx     18DAF110  8  23 00 00 00 00 00 00 00 
   380)     10131.6  Rx     18DAF110  8  24 00 00 00 00 00 00 00 
   381)     10132.0  Rx     18DAF110  8  25 00 00 00 00 00 00 00 
   382)     10132.3  Rx     18DAF110  8  26 00 00 00 00 00 00 00 
   383)     10132.6  Rx     18DAF110  8  27 00 00 00 00 00 00 00 
   384)     10132.9  Rx     18DAF110  8  28 00 00 55 55 55 55 55 
   385)     10184.5  Rx     18DA10F1  8  03 22 26 81 00 00 00 00 
   386)     10187.0  Rx     18DAF110  8  10 39 62 26 81 FF FF CD 
   387)     10189.9  Rx     18DA10F1  8  30 00 00 00 00 00 00 00 
   388)     10190.8  Rx     18DAF110  8  21 80 00 00 2E D7 F8 CD 
   389)     10191.1  Rx     18DAF110  8  22 55 22 00 00 00 C0 00 
   390)     10191.3  Rx     18DAF110  8  23 62 61 C0 80 13 34 4A 
   391)     10191.6  Rx     18DAF110  8  24 00 00 0F EB 00 E0 00 
   392)     10192.0  Rx     18DAF110  8  25 00 00 00 00 00 00 00 
   393)     10192.3  Rx     18DAF110  8  26 00 00 00 00 00 00 00 
   394)     10192.6  Rx     18DAF110  8  27 00 00 00 00 00 00 00 
   395)     10192.9  Rx     18DAF110  8  28 00 00 55 55 55 55 55 
   396)     10253.3  Rx     18DA10F1  8  03 22 26 82 00 00 00 00 
   397)     10255.0  Rx     18DAF110  8  10 39 62 26 82 FF FF FE 
   398)     10258.7  Rx     18DA10F1  8  30 00 00 00 00 00 00 00 
   399)     10259.6  Rx     18DAF110  8  21 00 00 00 FD 15 FD 09 
   400)     10259.9  Rx     18DAF110  8  22 00 40 00 00 00 1C 7D 
   401)     10260.4  Rx     18DAF110  8  23 79 BC 5D 3E 1F 9F FF 
   402)     10260.7  Rx     18DAF110  8  24 00 00 00 80 80 00 00 
   403)     10261.0  Rx     18DAF110  8  25 00 00 00 00 00 00 00 
   404)     10261.2  Rx     18DAF110  8  26 00 00 00 00 00 00 00 
   405)     10261.5  Rx     18DAF110  8  27 00 00 00 00 00 00 00 
   406)     10262.3  Rx     18DAF110  8  28 00 00 55 55 55 55 55 
   407)     10329.5  Rx     18DA10F1  8  03 22 26 83 00 00 00 00 
   408)     10330.7  Rx     18DAF110  8  10 39 62 26 83 FF FF FF 
   409)     10334.9  Rx     18DA10F1  8  30 00 00 00 00 00 00 00 
   410)     10336.1  Rx     18DAF110  8  21 FF 00 00 00 0B 93 98 
   411)     10337.1  Rx     18DAF110  8  22 00 0D 23 FC 00 00 18 
   412)     10337.6  Rx     18DAF110  8  23 B7 00 01 69 9A 00 01 
   413)     10338.2  Rx     18DAF110  8  24 47 6B 00 02 2F 75 00 
   414)     10338.7  Rx     18DAF110  8  25 09 93 2F 00 04 29 25 
   415)     10339.2  Rx     18DAF110  8  26 00 00 00 00 00 00 00 
   416)     10339.5  Rx     18DAF110  8  27 00 00 00 00 00 00 00 
   417)     10339.8  Rx     18DAF110  8  28 00 00 55 55 55 55 55 
   418)     10455.8  Rx     18DA10F1  8  03 22 26 84 00 00 00 00 
   419)     10457.3  Rx     18DAF110  8  10 39 62 26 84 FF FF FF 
   420)     10461.1  Rx     18DA10F1  8  30 00 00 00 00 00 00 00 
   421)     10462.3  Rx     18DAF110  8  21 00 00 00 00 00 00 00 
   422)     10462.8  Rx     18DAF110  8  22 00 00 00 00 00 00 00 
   423)     10463.3  Rx     18DAF110  8  23 00 00 00 00 00 00 00 
   424)     10463.7  Rx     18DAF110  8  24 00 00 00 00 00 00 00 
   425)     10464.3  Rx     18DAF110  8  25 00 00 00 00 00 00 00 
   426)     10464.8  Rx     18DAF110  8  26 00 00 00 00 00 00 00 
   427)     10465.3  Rx     18DAF110  8  27 00 00 00 00 00 00 00 
   428)     10467.1  Rx     18DAF110  8  28 00 00 55 55 55 55 55 
   429)     10567.0  Rx     18DA10F1  8  03 22 26 85 00 00 00 00 
   430)     10568.2  Rx     18DAF110  8  10 39 62 26 85 F2 00 00 
   431)     10572.4  Rx     18DA10F1  8  30 00 00 00 00 00 00 00 
   432)     10573.7  Rx     18DAF110  8  21 00 00 00 10 10 10 10 
   433)     10574.2  Rx     18DAF110  8  22 00 00 00 00 00 00 00 
   434)     10575.0  Rx     18DAF110  8  23 00 00 00 00 00 00 00 
   435)     10575.8  Rx     18DAF110  8  24 00 00 00 00 00 00 00 
   436)     10576.8  Rx     18DAF110  8  25 00 00 00 00 00 00 00 
   437)     10577.3  Rx     18DAF110  8  26 00 00 00 00 00 00 00 
   438)     10577.8  Rx     18DAF110  8  27 00 00 00 00 00 00 00 
   439)     10578.3  Rx     18DAF110  8  28 00 00 55 55 55 55 55 
   440)     10657.1  Rx     18DA10F1  8  03 22 26 86 00 00 00 00 
   441)     10657.9  Rx     18DAF110  8  10 39 62 26 86 10 00 00 
   442)     10662.4  Rx     18DA10F1  8  30 00 00 00 00 00 00 00 
   443)     10663.7  Rx     18DAF110  8  21 00 00 00 00 00 00 20 
   444)     10664.2  Rx     18DAF110  8  22 00 00 00 00 00 00 00 
   445)     10664.5  Rx     18DAF110  8  23 00 00 00 00 00 00 00 
   446)     10665.0  Rx     18DAF110  8  24 00 00 00 00 00 00 00 
   447)     10667.1  Rx     18DAF110  8  25 00 00 00 00 00 00 00 
   448)     10667.6  Rx     18DAF110  8  26 00 00 00 00 00 00 00 
   449)     10668.1  Rx     18DAF110  8  27 00 00 00 00 00 00 00 
   450)     10668.6  Rx     18DAF110  8  28 00 00 55 55 55 55 55 
   451)     10704.6  Rx     18DA10F1  8  03 22 26 88 00 00 00 00 
   452)     10707.2  Rx     18DAF110  8  10 39 62 26 88 F0 03 E0 
   453)     10709.9  Rx     18DA10F1  8  30 00 00 00 00 00 00 00 
   454)     10710.8  Rx     18DAF110  8  21 00 00 00 01 01 01 01 
   455)     10711.1  Rx     18DAF110  8  22 00 00 00 00 00 00 00 
   456)     10711.4  Rx     18DAF110  8  23 00 00 00 80 00 00 00 
   457)     10711.8  Rx     18DAF110  8  24 35 00 00 00 00 00 00 
   458)     10712.1  Rx     18DAF110  8  25 00 00 00 00 00 00 00 
   459)     10712.4  Rx     18DAF110  8  26 00 00 00 00 00 00 00 
   460)     10712.7  Rx     18DAF110  8  27 00 00 00 00 00 00 00 
   461)     10713.0  Rx     18DAF110  8  28 00 00 55 55 55 55 55 
   462)     10749.6  Rx     18DA10F1  8  03 22 26 89 00 00 00 00 
   463)     10750.7  Rx     18DAF110  8  10 39 62 26 89 F0 FF FF 
   464)     10754.9  Rx     18DA10F1  8  30 00 00 00 00 00 00 00 
   465)     10756.2  Rx     18DAF110  8  21 FF FF F0 00 00 8D 2E 
   466)     10757.2  Rx     18DAF110  8  22 00 00 00 00 00 00 C7 
   467)     10757.7  Rx     18DAF110  8  23 2D 00 00 17 8A 00 00 
   468)     10758.2  Rx     18DAF110  8  24 8A F4 00 00 0F AD 00 
   469)     10758.8  Rx     18DAF110  8  25 00 00 00 00 00 0B FA 
   470)     10759.3  Rx     18DAF110  8  26 00 00 00 00 00 00 08 
   471)     10759.6  Rx     18DAF110  8  27 55 00 00 26 FB 00 00 
   472)     10759.9  Rx     18DAF110  8  28 00 00 55 55 55 55 55 
   473)     10793.3  Rx     18DA10F1  8  03 22 26 8B 00 00 00 00 
   474)     10794.7  Rx     18DAF110  8  10 39 62 26 8B FF FF 80 
   475)     10798.7  Rx     18DA10F1  8  30 00 00 00 00 00 00 00 
   476)     10799.5  Rx     18DAF110  8  21 00 00 00 80 00 FF 91 
   477)     10799.9  Rx     18DAF110  8  22 FC 24 FE E8 E1 00 00 
   478)     10800.1  Rx     18DAF110  8  23 B3 7D 00 00 0D 33 00 
   479)     10800.6  Rx     18DAF110  8  24 00 00 00 00 00 00 00 
   480)     10800.9  Rx     18DAF110  8  25 00 00 00 00 00 00 00 
   481)     10801.2  Rx     18DAF110  8  26 00 00 00 00 00 00 00 
   482)     10801.5  Rx     18DAF110  8  27 00 00 00 00 00 00 00 
   483)     10801.8  Rx     18DAF110  8  28 00 00 55 55 55 55 55 
   484)     10835.8  Rx     18DA10F1  8  03 22 26 8C 00 00 00 00 
   485)     10837.3  Rx     18DAF110  8  10 39 62 26 8C FB 00 00 
   486)     10841.2  Rx     18DA10F1  8  30 00 00 00 00 00 00 00 
   487)     10842.2  Rx     18DAF110  8  21 00 00 FC 7B 0A C0 00 
   488)     10842.5  Rx     18DAF110  8  22 22 00 A0 00 00 00 00 
   489)     10842.7  Rx     18DAF110  8  23 00 00 00 00 00 00 00 
   490)     10843.5  Rx     18DAF110  8  24 00 00 00 00 00 00 00 
   491)     10844.0  Rx     18DAF110  8  25 00 00 00 00 00 00 00 
   492)     10844.6  Rx     18DAF110  8  26 00 00 00 00 00 00 00 
   493)     10845.1  Rx     18DAF110  8  27 00 FE 00 F0 00 80 00 
   494)     10847.9  Rx     18DAF110  8  28 00 00 55 55 55 55 55 
   495)     10903.3  Rx     18DA10F1  8  03 22 26 8D 00 00 00 00 
   496)     10904.2  Rx     18DAF110  8  10 39 62 26 8D FF 00 00 
   497)     10908.7  Rx     18DA10F1  8  30 00 00 00 00 00 00 00 
   498)     10909.6  Rx     18DAF110  8  21 00 00 00 00 00 09 DA 
   499)     10909.9  Rx     18DAF110  8  22 00 00 00 00 00 00 00 
   500)     10910.4  Rx     18DAF110  8  23 00 00 00 00 00 00 00 
   501)     10910.7  Rx     18DAF110  8  24 00 00 00 00 00 00 00 
   502)     10911.0  Rx     18DAF110  8  25 00 00 00 00 00 00 00 
   503)     10911.3  Rx     18DAF110  8  26 00 00 00 00 00 00 00 
   504)     10911.6  Rx     18DAF110  8  27 00 00 00 00 00 00 00 
   505)     10912.0  Rx     18DAF110  8  28 00 00 55 55 55 55 55 
   506)     10958.3  Rx     18DA10F1  8  03 22 26 8E 00 00 00 00 
   507)     10959.2  Rx     18DAF110  8  10 39 62 26 8E FE 00 00 
   508)     10963.6  Rx     18DA10F1  8  30 00 00 00 00 00 00 00 
   509)     10964.5  Rx     18DAF110  8  21 00 00 E0 00 00 00 1F 
   510)     10965.0  Rx     18DAF110  8  22 40 00 1C 00 00 00 00 
   511)     10965.4  Rx     18DAF110  8  23 00 00 00 00 00 00 00 
   512)     10968.5  Rx     18DAF110  8  24 00 00 00 00 00 00 00 
   513)     10968.8  Rx     18DAF110  8  25 00 00 00 00 00 00 00 
   514)     10969.1  Rx     18DAF110  8  26 00 00 00 00 00 00 00 
   515)     10969.4  Rx     18DAF110  8  27 00 02 90 77 00 00 00 
   516)     10969.7  Rx     18DAF110  8  28 00 00 55 55 55 55 55 
   517)     11019.6  Rx     18DA10F1  8  03 22 26 8F 00 00 00 00 
   518)     11020.6  Rx     18DAF110  8  03 7F 22 31 55 55 55 55 
   519)     11050.8  Rx     18DA10F1  8  03 22 26 90 00 00 00 00 
   520)     11051.8  Rx     18DAF110  8  03 7F 22 31 55 55 55 55 
   521)     11093.3  Rx     18DA10F1  8  03 22 26 91 00 00 00 00 
   522)     11094.7  Rx     18DAF110  8  03 7F 22 31 55 55 55 55 
   523)     11129.5  Rx     18DA10F1  8  03 22 26 92 00 00 00 00 
   524)     11131.5  Rx     18DAF110  8  03 7F 22 31 55 55 55 55 
   525)     11164.6  Rx     18DA10F1  8  03 22 26 93 00 00 00 00 
   526)     11165.7  Rx     18DAF110  8  10 39 62 26 93 00 00 FF 
   527)     11169.9  Rx     18DA10F1  8  30 00 00 00 00 00 00 00 
   528)     11170.9  Rx     18DAF110  8  21 FF C0 3E 00 00 00 00 
   529)     11171.2  Rx     18DAF110  8  22 00 00 00 00 00 00 00 
   530)     11171.5  Rx     18DAF110  8  23 00 00 00 00 00 04 90 
   531)     11171.9  Rx     18DAF110  8  24 01 55 4F F6 4F F6 F9 
   532)     11172.2  Rx     18DAF110  8  25 8D 00 00 00 75 00 E1 
   533)     11172.5  Rx     18DAF110  8  26 F0 40 00 00 00 00 00 
   534)     11172.8  Rx     18DAF110  8  27 00 00 00 00 00 00 00 
   535)     11173.3  Rx     18DAF110  8  28 00 00 55 55 55 55 55 
   536)     11208.3  Rx     18DA10F1  8  03 22 26 94 00 00 00 00 
   537)     11209.2  Rx     18DAF110  8  03 7F 22 31 55 55 55 55 
   538)     11272.1  Rx     18DA10F1  8  03 22 26 95 00 00 00 00 
   539)     11272.9  Rx     18DAF110  8  03 7F 22 31 55 55 55 55 
   540)     11314.6  Rx     18DA10F1  8  03 22 26 97 00 00 00 00 
   541)     11319.4  Rx     18DAF110  8  03 7F 22 31 55 55 55 55 
   542)     11368.3  Rx     18DA10F1  8  03 22 26 98 00 00 00 00 
   543)     11369.2  Rx     18DAF110  8  03 7F 22 31 55 55 55 55 
   544)     11419.6  Rx     18DA10F1  8  03 22 26 99 00 00 00 00 
   545)     11420.6  Rx     18DAF110  8  10 39 62 26 99 FF E0 C8 
   546)     11424.9  Rx     18DA10F1  8  30 00 00 00 00 00 00 00 
   547)     11426.2  Rx     18DAF110  8  21 00 FF 00 C0 80 40 00 
   548)     11430.9  Rx     18DAF110  8  22 00 F1 E1 77 FD 79 D8 
   549)     11431.8  Rx     18DAF110  8  23 00 00 00 00 00 80 00 
   550)     11432.1  Rx     18DAF110  8  24 00 00 32 00 00 00 00 
   551)     11432.4  Rx     18DAF110  8  25 00 00 00 00 00 00 00 
   552)     11432.7  Rx     18DAF110  8  26 00 00 00 03 00 03 00 
   553)     11433.2  Rx     18DAF110  8  27 02 00 00 00 00 00 00 
   554)     11433.7  Rx     18DAF110  8  28 00 00 55 55 55 55 55 
   555)     11473.4  Rx     18DA10F1  8  03 22 26 9A 00 00 00 00 
   556)     11474.9  Rx     18DAF110  8  10 39 62 26 9A FF E0 00 
   557)     11478.7  Rx     18DA10F1  8  30 00 00 00 00 00 00 00 
   558)     11479.5  Rx     18DAF110  8  21 00 00 00 00 00 00 0E 
   559)     11479.9  Rx     18DAF110  8  22 FA 01 00 00 00 37 B2 
   560)     11480.2  Rx     18DAF110  8  23 00 00 00 00 00 00 00 
   561)     11480.7  Rx     18DAF110  8  24 00 00 00 00 00 00 00 
   562)     11481.0  Rx     18DAF110  8  25 00 00 00 00 00 00 00 
   563)     11481.2  Rx     18DAF110  8  26 00 00 00 00 00 00 00 
   564)     11481.6  Rx     18DAF110  8  27 00 00 00 00 00 00 00 
   565)     11481.9  Rx     18DAF110  8  28 00 00 55 55 55 55 55 
   566)     11535.8  Rx     18DA10F1  8  03 22 26 9B 00 00 00 00 
   567)     11537.4  Rx     18DAF110  8  10 39 62 26 9B C0 00 00 
   568)     11541.2  Rx     18DA10F1  8  30 00 00 00 00 00 00 00 
   569)     11542.2  Rx     18DAF110  8  21 00 00 00 32 3C 00 00 
   570)     11542.5  Rx     18DAF110  8  22 00 00 00 00 00 00 00 
   571)     11542.8  Rx     18DAF110  8  23 00 00 00 00 00 00 00 
   572)     11543.1  Rx     18DAF110  8  24 00 00 00 00 00 00 00 
   573)     11543.5  Rx     18DAF110  8  25 00 00 00 00 00 00 00 
   574)     11544.1  Rx     18DAF110  8  26 00 00 00 00 00 00 00 
   575)     11544.4  Rx     18DAF110  8  27 00 00 00 00 00 00 00 
   576)     11544.9  Rx     18DAF110  8  28 00 00 55 55 55 55 55 
   577)     11594.6  Rx     18DA10F1  8  03 22 26 9C 00 00 00 00 
   578)     11595.7  Rx     18DAF110  8  10 39 62 26 9C F0 00 00 
   579)     11599.9  Rx     18DA10F1  8  30 00 00 00 00 00 00 00 
   580)     11600.8  Rx     18DAF110  8  21 00 00 00 80 80 80 80 
   581)     11601.1  Rx     18DAF110  8  22 00 00 00 00 00 00 00 
   582)     11601.4  Rx     18DAF110  8  23 00 00 00 00 00 00 00 
   583)     11601.7  Rx     18DAF110  8  24 00 00 00 00 00 00 00 
   584)     11602.1  Rx     18DAF110  8  25 00 00 00 00 00 00 00 
   585)     11602.4  Rx     18DAF110  8  26 00 00 00 00 00 00 00 
   586)     11602.7  Rx     18DAF110  8  27 00 00 00 00 00 00 00 
   587)     11603.0  Rx     18DAF110  8  28 00 00 55 55 55 55 55 
   588)     11637.1  Rx     18DA10F1  8  03 22 26 9D 00 00 00 00 
   589)     11637.9  Rx     18DAF110  8  03 7F 22 31 55 55 55 55 
   590)     11677.1  Rx     18DA10F1  8  03 22 26 F0 00 00 00 00 
   591)     11677.9  Rx     18DAF110  8  03 7F 22 31 55 55 55 55 
   592)     11722.1  Rx     18DA10F1  8  03 22 26 F1 00 00 00 00 
   593)     11722.9  Rx     18DAF110  8  03 7F 22 31 55 55 55 55 
   594)     11759.5  Rx     18DA10F1  8  03 22 26 F2 00 00 00 00 
   595)     11760.6  Rx     18DAF110  8  03 7F 22 31 55 55 55 55 
   596)     11802.1  Rx     18DA10F1  8  03 22 26 F3 00 00 00 00 
   597)     11803.0  Rx     18DAF110  8  03 7F 22 31 55 55 55 55 
   598)     11834.6  Rx     18DA10F1  8  03 22 26 F4 00 00 00 00 
   599)     11835.4  Rx     18DAF110  8  03 7F 22 31 55 55 55 55 
   600)     11874.6  Rx     18DA10F1  8  03 22 30 14 00 00 00 00 
   601)     11875.4  Rx     18DAF110  8  03 7F 22 31 55 55 55 55 
   602)     11920.8  Rx     18DA10F1  8  03 22 99 98 00 00 00 00 
   603)     11921.6  Rx     18DAF110  8  03 7F 22 31 55 55 55 55 
   604)     11953.3  Rx     18DA10F1  8  03 22 99 99 00 00 00 00 
   605)     11954.7  Rx     18DAF110  8  03 7F 22 31 55 55 55 55 
   606)     11989.6  Rx     18DA10F1  8  03 22 C1 80 00 00 00 00 
   607)     11990.7  Rx     18DAF110  8  03 7F 22 31 55 55 55 55 
   608)     12032.1  Rx     18DA10F1  8  03 22 C1 81 00 00 00 00 
   609)     12033.2  Rx     18DAF110  8  03 7F 22 31 55 55 55 55 
   610)     12067.1  Rx     18DA10F1  8  03 22 E4 01 00 00 00 00 
   611)     12068.7  Rx     18DAF110  8  03 7F 22 31 55 55 55 55 
   612)     12100.9  Rx     18DA10F1  8  03 22 E4 02 00 00 00 00 
   613)     12101.7  Rx     18DAF110  8  10 43 62 E4 02 2D 01 E2 
   614)     12106.2  Rx     18DA10F1  8  30 00 00 00 00 00 00 00 
   615)     12108.7  Rx     18DAF110  8  21 1C 6B AD BF 2A 00 01 
   616)     12109.0  Rx     18DAF110  8  22 C7 FE CF EB AF BF 2F 
   617)     12109.3  Rx     18DAF110  8  23 00 00 74 CB 7F EB AF 
   618)     12109.6  Rx     18DAF110  8  24 BF 11 00 00 6A FE 7B 
   619)     12109.8  Rx     18DAF110  8  25 FB FF FF 01 00 00 42 
   620)     12110.1  Rx     18DAF110  8  26 E1 C7 EB AF BF 05 00 
   621)     12110.6  Rx     18DAF110  8  27 00 40 00 00 00 00 00 
   622)     12111.0  Rx     18DAF110  8  28 00 00 00 00 00 00 00 
   623)     12111.2  Rx     18DAF110  8  29 00 00 00 00 00 55 55 
   624)     12158.3  Rx     18DA10F1  8  03 22 E4 11 00 00 00 00 
   625)     12159.1  Rx     18DAF110  8  10 43 62 E4 11 1B 9C 07 
   626)     12163.6  Rx     18DA10F1  8  30 00 00 00 00 00 00 00 
   627)     12164.5  Rx     18DAF110  8  21 41 00 01 15 DB 07 41 
   628)     12165.1  Rx     18DAF110  8  22 1A C0 FF FF FF FF 07 
   629)     12165.3  Rx     18DAF110  8  23 41 1A C6 FF FF FF FF 
   630)     12165.8  Rx     18DAF110  8  24 07 41 0E 9A 07 41 0D 
   631)     12169.3  Rx     18DAF110  8  25 9C FF FF FF FF FF FF 
   632)     12169.5  Rx     18DAF110  8  26 FF FF 07 41 0D 4C 07 
   633)     12169.8  Rx     18DAF110  8  27 41 0E 43 FF FF FF FF 
   634)     12170.1  Rx     18DAF110  8  28 FF FF FF FF 07 41 08 
   635)     12170.6  Rx     18DAF110  8  29 AA FF FF FF FF 55 55 
   636)     12215.8  Rx     18DA10F1  8  03 22 E4 15 00 00 00 00 
   637)     12219.2  Rx     18DAF110  8  10 43 62 E4 15 07 41 1B 
   638)     12221.2  Rx     18DA10F1  8  30 00 00 00 00 00 00 00 
   639)     12222.2  Rx     18DAF110  8  21 CE 07 41 13 9E FF FF 
   640)     12222.5  Rx     18DAF110  8  22 FF FF FF FF FF FF FF 
   641)     12222.8  Rx     18DAF110  8  23 FF FF FF FF FF FF FF 
   642)     12223.1  Rx     18DAF110  8  24 FF FF FF FF FF FF FF 
   643)     12223.5  Rx     18DAF110  8  25 FF 07 41 1B 8E 07 41 
   644)     12224.1  Rx     18DAF110  8  26 12 7E FF FF FF FF FF 
   645)     12224.4  Rx     18DAF110  8  27 FF FF FF 07 41 18 41 
   646)     12224.7  Rx     18DAF110  8  28 07 41 1B 8E 00 1B 00 
   647)     12225.2  Rx     18DAF110  8  29 1E FF FF FF FF 55 55 
   648)     12280.8  Rx     18DA10F1  8  03 22 E4 16 00 00 00 00 
   649)     12281.7  Rx     18DAF110  8  10 43 62 E4 16 FF FF FF 
   650)     12286.2  Rx     18DA10F1  8  30 00 00 00 00 00 00 00 
   651)     12289.1  Rx     18DAF110  8  21 FF FF FF FF FF FF FF 
   652)     12289.4  Rx     18DAF110  8  22 FF FF FF FF FF FF FF 
   653)     12289.7  Rx     18DAF110  8  23 FF FF FF FF FF FF FF 
   654)     12290.0  Rx     18DAF110  8  24 FF FF FF FF FF FF FF 
   655)     12290.5  Rx     18DAF110  8  25 FF FF FF FF FF FF FF 
   656)     12290.8  Rx     18DAF110  8  26 FF FF FF FF FF FF FF 
   657)     12291.1  Rx     18DAF110  8  27 FF FF FF FF FF FF FF 
   658)     12291.4  Rx     18DAF110  8  28 FF FF FF FF FF FF FF 
   659)     12291.8  Rx     18DAF110  8  29 FF 01 98 01 7C 55 55 
   660)     12327.1  Rx     18DA10F1  8  03 22 E5 FF 00 00 00 00 
   661)     12332.0  Rx     18DAF110  8  04 62 E5 FF 00 55 55 55 
   662)     12367.1  Rx     18DA10F1  8  03 22 E8 02 00 00 00 00 
   663)     12369.0  Rx     18DAF110  8  03 7F 22 31 55 55 55 55 
   664)     12417.1  Rx     18DA10F1  8  03 22 E8 13 00 00 00 00 
   665)     12418.4  Rx     18DAF110  8  10 43 62 E8 13 16 04 03 
   666)     12422.5  Rx     18DA10F1  8  30 00 00 00 00 00 00 00 
   667)     12423.3  Rx     18DAF110  8  21 4A 00 15 01 4A 08 CB 
   668)     12423.8  Rx     18DAF110  8  22 00 1C 00 37 00 11 00 
   669)     12424.3  Rx     18DAF110  8  23 00 00 00 04 65 0A 38 
   670)     12424.6  Rx     18DAF110  8  24 00 00 00 00 00 00 00 
   671)     12425.1  Rx     18DAF110  8  25 00 00 00 00 00 00 00 
   672)     12425.8  Rx     18DAF110  8  26 00 00 00 00 00 00 00 
   673)     12426.3  Rx     18DAF110  8  27 00 00 00 00 00 00 00 
   674)     12431.2  Rx     18DAF110  8  28 00 00 00 00 00 00 00 
   675)     12431.5  Rx     18DAF110  8  29 00 00 00 00 00 55 55 
   676)     12589.6  Rx     18DA10F1  8  03 22 E8 14 00 00 00 00 
   677)     12590.7  Rx     18DAF110  8  03 7F 22 31 55 55 55 55 
   678)     12675.9  Rx     18DA10F1  8  03 22 E8 16 00 00 00 00 
   679)     12677.5  Rx     18DAF110  8  03 7F 22 31 55 55 55 55 
   680)     12708.4  Rx     18DA10F1  8  03 22 E8 1F 00 00 00 00 
   681)     12709.2  Rx     18DAF110  8  10 43 62 E8 1F 03 01 00 
   682)     12713.7  Rx     18DA10F1  8  30 00 00 00 00 00 00 00 
   683)     12717.9  Rx     18DAF110  8  21 33 E0 00 00 00 00 00 
   684)     12718.4  Rx     18DAF110  8  22 00 00 00 00 00 00 00 
   685)     12719.0  Rx     18DAF110  8  23 00 00 00 00 00 00 00 
   686)     12719.5  Rx     18DAF110  8  24 00 00 00 00 00 00 00 
   687)     12719.8  Rx     18DAF110  8  25 00 00 00 00 00 00 00 
   688)     12720.1  Rx     18DAF110  8  26 00 00 00 00 00 00 00 
   689)     12720.6  Rx     18DAF110  8  27 00 00 00 00 00 00 00 
   690)     12720.9  Rx     18DAF110  8  28 00 00 00 00 00 00 00 
   691)     12721.2  Rx     18DAF110  8  29 00 00 00 00 00 55 55 
   692)     12768.3  Rx     18DA10F1  8  03 22 E8 23 00 00 00 00 
   693)     12769.2  Rx     18DAF110  8  03 7F 22 31 55 55 55 55 
   694)     12799.6  Rx     18DA10F1  8  03 22 E8 2C 00 00 00 00 
   695)     12800.7  Rx     18DAF110  8  03 7F 22 31 55 55 55 55 
   696)     12854.6  Rx     18DA10F1  8  03 22 F1 10 00 00 00 00 
   697)     12855.5  Rx     18DAF110  8  10 14 62 F1 10 0E 33 37 
   698)     12859.9  Rx     18DA10F1  8  30 00 00 00 00 00 00 00 
   699)     12860.8  Rx     18DAF110  8  21 38 32 30 35 59 46 43 
   700)     12861.1  Rx     18DAF110  8  22 32 32 30 4D 31 00 00 
