;$FILEVERSION=1.1
;$STARTTIME=45493.8534964236
;
;   Start time: 20.07.2024 20:29:02.091.0
;   Generated by PCAN-View v4.3.4.615
;
;   Message Number
;   |         Time Offset (ms)
;   |         |        Type
;   |         |        |        ID (hex)
;   |         |        |        |     Data Length
;   |         |        |        |     |   Data Bytes (hex) ...
;   |         |        |        |     |   |
;---+--   ----+----  --+--  ----+---  +  -+ -- -- -- -- -- -- --
     1)      2765.1  Rx     18DBEFF1  8  02 3E 00 00 00 00 00 00 
     2)      2767.9  Rx     18DAF1EF  8  02 7E 00 55 55 55 55 55 
     3)      2768.2  Rx     18DAF110  8  02 7E 00 55 55 55 55 55 
     4)      2768.4  Rx     18DAF130  8  02 7E 00 55 55 55 55 55 
     5)      2768.7  Rx     18DAF1B6  8  02 7E 00 55 55 55 55 55 
     6)      2769.0  Rx     18DAF11E  8  02 7E 00 55 55 55 55 55 
     7)      2769.2  Rx     18DAF125  8  02 7E 00 55 55 55 55 55 
     8)      2769.5  Rx     18DAF12B  8  02 7E 00 55 55 55 55 55 
     9)      2770.2  Rx     18DAF160  8  02 7E 00 55 55 55 55 55 
    10)      2770.5  Rx     18DAF1B5  8  02 7E 00 55 55 55 55 55 
    11)      2770.7  Rx     18DAF13A  8  02 7E 00 55 55 55 55 55 
    12)      2771.0  Rx     18DAF10B  8  02 7E 00 55 55 55 55 55 
    13)      2774.1  Rx     18DAF153  8  02 7E 00 55 55 55 55 55 
    14)      2774.9  Rx     18DAF126  8  02 7E 00 55 55 55 55 55 
    15)      2775.7  Rx     18DAF1B0  8  02 7E 00 55 55 55 55 55 
    16)      2781.3  Rx     18DAF128  8  02 7E 00 00 00 00 00 00 
    17)      4011.0  Rx     18DA0BF1  8  03 22 30 A0 00 00 00 00 
    18)      4021.1  Rx     18DAF10B  8  10 27 62 30 A0 F8 00 00 
    19)      4021.4  Rx     18DA0BF1  8  30 00 00 00 00 00 00 00 
    20)      4024.8  Rx     18DAF10B  8  21 00 00 32 19 00 02 00 
    21)      4041.0  Rx     18DAF10B  8  22 00 00 00 00 00 00 00 
    22)      4061.0  Rx     18DAF10B  8  23 00 00 00 00 00 00 00 
    23)      4081.0  Rx     18DAF10B  8  24 00 00 00 00 00 00 00 
    24)      4101.0  Rx     18DAF10B  8  25 00 00 00 00 00 55 55 
    25)      4379.8  Rx     18DA10F1  8  03 22 26 00 00 00 00 00 
    26)      4380.6  Rx     18DAF110  8  10 0D 62 26 00 12 21 30 
    27)      4385.1  Rx     18DA10F1  8  30 00 00 00 00 00 00 00 
    28)      4389.2  Rx     18DAF110  8  21 00 01 EE 0E 00 00 00 
    29)      4422.2  Rx     18DA10F1  8  03 22 30 00 00 00 00 00 
    30)      4424.6  Rx     18DAF110  8  03 7F 22 31 55 55 55 55 
    31)      4773.6  Rx     18DA1EF1  8  03 22 24 00 00 00 00 00 
    32)      4776.7  Rx     18DAF11E  8  03 7F 22 31 55 55 55 55 
    33)      4841.1  Rx     18DA1EF1  8  03 22 30 80 00 00 00 00 
    34)      4845.0  Rx     18DAF11E  8  03 7F 22 31 55 55 55 55 
    35)      4922.3  Rx     18DA1EF1  8  03 22 22 00 00 00 00 00 
    36)      4926.7  Rx     18DAF11E  8  10 27 62 22 00 FE 00 00 
    37)      4927.7  Rx     18DA1EF1  8  30 00 00 00 00 00 00 00 
    38)      4929.4  Rx     18DAF11E  8  21 00 32 20 01 01 04 01 
    39)      4930.4  Rx     18DAF11E  8  22 00 00 00 00 00 00 00 
    40)      4931.5  Rx     18DAF11E  8  23 00 00 00 00 00 00 00 
    41)      4932.7  Rx     18DAF11E  8  24 00 00 00 00 00 00 00 
    42)      4933.4  Rx     18DAF11E  8  25 00 00 00 00 00 55 55 
    43)      5251.1  Rx     18DA25F1  8  03 22 61 10 00 00 00 00 
    44)      5252.5  Rx     18DAF125  8  03 7F 22 31 55 55 55 55 
    45)      5311.1  Rx     18DA25F1  8  03 22 61 19 00 00 00 00 
    46)      5312.5  Rx     18DAF125  8  10 3B 62 61 19 00 00 FF 
    47)      5316.4  Rx     18DA25F1  8  30 00 00 00 00 00 00 00 
    48)      5320.4  Rx     18DAF125  8  21 FF FE 3F FF F0 00 00 
    49)      5320.7  Rx     18DAF125  8  22 0F 00 00 10 00 00 00 
    50)      5321.0  Rx     18DAF125  8  23 00 00 00 00 05 1B 00 
    51)      5321.3  Rx     18DAF125  8  24 00 00 00 1A 70 00 1E 
    52)      5321.6  Rx     18DAF125  8  25 00 00 00 00 78 00 78 
    53)      5321.9  Rx     18DAF125  8  26 00 00 3F 26 36 00 06 
    54)      5322.6  Rx     18DAF125  8  27 00 30 30 33 39 33 30 
    55)      5322.9  Rx     18DAF125  8  28 00 00 00 00 55 55 55 
    56)      5658.5  Rx     18DA26F1  8  03 22 60 00 00 00 00 00 
    57)      5666.4  Rx     18DAF126  8  10 3B 62 60 00 00 00 FF 
    58)      5666.7  Rx     18DA26F1  8  30 00 00 00 00 00 00 00 
    59)      5667.6  Rx     18DAF126  8  21 FE 03 FC 00 00 21 34 
    60)      5668.0  Rx     18DAF126  8  22 01 44 A3 80 00 01 02 
    61)      5668.3  Rx     18DAF126  8  23 03 08 0B 10 07 00 00 
    62)      5668.6  Rx     18DAF126  8  24 00 00 00 00 00 00 15 
    63)      5669.1  Rx     18DAF126  8  25 00 00 01 00 18 19 00 
    64)      5669.6  Rx     18DAF126  8  26 00 00 00 00 00 00 00 
    65)      5670.8  Rx     18DAF126  8  27 00 00 00 00 00 00 00 
    66)      5671.2  Rx     18DAF126  8  28 00 00 00 00 55 55 55 
    67)      6026.0  Rx     18DA28F1  8  03 22 40 00 00 00 00 00 
    68)      6040.8  Rx     18DAF128  8  10 3B 62 40 00 00 00 F8 
    69)      6041.1  Rx     18DA28F1  8  30 00 00 00 00 00 00 00 
    70)      6048.5  Rx     18DAF128  8  21 00 00 00 00 00 18 35 
    71)      6060.7  Rx     18DAF128  8  22 04 03 89 00 00 00 00 
    72)      6068.6  Rx     18DAF128  8  23 00 00 00 00 00 00 00 
    73)      6080.8  Rx     18DAF128  8  24 00 00 00 00 00 00 00 
    74)      6088.5  Rx     18DAF128  8  25 00 00 00 00 00 00 00 
    75)      6101.0  Rx     18DAF128  8  26 00 00 00 00 00 00 00 
    76)      6108.5  Rx     18DAF128  8  27 00 00 00 00 00 00 00 
    77)      6121.4  Rx     18DAF128  8  28 00 00 00 00 00 00 00 
    78)      6442.3  Rx     18DA2BF1  8  03 22 43 50 00 00 00 00 
    79)      6444.4  Rx     18DAF12B  8  03 7F 22 31 55 55 55 55 
    80)      6529.8  Rx     18DA2BF1  8  03 22 43 00 00 00 00 00 
    81)      6534.5  Rx     18DAF12B  8  10 0D 62 43 00 18 35 02 
    82)      6535.1  Rx     18DA2BF1  8  30 00 00 00 00 00 00 00 
    83)      6536.6  Rx     18DAF12B  8  21 36 21 00 00 00 00 00 
    84)      7212.3  Rx     18DA30F1  8  03 22 48 00 00 00 00 00 
    85)      7219.3  Rx     18DAF130  8  10 3B 62 48 00 00 00 F8 
    86)      7219.7  Rx     18DA30F1  8  30 00 00 00 00 00 00 00 
    87)      7223.6  Rx     18DAF130  8  21 C0 BC 0F 00 00 7A 21 
    88)      7227.4  Rx     18DAF130  8  22 11 52 71 00 00 00 06 
    89)      7231.4  Rx     18DAF130  8  23 07 00 00 00 00 00 00 
    90)      7235.4  Rx     18DAF130  8  24 E0 00 AD AE A2 A3 00 
    91)      7239.4  Rx     18DAF130  8  25 00 00 00 00 00 B0 B1 
    92)      7243.6  Rx     18DAF130  8  26 B9 BA B4 00 00 00 00 
    93)      7247.4  Rx     18DAF130  8  27 00 00 00 00 00 00 00 
    94)      7251.4  Rx     18DAF130  8  28 00 00 00 00 55 55 55 
    95)      7807.3  Rx     18DA53F1  8  03 22 80 00 00 00 00 00 
    96)      7812.8  Rx     18DAF153  8  10 43 62 80 00 41 64 14 
    97)      7813.2  Rx     18DA53F1  8  30 00 00 00 00 00 00 00 
    98)      7824.6  Rx     18DAF153  8  21 13 11 BB 02 11 00 55 
    99)      7832.8  Rx     18DAF153  8  22 00 00 11 33 00 00 20 
   100)      7844.4  Rx     18DAF153  8  23 0F 00 E9 02 06 12 00 
   101)      7852.9  Rx     18DAF153  8  24 00 00 00 00 00 00 00 
   102)      7864.5  Rx     18DAF153  8  25 00 12 11 00 00 00 00 
   103)      7872.9  Rx     18DAF153  8  26 00 00 00 00 00 00 00 
   104)      7885.7  Rx     18DAF153  8  27 00 00 00 00 00 00 00 
   105)      7893.0  Rx     18DAF153  8  28 00 00 00 00 00 00 00 
   106)      7904.6  Rx     18DAF153  8  29 00 00 00 00 67 55 55 
   107)      8563.5  Rx     18DA60F1  8  03 22 70 00 00 00 00 00 
   108)      8570.0  Rx     18DAF160  8  10 39 62 70 00 FC 00 00 
   109)      8570.3  Rx     18DA60F1  8  30 00 00 00 00 00 00 00 
   110)      8590.1  Rx     18DAF160  8  21 00 00 00 32 31 30 54 
   111)      8600.1  Rx     18DAF160  8  22 4A 42 00 00 00 00 00 
   112)      8610.0  Rx     18DAF160  8  23 00 00 00 00 00 00 00 
   113)      8620.1  Rx     18DAF160  8  24 00 00 00 00 00 00 00 
   114)      8630.0  Rx     18DAF160  8  25 00 00 00 00 00 00 00 
   115)      8640.0  Rx     18DAF160  8  26 00 00 00 00 00 00 00 
   116)      8649.9  Rx     18DAF160  8  27 00 00 00 00 00 00 00 
   117)      8659.7  Rx     18DAF160  8  28 00 00 55 55 55 55 55 
   118)      9333.4  Rx     18DAB0F1  8  03 22 A8 00 00 00 00 00 
   119)      9345.0  Rx     18DAF1B0  8  10 0B 62 A8 00 36 18 00 
   120)      9345.2  Rx     18DAB0F1  8  30 00 00 00 00 00 00 00 
   121)      9355.3  Rx     18DAF1B0  8  21 00 30 00 C0 0C 55 55 
   122)      9719.6  Rx     18DAB6F1  8  03 22 B1 00 00 00 00 00 
   123)      9721.4  Rx     18DAF1B6  8  10 08 62 B1 00 02 09 18 
   124)      9724.9  Rx     18DAB6F1  8  30 00 00 00 00 00 00 00 
   125)      9746.4  Rx     18DAF1B6  8  21 00 22 55 55 55 55 55 
   126)     10083.4  Rx     18DAEFF1  8  03 22 C0 00 00 00 00 00 
   127)     10085.4  Rx     18DAF1EF  8  10 3B 62 C0 00 00 00 F8 
   128)     10088.7  Rx     18DAEFF1  8  30 00 00 00 00 00 00 00 
   129)     10089.0  Rx     18DAF1EF  8  21 00 00 00 00 00 00 21 
   130)     10089.3  Rx     18DAF1EF  8  22 09 00 00 00 00 00 00 
   131)     10089.6  Rx     18DAF1EF  8  23 00 00 00 00 00 00 00 
   132)     10089.9  Rx     18DAF1EF  8  24 00 00 00 00 00 00 00 
   133)     10090.2  Rx     18DAF1EF  8  25 00 00 00 00 00 00 00 
   134)     10090.5  Rx     18DAF1EF  8  26 00 00 00 00 00 00 00 
   135)     10090.8  Rx     18DAF1EF  8  27 00 00 00 00 00 00 00 
   136)     10091.1  Rx     18DAF1EF  8  28 00 00 00 00 55 55 55 
   137)     10552.0  Rx     18DA3AF1  8  03 22 52 00 00 00 00 00 
   138)     10556.2  Rx     18DAF13A  8  10 3B 62 52 00 00 00 F8 
   139)     10557.3  Rx     18DA3AF1  8  30 00 00 00 00 00 00 00 
   140)     10560.1  Rx     18DAF13A  8  21 C0 00 00 00 00 47 18 
   141)     10562.1  Rx     18DAF13A  8  22 01 12 01 00 00 00 06 
   142)     10564.2  Rx     18DAF13A  8  23 07 00 00 00 00 00 00 
   143)     10566.7  Rx     18DAF13A  8  24 00 00 00 00 00 00 00 
   144)     10570.5  Rx     18DAF13A  8  25 00 00 00 00 00 00 00 
   145)     10572.1  Rx     18DAF13A  8  26 00 00 00 00 00 00 00 
   146)     10574.2  Rx     18DAF13A  8  27 00 00 00 00 00 00 00 
   147)     10576.2  Rx     18DAF13A  8  28 00 00 00 00 55 55 55 
   148)     10855.7  Rx     18DAD8F1  8  03 22 C1 00 00 00 00 00 
   149)     11408.3  Rx     18DAD8F1  8  03 22 C1 00 00 00 00 00 
   150)     12182.0  Rx     18DA10F1  8  03 22 F1 81 00 00 00 00 
   151)     12188.6  Rx     18DAF110  8  10 13 62 F1 81 33 37 38 
   152)     12189.0  Rx     18DA10F1  8  30 00 00 00 00 00 00 00 
   153)     12189.8  Rx     18DAF110  8  21 30 35 2D 35 59 46 2D 
   154)     12190.1  Rx     18DAF110  8  22 43 32 32 30 00 00 55 
   155)     12229.6  Rx     18DB33F1  8  02 01 13 00 00 00 00 00 
   156)     12230.4  Rx     18DAF110  8  03 41 13 03 55 55 55 55 
   157)     12278.3  Rx     18DA10F1  8  03 22 FF FF 00 00 00 00 
   158)     12279.2  Rx     18DAF110  8  03 7F 22 31 55 55 55 55 
   159)     12363.3  Rx     18DA10F1  8  03 22 F1 90 00 00 00 00 
   160)     12367.9  Rx     18DAF110  8  10 18 62 F1 90 11 35 4A 
   161)     12368.6  Rx     18DA10F1  8  30 00 00 00 00 00 00 00 
   162)     12369.5  Rx     18DAF110  8  21 38 54 43 32 48 37 37 
   163)     12369.8  Rx     18DAF110  8  22 4D 59 30 30 30 32 38 
   164)     12370.0  Rx     18DAF110  8  23 31 00 00 00 55 55 55 
   165)     12804.6  Rx     18DA10F1  8  03 22 26 60 00 00 00 00 
   166)     12805.8  Rx     18DAF110  8  10 39 62 26 60 80 1F FF 
   167)     12810.0  Rx     18DA10F1  8  30 00 00 00 00 00 00 00 
   168)     12810.9  Rx     18DAF110  8  21 F3 FF F0 00 00 00 00 
   169)     12811.2  Rx     18DAF110  8  22 00 00 00 00 00 00 00 
   170)     12811.4  Rx     18DAF110  8  23 00 00 06 53 3B 22 01 
   171)     12811.7  Rx     18DAF110  8  24 00 04 00 40 00 83 00 
   172)     12812.1  Rx     18DAF110  8  25 01 02 EE 00 00 00 00 
   173)     12813.4  Rx     18DAF110  8  26 00 00 00 00 28 01 23 
   174)     12813.9  Rx     18DAF110  8  27 3D 00 00 00 00 00 00 
   175)     12814.9  Rx     18DAF110  8  28 00 00 55 55 55 55 55 
