;$FILEVERSION=2.0
;$STARTTIME=45126.6321623611
;$COLUMNS=N,O,T,I,d,l,D
;
;   Start time: 7/19/2023 15:10:18.828.0
;   Generated by PCAN-View v4.3.4.615
;-------------------------------------------------------------------------------
;   Connection                 Bit rate
;   PCANLight_USB_16@pcan_usb  500 kBit/s
;-------------------------------------------------------------------------------
;   Message   Time    Type ID     Rx/Tx
;   Number    Offset  |    [hex]  |  Data Length
;   |         [ms]    |    |      |  |  Data [hex] ...
;   |         |       |    |      |  |  |
;---+-- ------+------ +- --+----- +- +- +- +- -- -- -- -- -- -- --
      1         0.006 DT 18FF2200 Rx 8  FC 00 00 00 00 32 00 32 
      2         0.834 DT 0CF00400 Rx 8  FF FF FF 00 00 FF F6 70 
      3         1.138 DT 0CFF6600 Rx 8  00 00 8F 8A 01 00 00 FF 
      4         3.337 DT 18F0090B Rx 8  FF FF FF 60 7D 48 7D 7D 
      5         3.622 DT 0CFF200B Rx 8  F0 00 32 FF FA 00 00 69 
      6         8.734 DT 0CFF6213 Rx 8  D3 7F FD 7F 00 AF 2F 7A 
      7         9.706 DT 0CFF2100 Rx 8  00 00 32 00 32 00 00 40 
      8        10.008 DT 18FF2200 Rx 8  FC 00 00 00 00 32 00 32 
      9        11.329 DT 10F0ED27 Rx 8  FC FF FF FF FF FF 8F 9A 
     10        13.225 DT 18F0090B Rx 8  FF FF FF 60 7D 48 7D 7D 
     11        13.510 DT 0CFF270B Rx 8  00 00 00 00 00 00 5C 89 
     12        13.795 DT 0CFF200B Rx 8  F0 00 32 FF FA 00 00 7A 
     13        18.874 DT 0CFF6213 Rx 8  D3 7F FD 7F 00 AF 3F 28 
     14        19.702 DT 0CFF2100 Rx 8  00 00 32 00 32 00 00 51 
     15        20.011 DT 18FF2200 Rx 8  FC 00 00 00 00 32 00 32 
     16        20.879 DT 0CF00400 Rx 8  FF FF FF 00 00 FF F6 70 
     17        21.182 DT 0CFF6600 Rx 8  00 00 8F 8A 01 00 00 FF 
     18        23.159 DT 18F0090B Rx 8  FF FF FF 60 7D 48 7D 7D 
     19        23.439 DT 0CFF200B Rx 8  F0 00 32 FF FA 00 00 0B 
     20        28.751 DT 0CFF6213 Rx 8  D3 7F FD 7F 00 AF 4F 43 
     21        29.700 DT 0CFF2100 Rx 8  00 00 32 00 32 00 00 62 
     22        30.007 DT 18FF2200 Rx 8  FC 00 00 00 00 32 00 32 
     23        33.277 DT 18F0090B Rx 8  FF FF FF 60 7D 48 7D 7D 
     24        33.568 DT 0CFF270B Rx 8  00 00 00 00 00 00 6C 7F 
     25        33.853 DT 0CFF200B Rx 8  F0 00 32 FF FA 00 00 1C 
     26        35.926 DT 18FEF127 Rx 8  F7 FF FF 0F FF FF 0F F7 
     27        36.247 DT 0C090027 Rx 8  7D FF FF FF FF FF FF FF 
     28        38.881 DT 0CFF6213 Rx 8  D3 7F E9 7F 00 AF 5F 55 
     29        39.703 DT 0CFF2100 Rx 8  00 00 32 00 32 00 00 73 
     30        40.011 DT 18FF2200 Rx 8  FC 00 00 00 00 32 00 32 
     31        40.833 DT 0CF00400 Rx 8  FF FF FF 00 00 FF F6 70 
     32        41.136 DT 0CFF6600 Rx 8  00 00 8F 8A 01 00 00 FF 
     33        42.633 DT 1CFF6A27 Rx 8  3F 9C FF F3 FF FF FF FF 
     34        42.947 DT 18FF8627 Rx 8  F3 FF FF FF FF FF FF FF 
     35        43.233 DT 18F0090B Rx 8  FF FF FF 60 7D 48 7D 7D 
     36        43.519 DT 0CFF200B Rx 8  F0 00 32 FF FA 00 00 2D 
     37        45.301 DT 18FEF186 Rx 8  FF FF FF F3 CC FF 1F 20 
     38        45.591 DT 0CFF8187 Rx 8  FF F3 FF FF FF FF FF FF 
     39        45.882 DT 0CFF8186 Rx 8  F3 FC FF FF FF FF FF FF 
     40        48.744 DT 0CFF6213 Rx 8  D3 7F 06 80 00 AF 6F 0B 
     41        49.708 DT 0CFF2100 Rx 8  00 00 32 00 32 00 00 04 
     42        50.017 DT 18FF2200 Rx 8  FC 00 00 00 00 32 00 32 
     43        53.269 DT 18F0090B Rx 8  FF FF FF 60 7D 48 7D 7D 
     44        53.553 DT 18F0010B Rx 8  C0 FF 3F FF FF 01 0B FC 
     45        53.839 DT 18FE4F0B Rx 8  F4 3F FF FF FF FF FF FF 
     46        54.131 DT 0CFF270B Rx 8  00 00 00 00 00 00 7C 2D 
     47        54.415 DT 18FEF10B Rx 8  3F 00 00 CF FF FF BF 4F 
     48        54.701 DT 0CFF200B Rx 8  F0 00 32 FF FA 00 00 3E 
     49        58.912 DT 0CFF6213 Rx 8  D3 7F 01 80 00 AF 7F F1 
     50        59.706 DT 0CFF2100 Rx 8  00 00 32 00 32 00 00 15 
     51        60.009 DT 18FF2200 Rx 8  FC 00 00 00 00 32 00 32 
     52        60.871 DT 0CF00400 Rx 8  FF FF FF 00 00 FF F6 70 
     53        61.180 DT 0CFF6600 Rx 8  00 00 8F 8A 01 00 00 FF 
     54        63.260 DT 18F0090B Rx 8  FF FF FF 60 7D 48 7D 7D 
     55        63.544 DT 0CFF200B Rx 8  F0 00 32 FF FA 00 00 5F 
     56        68.801 DT 0CFF6213 Rx 8  D3 7F E9 7F 00 AF 8F 75 
     57        69.085 DT 18FF6913 Rx 8  02 7D FE 7C DE 7F FF FF 
     58        69.719 DT 0CFF2100 Rx 8  00 00 32 00 32 00 00 26 
     59        70.033 DT 18FF2200 Rx 8  FC 00 00 00 00 32 00 32 
     60        71.428 DT 18FEF100 Rx 8  FF FF FF 0C FF 00 F0 FF 
     61        71.735 DT 18FEF200 Rx 8  00 00 00 00 99 14 19 FF 
     62        72.044 DT 18FF6D00 Rx 8  31 FF 31 FF FF FF FF FF 
     63        73.421 DT 18F0090B Rx 8  FF FF FF 60 7D 48 7D 7D 
     64        73.706 DT 0CFF270B Rx 8  00 00 00 00 00 00 8C A9 
     65        73.992 DT 0CFF200B Rx 8  F0 00 32 FF FA 00 00 40 
     66        78.905 DT 0CFF6213 Rx 8  D3 7F 06 80 00 AF 9F 8F 
     67        79.705 DT 0CFF2100 Rx 8  00 00 32 00 32 00 00 37 
     68        80.008 DT 18FF2200 Rx 8  FC 00 00 00 00 32 00 32 
     69        80.829 DT 0CF00400 Rx 8  FF FF FF 00 00 FF F6 70 
     70        81.139 DT 0CFF6600 Rx 8  00 00 8F 8A 01 00 00 FF 
     71        82.578 DT 18F00141 Rx 8  FF FF 3C FF FF FF FF FF 
     72        83.230 DT 18F0090B Rx 8  FF FF FF 60 7D 48 7D 7D 
     73        83.515 DT 0CFF200B Rx 8  F0 00 32 FF FA 00 00 51 
     74        88.885 DT 0CFF6213 Rx 8  D3 7F 06 80 00 AF AF 79 
     75        89.707 DT 0CFF2100 Rx 8  00 00 32 00 32 00 00 58 
     76        90.016 DT 18FF2200 Rx 8  FC 00 00 00 00 32 00 32 
     77        93.157 DT 18F0090B Rx 8  FF FF FF 60 7D 48 7D 7D 
     78        93.448 DT 0CFF270B Rx 8  00 00 00 00 00 00 9C FB 
     79        93.727 DT 0CFF200B Rx 8  F0 00 32 FF FA 00 00 62 
     80        98.801 DT 0CFF6213 Rx 8  D3 7F FD 7F 00 AF BF C7 
     81        99.703 DT 0CFF2100 Rx 8  00 00 32 00 32 00 00 69 
     82       100.012 DT 18FF2200 Rx 8  FC 00 00 00 00 32 00 32 
     83       100.880 DT 0CF00400 Rx 8  FF FF FF 00 00 FF F6 70 
     84       101.189 DT 0CFF6600 Rx 8  00 00 8F 8A 01 00 00 FF 
     85       103.263 DT 18F0090B Rx 8  FF FF FF 60 7D 48 7D 7D 
     86       103.548 DT 0CFF200B Rx 8  F0 00 32 FF FA 00 00 73 
     87       108.793 DT 0CFF6213 Rx 8  D3 7F FD 7F 00 AF CF AC 
     88       109.706 DT 0CFF2100 Rx 8  00 00 32 00 32 00 00 7A 
     89       110.015 DT 18FF2200 Rx 8  FC 00 00 00 00 32 00 32 
     90       113.226 DT 18F0090B Rx 8  FF FF FF 60 7D 48 7D 7D 
     91       113.516 DT 0CFF270B Rx 8  00 00 00 00 00 00 AC 0D 
     92       113.802 DT 0CFF200B Rx 8  F0 00 32 FF FA 00 00 04 
     93       118.772 DT 0CFF6213 Rx 8  D3 7F 01 80 00 AF DF BA 
     94       119.710 DT 0CFF2100 Rx 8  00 00 32 00 32 00 00 0B 
     95       120.012 DT 18FF2200 Rx 8  FC 00 00 00 00 32 00 32 
     96       120.829 DT 0CF00400 Rx 8  FF FF FF 00 00 FF F6 70 
     97       121.133 DT 0CFF6600 Rx 8  00 00 8F 8A 01 00 00 FF 
     98       123.263 DT 18F0090B Rx 8  FF FF FF 60 7D 48 7D 7D 
     99       123.548 DT 0CFF200B Rx 8  F0 00 32 FF FA 00 00 15 
    100       128.793 DT 0CFF6213 Rx 8  D3 7F F8 7F 00 AF EF 19 
    101       129.713 DT 0CFF2100 Rx 8  00 00 32 00 32 00 00 1C 
    102       130.015 DT 18FF2200 Rx 8  FC 00 00 00 00 32 00 32 
    103       133.251 DT 18F0090B Rx 8  FF FF FF 60 7D 48 7D 7D 
    104       133.536 DT 0CFF270B Rx 8  00 00 00 00 00 00 BC 5F 
    105       133.821 DT 0CFF200B Rx 8  F0 00 32 FF FA 00 00 26 
    106       135.924 DT 18FEF127 Rx 8  F7 FF FF 0F FF FF 1F E7 
    107       136.243 DT 0C090027 Rx 8  7D FF FF FF FF FF FF FF 
    108       138.768 DT 0CFF6213 Rx 8  D3 7F 01 80 00 AF FF 1E 
    109       139.704 DT 0CFF2100 Rx 8  00 00 32 00 32 00 00 2D 
    110       140.013 DT 18FF2200 Rx 8  FC 00 00 00 00 32 00 32 
    111       140.876 DT 0CF00400 Rx 8  FF FF FF 00 00 FF F6 70 
    112       141.184 DT 0CFF6600 Rx 8  00 00 8F 8A 01 00 00 FF 
    113       142.572 DT 10FF6527 Rx 8  1F 03 FC F0 FF FF FF FF 
    114       142.857 DT 10FF6541 Rx 8  FF FF FF CF FF C3 FF FF 
    115       143.149 DT 18FF8627 Rx 8  F3 FF FF FF FF FF FF FF 
    116       143.440 DT 10FF6C41 Rx 8  00 FF FF FF FF FF FF FF 
    117       143.720 DT 18F0090B Rx 8  FF FF FF 60 7D 48 7D 7D 
    118       144.004 DT 0CFF200B Rx 8  F0 00 32 FF FA 00 00 47 
    119       145.302 DT 18FEF186 Rx 8  FF FF FF F3 CC FF 2F 10 
    120       145.593 DT 0CFF8187 Rx 8  FF F3 FF FF FF FF FF FF 
    121       145.883 DT 0CFF8186 Rx 8  F3 FC FF FF FF FF FF FF 
    122       146.187 DT 10FF6586 Rx 8  FC FF FF FF FF FF FF FF 
    123       148.831 DT 0CFF6213 Rx 8  D3 7F FD 7F 00 AF 0F DE 
    124       149.705 DT 0CFF2100 Rx 8  00 00 32 00 32 00 00 3E 
    125       150.014 DT 18FF2200 Rx 8  FC 00 00 00 00 32 00 32 
    126       153.213 DT 18F0090B Rx 8  FF FF FF 60 7D 48 7D 7D 
    127       153.499 DT 18F0010B Rx 8  C0 FF 3F FF FF 01 0B FC 
    128       153.783 DT 18FE4F0B Rx 8  F4 3F FF FF FF FF FF FF 
    129       154.069 DT 0CFF270B Rx 8  00 00 00 00 00 00 CC 34 
    130       154.354 DT 18FEF10B Rx 8  3F 00 00 CF FF FF CF 3F 
    131       154.640 DT 0CFF200B Rx 8  F0 00 32 FF FA 00 00 58 
    132       158.737 DT 0CFF6213 Rx 8  D3 7F EE 7F 00 AF 1F 60 
    133       159.702 DT 0CFF2100 Rx 8  00 00 32 00 32 00 00 4F 
    134       160.009 DT 18FF2200 Rx 8  FC 00 00 00 00 32 00 32 
    135       160.826 DT 0CF00400 Rx 8  FF FF FF 00 00 FF F6 70 
    136       161.136 DT 0CFF6600 Rx 8  00 00 8F 8A 01 00 00 FF 
    137       163.169 DT 18F0090B Rx 8  FF FF FF 60 7D 48 7D 7D 
    138       163.455 DT 0CFF200B Rx 8  F0 00 32 FF FA 00 00 69 
    139       168.797 DT 0CFF6213 Rx 8  D3 7F 01 80 00 AF 2F 3E 
    140       169.081 DT 18FF6913 Rx 8  02 7D FF 7C F1 7F FF FF 
    141       169.722 DT 0CFF2100 Rx 8  00 00 32 00 32 00 00 40 
    142       170.036 DT 18FF2200 Rx 8  FC 00 00 00 00 32 00 32 
    143       171.612 DT 18FEF100 Rx 8  FF FF FF 0C FF 00 F0 FF 
    144       171.909 DT 10FF6500 Rx 8  FF FF FF FF 3F FC FF FF 
    145       172.195 DT 18FEF200 Rx 8  00 00 00 00 99 14 19 FF 
    146       172.503 DT 18FF6D00 Rx 8  31 FF 31 FF FF FF FF FF 
    147       173.343 DT 18F0090B Rx 8  FF FF FF 60 7D 48 7D 7D 
    148       173.628 DT 0CFF270B Rx 8  00 00 00 00 00 00 DC 66 
    149       173.914 DT 0CFF200B Rx 8  F0 00 32 FF FA 00 00 7A 
    150       178.746 DT 0CFF6213 Rx 8  D3 7F FD 7F 00 AF 3F 28 
    151       179.706 DT 0CFF2100 Rx 8  00 00 32 00 32 00 00 51 
    152       180.008 DT 18FF2200 Rx 8  FC 00 00 00 00 32 00 32 
    153       180.876 DT 0CF00400 Rx 8  FF FF FF 00 00 FF F6 70 
    154       181.185 DT 0CFF6600 Rx 8  00 00 8F 8A 01 00 00 FF 
    155       182.665 DT 18F00141 Rx 8  FF FF 3C FF FF FF FF FF 
    156       183.213 DT 18F0090B Rx 8  FF FF FF 60 7D 48 7D 7D 
    157       183.499 DT 0CFF200B Rx 8  F0 00 32 FF FA 00 00 0B 
    158       188.738 DT 0CFF6213 Rx 8  D3 7F 01 80 00 AF 4F 07 
    159       189.709 DT 0CFF2100 Rx 8  00 00 32 00 32 00 00 62 
    160       190.018 DT 18FF2200 Rx 8  FC 00 00 00 00 32 00 32 
    161       193.258 DT 18F0090B Rx 8  FF FF FF 60 7D 48 7D 7D 
    162       193.549 DT 0CFF270B Rx 8  00 00 00 00 00 00 EC 90 
    163       193.828 DT 0CFF200B Rx 8  F0 00 32 FF FA 00 00 1C 
    164       198.741 DT 0CFF6213 Rx 8  D3 7F F8 7F 00 AF 5F 00 
    165       199.713 DT 0CFF2100 Rx 8  00 00 32 00 32 00 00 73 
    166       200.020 DT 18FF2200 Rx 8  FC 00 00 00 00 32 00 32 
    167       200.844 DT 0CF00400 Rx 8  FF FF FF 00 00 FF F6 70 
    168       201.152 DT 0CFF6600 Rx 8  00 00 8F 8A 01 00 00 FF 
    169       203.260 DT 18F0090B Rx 8  FF FF FF 60 7D 48 7D 7D 
    170       203.539 DT 0CFF200B Rx 8  F0 00 32 FF FA 00 00 2D 
    171       208.744 DT 0CFF6213 Rx 8  D3 7F 10 80 00 AF 6F F6 
    172       209.709 DT 0CFF2100 Rx 8  00 00 32 00 32 00 00 04 
    173       210.018 DT 18FF2200 Rx 8  FC 00 00 00 00 32 00 32 
    174       213.315 DT 18F0090B Rx 8  FF FF FF 60 7D 48 7D 7D 
    175       213.606 DT 0CFF270B Rx 8  00 00 00 00 00 00 FC C2 
    176       213.886 DT 0CFF200B Rx 8  F0 00 32 FF FA 00 00 3E 
    177       218.737 DT 0CFF6213 Rx 8  D3 7F FD 7F 00 AF 7F B5 
    178       219.707 DT 0CFF2100 Rx 8  00 00 32 00 32 00 00 15 
    179       220.016 DT 18FF2200 Rx 8  FC 00 00 00 00 32 00 32 
    180       220.879 DT 0CF00400 Rx 8  FF FF FF 00 00 FF F6 70 
    181       221.182 DT 0CFF6600 Rx 8  00 00 8F 8A 01 00 00 FF 
    182       223.209 DT 18F0090B Rx 8  FF FF FF 60 7D 48 7D 7D 
    183       223.494 DT 0CFF200B Rx 8  F0 00 32 FF FA 00 00 5F 
    184       228.732 DT 0CFF6213 Rx 8  D3 7F E9 7F 00 AF 8F 75 
    185       229.704 DT 0CFF2100 Rx 8  00 00 32 00 32 00 00 26 
    186       230.012 DT 18FF2200 Rx 8  FC 00 00 00 00 32 00 32 
    187       233.150 DT 18F0090B Rx 8  FF FF FF 60 7D 48 7D 7D 
    188       233.436 DT 0CFF270B Rx 8  00 00 00 00 00 00 0C 46 
    189       233.723 DT 0CFF200B Rx 8  F0 00 32 FF FA 00 00 40 
    190       235.916 DT 18FEF127 Rx 8  F7 FF FF 0F FF FF 2F D7 
    191       236.235 DT 0C090027 Rx 8  7D FF FF FF FF FF FF FF 
    192       238.749 DT 0CFF6213 Rx 8  D3 7F 06 80 00 AF 9F 8F 
    193       239.709 DT 0CFF2100 Rx 8  00 00 32 00 32 00 00 37 
    194       240.011 DT 18FF2200 Rx 8  FC 00 00 00 00 32 00 32 
    195       240.834 DT 0CF00400 Rx 8  FF FF FF 00 00 FF F6 70 
    196       241.137 DT 0CFF6600 Rx 8  00 00 8F 8A 01 00 00 FF 
    197       242.662 DT 18FF8627 Rx 8  F3 FF FF FF FF FF FF FF 
    198       243.267 DT 18F0090B Rx 8  FF FF FF 60 7D 48 7D 7D 
    199       243.547 DT 0CFF200B Rx 8  F0 00 32 FF FA 00 00 51 
    200       245.369 DT 18FEF186 Rx 8  FF FF FF F3 CC FF 3F 00 
    201       245.660 DT 0CFF8187 Rx 8  FF F3 FF FF FF FF FF FF 
    202       245.951 DT 0CFF8186 Rx 8  F3 FC FF FF FF FF FF FF 
    203       248.687 DT 0CFF6213 Rx 8  D3 7F 06 80 00 AF AF 79 
    204       249.710 DT 0CFF2100 Rx 8  00 00 32 00 32 00 00 58 
    205       250.012 DT 18FF2200 Rx 8  FC 00 00 00 00 32 00 32 
    206       253.218 DT 18F0090B Rx 8  FF FF FF 60 7D 10 7D 7D 
    207       253.503 DT 18F0010B Rx 8  C0 FF 3F FF FF 01 0B FC 
    208       253.788 DT 18FE4F0B Rx 8  F4 3F FF FF FF FF FF FF 
    209       254.079 DT 0CFF270B Rx 8  00 00 00 00 00 00 1C 14 
    210       254.365 DT 18FEF10B Rx 8  3F 00 00 CF FF FF DF 2F 
    211       254.645 DT 0CFF200B Rx 8  F0 00 32 FF FA 00 00 62 
    212       258.685 DT 0CFF6213 Rx 8  D3 7F F8 7F 00 AF BF D6 
    213       259.701 DT 0CFF2100 Rx 8  00 00 32 00 32 00 00 69 
    214       260.010 DT 18FF2200 Rx 8  FC 00 00 00 00 32 00 32 
    215       260.877 DT 0CF00400 Rx 8  FF FF FF 00 00 FF F6 70 
    216       261.180 DT 0CFF6600 Rx 8  00 00 8F 8A 01 00 00 FF 
    217       262.597 DT 10F0ED27 Rx 8  FC FF FF FF FF FF 9F AA 
    218       263.266 DT 18F0090B Rx 8  FF FF FF 60 7D 10 7D 7D 
    219       263.546 DT 0CFF200B Rx 8  F0 00 32 FF FA 00 00 73 
    220       268.754 DT 0CFF6213 Rx 8  D3 7F 0B 80 00 AF CF CA 
    221       269.034 DT 18FF6913 Rx 8  02 7D 01 7D 12 80 FF FF 
    222       269.725 DT 0CFF2100 Rx 8  00 00 32 00 32 00 00 7A 
    223       270.038 DT 18FF2200 Rx 8  FC 00 00 00 00 32 00 32 
    224       271.434 DT 18FEF100 Rx 8  FF FF FF 0C FF 00 F0 FF 
    225       271.741 DT 18FEF200 Rx 8  00 00 00 00 99 14 19 FF 
    226       272.050 DT 18FF6D00 Rx 8  31 FF 31 FF FF FF FF FF 
    227       273.302 DT 18F0090B Rx 8  FF FF FF 60 7D 10 7D 7D 
    228       273.586 DT 0CFF270B Rx 8  00 00 00 00 00 00 2C E2 
    229       273.872 DT 0CFF200B Rx 8  F0 00 32 FF FA 00 00 04 
    230       278.689 DT 0CFF6213 Rx 8  D3 7F FD 7F 00 AF DF FE 
    231       279.705 DT 0CFF2100 Rx 8  00 00 32 00 32 00 00 0B 
    232       280.013 DT 18FF2200 Rx 8  FC 00 00 00 00 32 00 32 
    233       280.830 DT 0CF00400 Rx 8  FF FF FF 00 00 FF F6 70 
    234       281.139 DT 0CFF6600 Rx 8  00 00 8F 8A 01 00 00 FF 
    235       282.527 DT 18F00141 Rx 8  FF FF 3C FF FF FF FF FF 
    236       283.321 DT 18F0090B Rx 8  FF FF FF 60 7D 10 7D 7D 
    237       283.607 DT 0CFF200B Rx 8  F0 00 32 FF FA 00 00 15 
    238       288.766 DT 0CFF6213 Rx 8  D3 7F EE 7F 00 AF EF E4 
    239       289.709 DT 0CFF2100 Rx 8  00 00 32 00 32 00 00 1C 
    240       290.016 DT 18FF2200 Rx 8  FC 00 00 00 00 32 00 32 
    241       293.205 DT 18F0090B Rx 8  FF FF FF 60 7D 48 7D 7D 
    242       293.490 DT 0CFF270B Rx 8  00 00 00 00 00 00 3C B0 
    243       293.776 DT 0CFF200B Rx 8  F0 00 32 FF FA 00 00 26 
    244       298.700 DT 0CFF6213 Rx 8  D3 7F 01 80 00 AF FF 1E 
    245       299.706 DT 0CFF2100 Rx 8  00 00 32 00 32 00 00 2D 
    246       300.013 DT 18FF2200 Rx 8  FC 00 00 00 00 32 00 32 
    247       300.882 DT 0CF00400 Rx 8  FF FF FF 00 00 FF F6 70 
    248       301.191 DT 0CFF6600 Rx 8  00 00 8F 8A 01 00 00 FF 
    249       302.658 DT 1CFF6A41 Rx 8  FF FF FF FF FF FF C0 FF 
    250       302.972 DT 18FF8341 Rx 8  FF FF 00 F0 FF FF FF FF 
    251       303.252 DT 18F0090B Rx 8  FF FF FF 60 7D 48 7D 7D 
    252       303.538 DT 0CFF200B Rx 8  F0 00 32 FF FA 00 00 47 
    253       303.829 DT 18FF7041 Rx 8  00 00 00 F8 FF FF FF FF 
    254       304.137 DT 18FF7141 Rx 8  F0 00 F8 FF FF FF FF FF 
    255       308.788 DT 0CFF6213 Rx 8  D3 7F 10 80 00 AF 0F CF 
    256       309.712 DT 0CFF2100 Rx 8  00 00 32 00 32 00 00 3E 
    257       310.020 DT 18FF2200 Rx 8  FC 00 00 00 00 32 00 32 
    258       313.249 DT 18F0090B Rx 8  FF FF FF 60 7D 48 7D 7D 
    259       313.540 DT 0CFF270B Rx 8  00 00 00 00 00 00 4C DB 
    260       313.820 DT 0CFF200B Rx 8  F0 00 32 FF FA 00 00 58 
    261       318.682 DT 0CFF6213 Rx 8  D3 7F FD 7F 00 AF 1F 8C 
    262       319.704 DT 0CFF2100 Rx 8  00 00 32 00 32 00 00 4F 
    263       320.012 DT 18FF2200 Rx 8  FC 00 00 00 00 32 00 32 
    264       320.835 DT 0CF00400 Rx 8  FF FF FF 00 00 FF F6 70 
    265       321.138 DT 0CFF6600 Rx 8  00 00 8F 8A 01 00 00 FF 
    266       322.675 DT 18FECA41 Rx 8  FF FF 00 00 00 00 FF FF 
    267       323.218 DT 18F0090B Rx 8  FF FF FF 60 7D 48 7D 7D 
    268       323.502 DT 0CFF200B Rx 8  F0 00 32 FF FA 00 00 69 
    269       328.828 DT 0CFF6213 Rx 8  D3 7F FD 7F 00 AF 2F 7A 
    270       329.707 DT 0CFF2100 Rx 8  00 00 32 00 32 00 00 40 
    271       330.015 DT 18FF2200 Rx 8  FC 00 00 00 00 32 00 32 
    272       333.251 DT 18F0090B Rx 8  FF FF FF 60 7D 48 7D 7D 
    273       333.537 DT 0CFF270B Rx 8  00 00 00 00 00 00 5C 89 
    274       333.822 DT 0CFF200B Rx 8  F0 00 32 FF FA 00 00 7A 
    275       335.913 DT 18FEF127 Rx 8  F7 FF FF 0F FF FF 3F C7 
    276       336.233 DT 0C090027 Rx 8  7D FF FF FF FF FF FF FF 
    277       338.683 DT 0CFF6213 Rx 8  D3 7F 10 80 00 AF 3F 39 
    278       339.706 DT 0CFF2100 Rx 8  00 00 32 00 32 00 00 51 
    279       340.014 DT 18FF2200 Rx 8  FC 00 00 00 00 32 00 32 
    280       340.877 DT 0CF00400 Rx 8  FF FF FF 00 00 FF F6 70 
    281       341.185 DT 0CFF6600 Rx 8  00 00 8F 8A 01 00 00 FF 
    282       342.488 DT 10FF6541 Rx 8  FF FF FF CF FF C3 FF FF 
    283       342.779 DT 10FF6527 Rx 8  1F 03 FC F0 FF FF FF FF 
    284       343.070 DT 10FF6C41 Rx 8  00 FF FF FF FF FF FF FF 
    285       343.351 DT 18F0090B Rx 8  FF FF FF 60 7D 48 7D 7D 
    286       343.635 DT 0CFF200B Rx 8  F0 00 32 FF FA 00 00 0B 
    287       343.926 DT 18FF8627 Rx 8  F3 FF FF FF FF FF FF FF 
    288       345.315 DT 18FEF186 Rx 8  FF FF FF F3 CC FF 4F 70 
    289       345.605 DT 0CFF8187 Rx 8  FF F3 FF FF FF FF FF FF 
    290       345.896 DT 0CFF8186 Rx 8  F3 FC FF FF FF FF FF FF 
    291       346.199 DT 10FF6586 Rx 8  FC FF FF FF FF FF FF FF 
    292       348.850 DT 0CFF6213 Rx 8  D3 7F FD 7F 00 AF 4F 43 
    293       349.702 DT 0CFF2100 Rx 8  00 00 32 00 32 00 00 62 
    294       350.009 DT 18FF2200 Rx 8  FC 00 00 00 00 32 00 32 
    295       353.311 DT 18F0090B Rx 8  FF FF FF 60 7D 48 7D 7D 
    296       353.596 DT 18F0010B Rx 8  C0 FF 3F FF FF 01 0B FC 
    297       353.882 DT 18FE4F0B Rx 8  F4 3F FF FF FF FF FF FF 
    298       354.167 DT 0CFF270B Rx 8  00 00 00 00 00 00 6C 7F 
    299       354.453 DT 18FEF10B Rx 8  3F 00 00 CF FF FF EF 1F 
    300       354.738 DT 0CFF200B Rx 8  F0 00 32 FF FA 00 00 1C 
    301       358.726 DT 0CFF6213 Rx 8  D3 7F 06 80 00 AF 5F FD 
    302       359.708 DT 0CFF2100 Rx 8  00 00 32 00 32 00 00 73 
    303       360.010 DT 18FF2200 Rx 8  FC 00 00 00 00 32 00 32 
    304       360.833 DT 0CF00400 Rx 8  FF FF FF 00 00 FF F6 70 
    305       361.136 DT 0CFF6600 Rx 8  00 00 8F 8A 01 00 00 FF 
    306       363.215 DT 18F0090B Rx 8  FF FF FF 60 7D 48 7D 7D 
    307       363.501 DT 0CFF200B Rx 8  F0 00 32 FF FA 00 00 2D 
    308       365.922 DT 18FF7127 Rx 8  F0 FF FF FF FF FF FF FF 
    309       366.237 DT 18FF2D27 Rx 8  FF FF FF F3 F3 FF FF FF 
    310       368.859 DT 0CFF6213 Rx 8  D3 7F 0B 80 00 AF 6F 81 
    311       369.145 DT 18FF6913 Rx 8  02 7D 01 7D 1C 80 FF FF 
    312       369.733 DT 0CFF2100 Rx 8  00 00 32 00 32 00 00 04 
    313       370.047 DT 18FF2200 Rx 8  FC 00 00 00 00 32 00 32 
    314       371.607 DT 18FEF100 Rx 8  FF FF FF 0C FF 00 F0 FF 
    315       371.898 DT 10FF6500 Rx 8  FF FF FF FF 3F FC FF FF 
    316       372.190 DT 18FEF200 Rx 8  00 00 00 00 99 14 19 FF 
    317       372.493 DT 18FF6D00 Rx 8  31 FF 31 FF FF FF FF FF 
    318       373.218 DT 18F0090B Rx 8  FF FF FF 60 7D 7F 7D 7D 
    319       373.514 DT 0CFF270B Rx 8  00 00 00 00 00 00 7C 2D 
    320       373.800 DT 0CFF200B Rx 8  F0 00 32 FF FA 00 00 3E 
    321       378.834 DT 0CFF6213 Rx 8  D3 7F FD 7F 00 AF 7F B5 
    322       379.708 DT 0CFF2100 Rx 8  00 00 32 00 32 00 00 15 
    323       380.015 DT 18FF2200 Rx 8  FC 00 00 00 00 32 00 32 
    324       380.878 DT 0CF00400 Rx 8  FF FF FF 00 00 FF F6 70 
    325       381.187 DT 0CFF6600 Rx 8  00 00 8F 8A 01 00 00 FF 
    326       382.599 DT 18F00141 Rx 8  FF FF 3C FF FF FF FF FF 
    327       382.890 DT 18FF6E27 Rx 8  DF FF FF FF FF FF FF FF 
    328       383.250 DT 18F0090B Rx 8  FF FF FF 60 7D 7F 7D 7D 
    329       383.535 DT 0CFF200B Rx 8  F0 00 32 FF FA 00 00 5F 
    330       388.883 DT 0CFF6213 Rx 8  D3 7F FD 7F 00 AF 8F 31 
    331       389.711 DT 0CFF2100 Rx 8  00 00 32 00 32 00 00 26 
    332       390.019 DT 18FF2200 Rx 8  FC 00 00 00 00 32 00 32 
    333       393.208 DT 18F0090B Rx 8  FF FF FF 60 7D 48 7D 7D 
    334       393.499 DT 0CFF270B Rx 8  00 00 00 00 00 00 8C A9 
    335       393.779 DT 0CFF200B Rx 8  F0 00 32 FF FA 00 00 40 
    336       398.846 DT 0CFF6213 Rx 8  D3 7F F8 7F 00 AF 9F 72 
    337       399.708 DT 0CFF2100 Rx 8  00 00 32 00 32 00 00 37 
    338       400.016 DT 18FF2200 Rx 8  FC 00 00 00 00 32 00 32 
    339       400.839 DT 0CF00400 Rx 8  FF FF FF 00 00 FF F6 70 
    340       401.147 DT 0CFF6600 Rx 8  00 00 8F 8A 01 00 00 FF 
    341       403.255 DT 18F0090B Rx 8  FF FF FF 60 7D 48 7D 7D 
    342       403.541 DT 0CFF200B Rx 8  F0 00 32 FF FA 00 00 51 
    343       408.883 DT 0CFF6213 Rx 8  D3 7F EE 7F 00 AF AF 79 
    344       409.711 DT 0CFF2100 Rx 8  00 00 32 00 32 00 00 58 
    345       410.014 DT 18FF2200 Rx 8  FC 00 00 00 00 32 00 32 
    346       413.247 DT 18F0090B Rx 8  FF FF FF 60 7D 48 7D 7D 
    347       413.533 DT 0CFF270B Rx 8  00 00 00 00 00 00 9C FB 
    348       413.818 DT 0CFF200B Rx 8  F0 00 32 FF FA 00 00 62 
    349       418.869 DT 0CFF6213 Rx 8  D3 7F 06 80 00 AF BF 2B 
    350       419.709 DT 0CFF2100 Rx 8  00 00 32 00 32 00 00 69 
    351       420.016 DT 18FF2200 Rx 8  FC 00 00 00 00 32 00 32 
    352       420.879 DT 0CF00400 Rx 8  FF FF FF 00 00 FF F6 70 
    353       421.188 DT 0CFF6600 Rx 8  00 00 8F 8A 01 00 00 FF 
    354       423.296 DT 18F0090B Rx 8  FF FF FF 60 7D 48 7D 7D 
    355       423.581 DT 0CFF200B Rx 8  F0 00 32 FF FA 00 00 73 
    356       428.888 DT 0CFF6213 Rx 8  D3 7F F8 7F 00 AF CF BD 
    357       429.717 DT 0CFF2100 Rx 8  00 00 32 00 32 00 00 7A 
    358       430.025 DT 18FF2200 Rx 8  FC 00 00 00 00 32 00 32 
    359       430.425 DT 18FEEE00 Rx 8  6B FF FF FF FF FF FF FF 
    360       430.715 DT 18FECA00 Rx 8  40 FF 00 00 00 00 FF FF 
    361       431.013 DT 18FEFC00 Rx 8  FF FA FF FF FF FF FF FF 
    362       431.316 DT 18FEF700 Rx 8  FF FF FF FF FE 00 FF FF 
    363       431.623 DT 18FF2E00 Rx 8  38 FE FF FF FF FF FF FF 
    364       431.926 DT 18FEC100 Rx 8  A3 F1 42 00 00 00 00 00 
    365       433.196 DT 18F0090B Rx 8  FF FF FF 60 7D 48 7D 7D 
    366       433.487 DT 0CFF270B Rx 8  00 00 00 00 00 00 AC 0D 
    367       433.772 DT 0CFF200B Rx 8  F0 00 32 FF FA 00 00 04 
    368       435.994 DT 18FEF127 Rx 8  F7 FF FF 0F FF FF 4F B7 
    369       436.315 DT 0C090027 Rx 8  7D FF FF FF FF FF FF FF 
    370       438.857 DT 0CFF6213 Rx 8  D3 7F 01 80 00 AF DF BA 
    371       439.713 DT 0CFF2100 Rx 8  00 00 32 00 32 00 00 0B 
    372       440.021 DT 18FF2200 Rx 8  FC 00 00 00 00 32 00 32 
    373       440.838 DT 0CF00400 Rx 8  FF FF FF 00 00 FF F6 70 
    374       441.141 DT 0CFF6600 Rx 8  00 00 8F 8A 01 00 00 FF 
    375       442.632 DT 18FF8627 Rx 8  F3 FF FF FF FF FF FF FF 
    376       443.141 DT 18F0090B Rx 8  FF FF FF 60 7D 48 7D 7D 
    377       443.425 DT 0CFF200B Rx 8  F0 00 32 FF FA 00 00 15 
    378       445.300 DT 18FEF186 Rx 8  FF FF FF F3 CC FF 5F 60 
    379       445.591 DT 10FF6487 Rx 8  F0 FF FF FF FF C0 FF FF 
    380       445.875 DT 0CFF8186 Rx 8  F3 FC FF FF FF FF FF FF 
    381       446.167 DT 0CFF8187 Rx 8  FF F3 FF FF FF FF FF FF 
    382       448.754 DT 0CFF6213 Rx 8  D3 7F F8 7F 00 AF EF 19 
    383       449.708 DT 0CFF2100 Rx 8  00 00 32 00 32 00 00 1C 
    384       450.017 DT 18FF2200 Rx 8  FC 00 00 00 00 32 00 32 
    385       453.257 DT 18F0090B Rx 8  FF FF FF 60 7D 48 7D 7D 
    386       453.542 DT 18F0010B Rx 8  C0 FF 3F FF FF 01 0B FC 
    387       453.828 DT 18FE4F0B Rx 8  F4 3F FF FF FF FF FF FF 
    388       454.113 DT 0CFF270B Rx 8  00 00 00 00 00 00 BC 5F 
    389       454.399 DT 18FEF10B Rx 8  3F 00 00 CF FF FF FF 0F 
    390       454.683 DT 0CFF200B Rx 8  F0 00 32 FF FA 00 00 26 
    391       458.854 DT 0CFF6213 Rx 8  D3 7F F8 7F 00 AF FF 4B 
    392       459.711 DT 0CFF2100 Rx 8  00 00 32 00 32 00 00 2D 
    393       460.019 DT 18FF2200 Rx 8  FC 00 00 00 00 32 00 32 
    394       460.882 DT 0CF00400 Rx 8  FF FF FF 00 00 FF F6 70 
    395       461.190 DT 0CFF6600 Rx 8  00 00 8F 8A 01 00 00 FF 
    396       463.202 DT 18F0090B Rx 8  FF FF FF 60 7D 48 7D 7D 
    397       463.487 DT 0CFF200B Rx 8  F0 00 32 FF FA 00 00 47 
    398       468.748 DT 0CFF6213 Rx 8  D3 7F 06 80 00 AF 0F 32 
    399       469.034 DT 18FF6913 Rx 8  02 7D 00 7D 04 80 FF FF 
    400       469.726 DT 0CFF2100 Rx 8  00 00 32 00 32 00 00 3E 
    401       470.040 DT 18FF2200 Rx 8  FC 00 00 00 00 32 00 32 
    402       471.440 DT 18FEF100 Rx 8  FF FF FF 0C FF 00 F0 FF 
    403       471.742 DT 18FEF200 Rx 8  00 00 00 00 99 14 19 FF 
    404       472.050 DT 18FF6D00 Rx 8  31 FF 31 FF FF FF FF FF 
    405       473.285 DT 18F0090B Rx 8  FF FF FF 60 7D 48 7D 7D 
    406       473.569 DT 0CFF270B Rx 8  00 00 00 00 00 00 CC 34 
    407       473.855 DT 0CFF200B Rx 8  F0 00 32 FF FA 00 00 58 
    408       478.859 DT 0CFF6213 Rx 8  D3 7F 0B 80 00 AF 1F EA 
    409       479.717 DT 0CFF2100 Rx 8  00 00 32 00 32 00 00 4F 
    410       480.019 DT 18FF2200 Rx 8  FC 00 00 00 00 32 00 32 
    411       480.848 DT 0CF00400 Rx 8  FF FF FF 00 00 FF F6 70 
    412       481.151 DT 0CFF6600 Rx 8  00 00 8F 8A 01 00 00 FF 
    413       482.780 DT 18F00141 Rx 8  FF FF 3C FF FF FF FF FF 
    414       483.235 DT 18F0090B Rx 8  FF FF FF 60 7D 48 7D 7D 
    415       483.515 DT 0CFF200B Rx 8  F0 00 32 FF FA 00 00 69 
    416       488.719 DT 0CFF6213 Rx 8  D3 7F 06 80 00 AF 2F 96 
    417       489.714 DT 0CFF2100 Rx 8  00 00 32 00 32 00 00 40 
    418       490.021 DT 18FF2200 Rx 8  FC 00 00 00 00 32 00 32 
    419       493.291 DT 18F0090B Rx 8  FF FF FF 60 7D 48 7D 7D 
    420       493.575 DT 0CFF270B Rx 8  00 00 00 00 00 00 DC 66 
    421       493.861 DT 0CFF200B Rx 8  F0 00 32 FF FA 00 00 7A 
    422       498.780 DT 0CFF6213 Rx 8  D3 7F 06 80 00 AF 3F C4 
    423       499.716 DT 0CFF2100 Rx 8  00 00 32 00 32 00 00 51 
    424       500.018 DT 18FF2200 Rx 8  FC 00 00 00 00 32 00 32 
    425       500.892 DT 0CF00400 Rx 8  FF FF FF 00 00 FF F6 70 
    426       501.195 DT 0CFF6600 Rx 8  00 00 8F 8A 01 00 00 FF 
    427       503.200 DT 18F0090B Rx 8  FF FF FF 60 7D 48 7D 7D 
    428       503.486 DT 0CFF200B Rx 8  F0 00 32 FF FA 00 00 0B 
    429       508.731 DT 0CFF6213 Rx 8  D3 7F 0B 80 00 AF 4F 25 
    430       509.719 DT 0CFF2100 Rx 8  00 00 32 00 32 00 00 62 
    431       510.021 DT 18FF2200 Rx 8  FC 00 00 00 00 32 00 32 
    432       511.307 DT 10F0ED27 Rx 8  FC FF FF FF FF FF AF BA 
    433       513.136 DT 18F0090B Rx 8  FF FF FF 60 7D 48 7D 7D 
    434       513.427 DT 0CFF270B Rx 8  00 00 00 00 00 00 EC 90 
    435       513.706 DT 0CFF200B Rx 8  F0 00 32 FF FA 00 00 1C 
    436       518.728 DT 0CFF6213 Rx 8  D3 7F 01 80 00 AF 5F 55 
    437       519.722 DT 0CFF2100 Rx 8  00 00 32 00 32 00 00 73 
    438       520.030 DT 18FF2200 Rx 8  FC 00 00 00 00 32 00 32 
    439       520.848 DT 0CF00400 Rx 8  FF FF FF 00 00 FF F6 70 
    440       521.156 DT 0CFF6600 Rx 8  00 00 8F 8A 01 00 00 FF 
    441       523.252 DT 18F0090B Rx 8  FF FF FF 60 7D 48 7D 7D 
    442       523.532 DT 0CFF200B Rx 8  F0 00 32 FF FA 00 00 2D 
    443       528.788 DT 0CFF6213 Rx 8  D3 7F 01 80 00 AF 6F A3 
    444       529.719 DT 0CFF2100 Rx 8  00 00 32 00 32 00 00 04 
    445       530.026 DT 18FF2200 Rx 8  FC 00 00 00 00 32 00 32 
    446       533.195 DT 18F0090B Rx 8  FF FF FF 60 7D 48 7D 7D 
    447       533.480 DT 0CFF270B Rx 8  00 00 00 00 00 00 FC C2 
    448       533.765 DT 0CFF200B Rx 8  F0 00 32 FF FA 00 00 3E 
    449       535.908 DT 18FEF127 Rx 8  F7 FF FF 0F FF FF 5F A7 
    450       536.222 DT 0C090027 Rx 8  7D FF FF FF FF FF FF FF 
    451       538.735 DT 0CFF6213 Rx 8  D3 7F E9 7F 00 AF 7F F1 
    452       539.718 DT 0CFF2100 Rx 8  00 00 32 00 32 00 00 15 
    453       540.021 DT 18FF2200 Rx 8  FC 00 00 00 00 32 00 32 
    454       540.884 DT 0CF00400 Rx 8  FF FF FF 00 00 FF F6 70 
    455       541.192 DT 0CFF6600 Rx 8  00 00 8F 8A 01 00 00 FF 
    456       542.563 DT 10FF6527 Rx 8  1F 03 FC F0 FF FF FF FF 
    457       542.854 DT 10FF6541 Rx 8  FF FF FF CF FF C3 FF FF 
    458       543.140 DT 1CFF6A27 Rx 8  3F 9C FF F3 FF FF FF FF 
    459       543.437 DT 10FF6C41 Rx 8  00 FF FF FF FF FF FF FF 
    460       543.717 DT 18F0090B Rx 8  FF FF FF 60 7D 48 7D 7D 
    461       544.001 DT 0CFF200B Rx 8  F0 00 32 FF FA 00 00 5F 
    462       544.293 DT 18FF8627 Rx 8  F3 FF FF FF FF FF FF FF 
    463       545.299 DT 18FEF186 Rx 8  FF FF FF F3 CC FF 6F 50 
    464       545.590 DT 0CFF8187 Rx 8  FF F3 FF FF FF FF FF FF 
    465       545.881 DT 0CFF8186 Rx 8  F3 FC FF FF FF FF FF FF 
    466       546.184 DT 10FF6586 Rx 8  FC FF FF FF FF FF FF FF 
    467       548.788 DT 0CFF6213 Rx 8  D3 7F F3 7F 00 AF 8F B4 
    468       549.714 DT 0CFF2100 Rx 8  00 00 32 00 32 00 00 26 
    469       550.022 DT 18FF2200 Rx 8  FC 00 00 00 00 32 00 32 
    470       553.234 DT 18F0090B Rx 8  FF FF FF 60 7D 48 7D 7D 
    471       553.518 DT 18F0010B Rx 8  C0 FF 3F FF FF 01 0B FC 
    472       553.804 DT 18FE4F0B Rx 8  F4 3F FF FF FF FF FF FF 
    473       554.095 DT 0CFF270B Rx 8  00 00 00 00 00 00 0C 46 
    474       554.380 DT 18FEF10B Rx 8  3F 00 00 CF FF FF 0F FF 
    475       554.666 DT 18FEF70B Rx 8  FF FF FF FF FC 00 FC 00 
    476       554.951 DT 0CFF200B Rx 8  F0 00 32 FF FA 00 00 40 
    477       558.722 DT 0CFF6213 Rx 8  D3 7F FD 7F 00 AF 9F 63 
    478       559.710 DT 0CFF2100 Rx 8  00 00 32 00 32 00 00 37 
    479       560.018 DT 18FF2200 Rx 8  FC 00 00 00 00 32 00 32 
    480       560.841 DT 0CF00400 Rx 8  FF FF FF 00 00 FF F6 70 
    481       561.145 DT 0CFF6600 Rx 8  00 00 8F 8A 01 00 00 FF 
    482       563.310 DT 18F0090B Rx 8  FF FF FF 60 7D 48 7D 7D 
    483       563.594 DT 0CFF200B Rx 8  F0 00 32 FF FA 00 00 51 
    484       566.970 DT 18FECA0B Rx 8  00 FF 00 00 00 00 FF FF 
    485       568.816 DT 0CFF6213 Rx 8  D3 7F F3 7F 00 AF AF 10 
    486       569.102 DT 18FF6913 Rx 8  02 7D 00 7D 04 80 FF FF 
    487       569.729 DT 0CFF2100 Rx 8  00 00 32 00 32 00 00 58 
    488       570.042 DT 18FF2200 Rx 8  FC 00 00 00 00 32 00 32 
    489       571.613 DT 18FEF100 Rx 8  FF FF FF 0C FF 00 F0 FF 
    490       571.904 DT 10FF6500 Rx 8  FF FF FF FF 3F FC FF FF 
    491       572.196 DT 18FEF200 Rx 8  00 00 00 00 99 14 19 FF 
    492       572.504 DT 18FF6D00 Rx 8  31 FF 31 FF FF FF FF FF 
    493       573.264 DT 18F0090B Rx 8  FF FF FF 60 7D 48 7D 7D 
    494       573.555 DT 0CFF270B Rx 8  00 00 00 00 00 00 1C 14 
    495       573.840 DT 0CFF200B Rx 8  F0 00 32 FF FA 00 00 62 
    496       578.720 DT 0CFF6213 Rx 8  D3 7F F8 7F 00 AF BF D6 
    497       579.713 DT 0CFF2100 Rx 8  00 00 32 00 32 00 00 69 
    498       580.022 DT 18FF2200 Rx 8  FC 00 00 00 00 32 00 32 
    499       580.885 DT 0CF00400 Rx 8  FF FF FF 00 00 FF F6 70 
    500       581.193 DT 0CFF6600 Rx 8  00 00 8F 8A 01 00 00 FF 
    501       582.668 DT 18F00141 Rx 8  FF FF 3C FF FF FF FF FF 
    502       583.291 DT 18F0090B Rx 8  FF FF FF 60 7D 48 7D 7D 
    503       583.570 DT 0CFF200B Rx 8  F0 00 32 FF FA 00 00 73 
    504       588.837 DT 0CFF6213 Rx 8  D3 7F 01 80 00 AF CF E8 
    505       589.718 DT 0CFF2100 Rx 8  00 00 32 00 32 00 00 7A 
    506       590.020 DT 18FF2200 Rx 8  FC 00 00 00 00 32 00 32 
    507       593.197 DT 18F0090B Rx 8  FF FF FF 60 7D 10 7D 7D 
    508       593.483 DT 0CFF270B Rx 8  00 00 00 00 00 00 2C E2 
    509       593.774 DT 0CFF200B Rx 8  F0 00 32 FF FA 00 00 04 
    510       598.812 DT 0CFF6213 Rx 8  D3 7F FD 7F 00 AF DF FE 
    511       599.715 DT 0CFF2100 Rx 8  00 00 32 00 32 00 00 0B 
    512       600.023 DT 18FF2200 Rx 8  FC 00 00 00 00 32 00 32 
    513       600.846 DT 0CF00400 Rx 8  FF FF FF 00 00 FF F6 70 
    514       601.154 DT 0CFF6600 Rx 8  00 00 8F 8A 01 00 00 FF 
    515       603.137 DT 18F0090B Rx 8  FF FF FF 60 7D 10 7D 7D 
    516       603.423 DT 0CFF200B Rx 8  F0 00 32 FF FA 00 00 15 
    517       608.833 DT 0CFF6213 Rx 8  D3 7F F8 7F 00 AF EF 19 
    518       609.719 DT 0CFF2100 Rx 8  00 00 32 00 32 00 00 1C 
    519       610.021 DT 18FF2200 Rx 8  FC 00 00 00 00 32 00 32 
    520       613.272 DT 18F0090B Rx 8  FF FF FF 60 7D 48 7D 7D 
    521       613.563 DT 0CFF270B Rx 8  00 00 00 00 00 00 3C B0 
    522       613.842 DT 0CFF200B Rx 8  F0 00 32 FF FA 00 00 26 
    523       618.785 DT 0CFF6213 Rx 8  D3 7F 01 80 00 AF FF 1E 
    524       619.716 DT 0CFF2100 Rx 8  00 00 32 00 32 00 00 2D 
    525       620.018 DT 18FF2200 Rx 8  FC 00 00 00 00 32 00 32 
    526       620.886 DT 0CF00400 Rx 8  FF FF FF 00 00 FF F6 70 
    527       621.196 DT 0CFF6600 Rx 8  00 00 8F 8A 01 00 00 FF 
    528       623.224 DT 18F0090B Rx 8  FF FF FF 60 7D 48 7D 7D 
    529       623.509 DT 0CFF200B Rx 8  F0 00 32 FF FA 00 00 47 
    530       628.838 DT 0CFF6213 Rx 8  D3 7F 0B 80 00 AF 0F B8 
    531       629.719 DT 0CFF2100 Rx 8  00 00 32 00 32 00 00 3E 
    532       630.021 DT 18FF2200 Rx 8  FC 00 00 00 00 32 00 32 
    533       630.313 DT 18FECA13 Rx 8  00 FF 00 00 00 00 FF FF 
    534       633.211 DT 18F0090B Rx 8  FF FF FF 60 7D 48 7D 7D 
    535       633.495 DT 0CFF270B Rx 8  00 00 00 00 00 00 4C DB 
    536       633.781 DT 0CFF200B Rx 8  F0 00 32 FF FA 00 00 58 
    537       635.901 DT 18FEF127 Rx 8  F7 FF FF 0F FF FF 6F 97 
    538       636.221 DT 0C090027 Rx 8  7D FF FF FF FF FF FF FF 
    539       638.780 DT 0CFF6213 Rx 8  D3 7F FD 7F 00 AF 1F 8C 
    540       639.716 DT 0CFF2100 Rx 8  00 00 32 00 32 00 00 4F 
    541       640.025 DT 18FF2200 Rx 8  FC 00 00 00 00 32 00 32 
    542       640.842 DT 0CF00400 Rx 8  FF FF FF 00 00 FF F6 70 
    543       641.146 DT 0CFF6600 Rx 8  00 00 8F 8A 01 00 00 FF 
    544       642.648 DT 18FF8627 Rx 8  F3 FF FF FF FF FF FF FF 
    545       643.185 DT 18F0090B Rx 8  FF FF FF 60 7D 48 7D 7D 
    546       643.470 DT 0CFF200B Rx 8  F0 00 32 FF FA 00 00 69 
    547       645.305 DT 18FEF186 Rx 8  FF FF FF F3 CC FF 7F 40 
    548       645.600 DT 0CFF8187 Rx 8  FF F3 FF FF FF FF FF FF 
    549       645.891 DT 0CFF8186 Rx 8  F3 FC FF FF FF FF FF FF 
    550       648.833 DT 0CFF6213 Rx 8  D3 7F F3 7F 00 AF 2F FF 
    551       649.719 DT 0CFF2100 Rx 8  00 00 32 00 32 00 00 40 
    552       650.021 DT 18FF2200 Rx 8  FC 00 00 00 00 32 00 32 
    553       653.279 DT 18F0090B Rx 8  FF FF FF 60 7D 48 7D 7D 
    554       653.558 DT 18F0010B Rx 8  C0 FF 3F FF FF 01 0B FC 
    555       653.843 DT 18FE4F0B Rx 8  F4 3F FF FF FF FF FF FF 
    556       654.130 DT 0CFF270B Rx 8  00 00 00 00 00 00 5C 89 
    557       654.421 DT 18FEF10B Rx 8  3F 00 00 CF FF FF 1F EF 
    558       654.700 DT 0CFF200B Rx 8  F0 00 32 FF FA 00 00 7A 
    559       658.807 DT 0CFF6213 Rx 8  D3 7F F3 7F 00 AF 3F AD 
    560       659.716 DT 0CFF2100 Rx 8  00 00 32 00 32 00 00 51 
    561       660.023 DT 18FF2200 Rx 8  FC 00 00 00 00 32 00 32 
    562       660.886 DT 0CF00400 Rx 8  FF FF FF 00 00 FF F6 70 
    563       661.195 DT 0CFF6600 Rx 8  00 00 8F 8A 01 00 00 FF 
    564       663.189 DT 18F0090B Rx 8  FF FF FF 60 7D 48 7D 7D 
    565       663.474 DT 0CFF200B Rx 8  F0 00 32 FF FA 00 00 0B 
    566       668.776 DT 0CFF6213 Rx 8  D3 7F F3 7F 00 AF 4F C6 
    567       669.055 DT 18FF6913 Rx 8  02 7D FF 7C F6 7F FF FF 
    568       669.735 DT 0CFF2100 Rx 8  00 00 32 00 32 00 00 62 
    569       670.049 DT 18FF2200 Rx 8  FC 00 00 00 00 32 00 32 
    570       671.438 DT 18FEF100 Rx 8  FF FF FF 0C FF 00 F0 FF 
    571       671.746 DT 18FEF200 Rx 8  00 00 00 00 99 14 19 FF 
    572       672.054 DT 18FF6D00 Rx 8  31 FF 31 FF FF FF FF FF 
    573       673.181 DT 18F0090B Rx 8  FF FF FF 60 7D 48 7D 7D 
    574       673.465 DT 0CFF270B Rx 8  00 00 00 00 00 00 6C 7F 
    575       673.751 DT 0CFF200B Rx 8  F0 00 32 FF FA 00 00 1C 
    576       678.773 DT 0CFF6213 Rx 8  D3 7F F8 7F 00 AF 5F 00 
    577       679.716 DT 0CFF2100 Rx 8  00 00 32 00 32 00 00 73 
    578       680.023 DT 18FF2200 Rx 8  FC 00 00 00 00 32 00 32 
    579       680.847 DT 0CF00400 Rx 8  FF FF FF 00 00 FF F6 70 
    580       681.150 DT 0CFF6600 Rx 8  00 00 8F 8A 01 00 00 FF 
    581       682.532 DT 18F00141 Rx 8  FF FF 3C FF FF FF FF FF 
    582       683.275 DT 18F0090B Rx 8  FF FF FF 60 7D 48 7D 7D 
    583       683.560 DT 0CFF200B Rx 8  F0 00 32 FF FA 00 00 2D 
    584       688.805 DT 0CFF6213 Rx 8  D3 7F F8 7F 00 AF 6F F6 
    585       689.719 DT 0CFF2100 Rx 8  00 00 32 00 32 00 00 04 
    586       690.027 DT 18FF2200 Rx 8  FC 00 00 00 00 32 00 32 
    587       693.210 DT 18F0090B Rx 8  FF FF FF 60 7D 48 7D 7D 
    588       693.501 DT 0CFF270B Rx 8  00 00 00 00 00 00 7C 2D 
    589       693.781 DT 0CFF200B Rx 8  F0 00 32 FF FA 00 00 3E 
    590       698.769 DT 0CFF6213 Rx 8  D3 7F FD 7F 00 AF 7F B5 
    591       699.723 DT 0CFF2100 Rx 8  00 00 32 00 32 00 00 15 
    592       700.029 DT 18FF2200 Rx 8  FC 00 00 00 00 32 00 32 
    593       700.898 DT 0CF00400 Rx 8  FF FF FF 00 00 FF F6 70 
    594       701.202 DT 0CFF6600 Rx 8  00 00 8F 8A 01 00 00 FF 
    595       703.201 DT 18F0090B Rx 8  FF FF FF 60 7D 48 7D 7D 
    596       703.487 DT 0CFF200B Rx 8  F0 00 32 FF FA 00 00 5F 
    597       708.685 DT 0CFF6213 Rx 8  D3 7F FD 7F 00 AF 8F 31 
    598       709.714 DT 0CFF2100 Rx 8  00 00 32 00 32 00 00 26 
    599       710.021 DT 18FF2200 Rx 8  FC 00 00 00 00 32 00 32 
    600       711.394 DT 18FECA27 Rx 8  00 FF 00 00 00 00 FF FF 
    601       713.198 DT 18F0090B Rx 8  FF FF FF 60 7D 48 7D 7D 
    602       713.489 DT 0CFF270B Rx 8  00 00 00 00 00 00 8C A9 
    603       713.775 DT 0CFF200B Rx 8  F0 00 32 FF FA 00 00 40 
    604       717.346 DT 18FEC117 Rx 8  FF FF FF FF FB E0 03 00 
    605       717.683 DT 18FEF717 Rx 8  FF FF FF FF FE 00 FF FF 
    606       718.024 DT 18FEF517 Rx 8  FF FF FF E0 24 FF FF FF 
    607       718.430 DT 18FF7117 Rx 8  FF 00 F8 FF 2C A4 02 00 
    608       718.773 DT 18D0FF17 Rx 8  14 FF FF FF FF FF FF FF 
    609       719.053 DT 0CFF6213 Rx 8  D3 7F FD 7F 00 AF 9F 63 
    610       719.345 DT 18FECA17 Rx 8  FF FF 00 00 00 00 FF FF 
    611       719.784 DT 0CFF2100 Rx 8  00 00 32 00 32 00 00 37 
    612       720.091 DT 18FF2200 Rx 8  FC 00 00 00 00 32 00 32 
    613       720.914 DT 0CF00400 Rx 8  FF FF FF 00 00 FF F6 70 
    614       721.218 DT 0CFF6600 Rx 8  00 00 8F 8A 01 00 00 FF 
    615       723.280 DT 18F0090B Rx 8  FF FF FF 60 7D 48 7D 7D 
    616       723.560 DT 0CFF200B Rx 8  F0 00 32 FF FA 00 00 51 
    617       728.685 DT 0CFF6213 Rx 8  D3 7F E9 7F 00 AF AF D1 
    618       729.719 DT 0CFF2100 Rx 8  00 00 32 00 32 00 00 58 
    619       730.026 DT 18FF2200 Rx 8  FC 00 00 00 00 32 00 32 
    620       733.176 DT 18F0090B Rx 8  FF FF FF 60 7D 48 7D 7D 
    621       733.467 DT 0CFF270B Rx 8  00 00 00 00 00 00 9C FB 
    622       733.746 DT 0CFF200B Rx 8  F0 00 32 FF FA 00 00 62 
    623       735.895 DT 18FEF127 Rx 8  F7 FF FF 0F FF FF 7F 87 
    624       736.214 DT 0C090027 Rx 8  7D FF FF FF FF FF FF FF 
    625       738.779 DT 0CFF6213 Rx 8  D3 7F F8 7F 00 AF BF D6 
    626       739.728 DT 0CFF2100 Rx 8  00 00 32 00 32 00 00 69 
    627       740.035 DT 18FF2200 Rx 8  FC 00 00 00 00 32 00 32 
    628       740.904 DT 0CF00400 Rx 8  FF FF FF 00 00 FF F6 70 
    629       741.208 DT 0CFF6600 Rx 8  00 00 8F 8A 01 00 00 FF 
    630       741.515 DT 10FF6527 Rx 8  1F 03 FC F0 FF FF FF FF 
    631       742.658 DT 18FF8627 Rx 8  F3 FF FF FF FF FF FF FF 
    632       742.943 DT 10FF6541 Rx 8  FF FF FF CF FF C3 FF FF 
    633       743.223 DT 18F0090B Rx 8  FF FF FF 60 7D 48 7D 7D 
    634       743.501 DT 0CFF200B Rx 8  F0 00 32 FF FA 00 00 73 
    635       743.799 DT 10FF6C41 Rx 8  00 FF FF FF FF FF FF FF 
    636       745.306 DT 18FEF186 Rx 8  FF FF FF F3 CC FF 8F B0 
    637       745.597 DT 0CFF8187 Rx 8  FF F3 FF FF FF FF FF FF 
    638       745.888 DT 0CFF8186 Rx 8  F3 FC FF FF FF FF FF FF 
    639       746.191 DT 10FF6586 Rx 8  FC FF FF FF FF FF FF FF 
    640       748.682 DT 0CFF6213 Rx 8  D3 7F FD 7F 00 AF CF AC 
    641       749.716 DT 0CFF2100 Rx 8  00 00 32 00 32 00 00 7A 
    642       750.023 DT 18FF2200 Rx 8  FC 00 00 00 00 32 00 32 
    643       753.270 DT 18F0090B Rx 8  FF FF FF 60 7D 48 7D 7D 
    644       753.554 DT 18F0010B Rx 8  C0 FF 3F FF FF 01 0B FC 
    645       753.840 DT 18FE4F0B Rx 8  F4 3F FF FF FF FF FF FF 
    646       754.132 DT 0CFF270B Rx 8  00 00 00 00 00 00 AC 0D 
    647       754.417 DT 18FEF10B Rx 8  3F 00 00 CF FF FF 2F DF 
    648       754.703 DT 0CFF200B Rx 8  F0 00 32 FF FA 00 00 04 
    649       758.577 DT 0CFF6213 Rx 8  D3 7F FD 7F 00 AF DF FE 
    650       759.622 DT 0CFF2100 Rx 8  00 00 32 00 32 00 00 0B 
    651       759.931 DT 18FF2200 Rx 8  FC 00 00 00 00 32 00 32 
    652       760.742 DT 0CF00400 Rx 8  FF FF FF 00 00 FF F6 70 
    653       761.051 DT 0CFF6600 Rx 8  00 00 8F 8A 01 00 00 FF 
    654       762.519 DT 10F0ED27 Rx 8  FC FF FF FF FF FF BF CA 
    655       763.119 DT 18F0090B Rx 8  FF FF FF 60 7D 48 7D 7D 
    656       763.404 DT 0CFF200B Rx 8  F0 00 32 FF FA 00 00 15 
    657       768.586 DT 0CFF6213 Rx 8  D3 7F 06 80 00 AF EF E4 
    658       768.871 DT 18FF6913 Rx 8  02 7D FE 7C DE 7F FF FF 
    659       769.632 DT 0CFF2100 Rx 8  00 00 32 00 32 00 00 1C 
    660       769.945 DT 18FF2200 Rx 8  FC 00 00 00 00 32 00 32 
    661       771.522 DT 18FEF100 Rx 8  FF FF FF 0C FF 00 F0 FF 
    662       771.813 DT 10FF6500 Rx 8  FF FF FF FF 3F FC FF FF 
    663       772.104 DT 18FEF200 Rx 8  00 00 00 00 99 14 19 FF 
    664       772.413 DT 18FF6D00 Rx 8  31 FF 31 FF FF FF FF FF 
    665       773.167 DT 18F0090B Rx 8  FF FF FF 60 7D 48 7D 7D 
    666       773.457 DT 0CFF270B Rx 8  00 00 00 00 00 00 BC 5F 
    667       773.737 DT 0CFF200B Rx 8  F0 00 32 FF FA 00 00 26 
    668       778.598 DT 0CFF6213 Rx 8  D3 7F FD 7F 00 AF FF 5A 
    669       779.616 DT 0CFF2100 Rx 8  00 00 32 00 32 00 00 2D 
    670       779.923 DT 18FF2200 Rx 8  FC 00 00 00 00 32 00 32 
    671       780.792 DT 0CF00400 Rx 8  FF FF FF 00 00 FF F6 70 
    672       781.096 DT 0CFF6600 Rx 8  00 00 8F 8A 01 00 00 FF 
    673       782.501 DT 18F00141 Rx 8  FF FF 3C FF FF FF FF FF 
    674       783.089 DT 18F0090B Rx 8  FF FF FF 60 7D 48 7D 7D 
    675       783.375 DT 0CFF200B Rx 8  F0 00 32 FF FA 00 00 47 
    676       788.595 DT 0CFF6213 Rx 8  D3 7F FD 7F 00 AF 0F DE 
    677       789.618 DT 0CFF2100 Rx 8  00 00 32 00 32 00 00 3E 
    678       789.926 DT 18FF2200 Rx 8  FC 00 00 00 00 32 00 32 
    679       793.172 DT 18F0090B Rx 8  FF FF FF 60 7D 48 7D 7D 
    680       793.457 DT 0CFF270B Rx 8  00 00 00 00 00 00 CC 34 
    681       793.742 DT 0CFF200B Rx 8  F0 00 32 FF FA 00 00 58 
    682       798.599 DT 0CFF6213 Rx 8  D3 7F 06 80 00 AF 1F 60 
    683       799.615 DT 0CFF2100 Rx 8  00 00 32 00 32 00 00 4F 
    684       799.917 DT 18FF2200 Rx 8  FC 00 00 00 00 32 00 32 
    685       800.752 DT 0CF00400 Rx 8  FF FF FF 00 00 FF F6 70 
    686       801.055 DT 0CFF6600 Rx 8  00 00 8F 8A 01 00 00 FF 
    687       802.660 DT 1CFF6A41 Rx 8  FF FF FF FF FF FF C0 FF 
    688       803.071 DT 18F0090B Rx 8  FF FF FF 60 7D 48 7D 7D 
    689       803.357 DT 0CFF200B Rx 8  F0 00 32 FF FA 00 00 69 
    690       808.613 DT 0CFF6213 Rx 8  D3 7F 01 80 00 AF 2F 3E 
    691       809.619 DT 0CFF2100 Rx 8  00 00 32 00 32 00 00 40 
    692       809.926 DT 18FF2200 Rx 8  FC 00 00 00 00 32 00 32 
    693       813.006 DT 18F0090B Rx 8  FF FF FF 60 7D 48 7D 7D 
    694       813.297 DT 0CFF270B Rx 8  00 00 00 00 00 00 DC 66 
    695       813.576 DT 0CFF200B Rx 8  F0 00 32 FF FA 00 00 7A 
    696       818.604 DT 0CFF6213 Rx 8  D3 7F 06 80 00 AF 3F C4 
    697       819.627 DT 0CFF2100 Rx 8  00 00 32 00 32 00 00 51 
    698       819.929 DT 18FF2200 Rx 8  FC 00 00 00 00 32 00 32 
    699       820.792 DT 0CF00400 Rx 8  FF FF FF 00 00 FF F6 70 
    700       821.100 DT 0CFF6600 Rx 8  00 00 8F 8A 01 00 00 FF 
    701       823.162 DT 18F0090B Rx 8  FF FF FF 60 7D 48 7D 7D 
    702       823.448 DT 0CFF200B Rx 8  F0 00 32 FF FA 00 00 0B 
    703       828.612 DT 0CFF6213 Rx 8  D3 7F E9 7F 00 AF 4F 07 
    704       829.617 DT 0CFF2100 Rx 8  00 00 32 00 32 00 00 62 
    705       829.925 DT 18FF2200 Rx 8  FC 00 00 00 00 32 00 32 
    706       833.115 DT 18F0090B Rx 8  FF FF FF 60 7D 48 7D 7D 
    707       833.400 DT 0CFF270B Rx 8  00 00 00 00 00 00 EC 90 
    708       833.685 DT 0CFF200B Rx 8  F0 00 32 FF FA 00 00 1C 
    709       835.787 DT 18FEF127 Rx 8  F7 FF FF 0F FF FF 8F 77 
    710       836.108 DT 0C090027 Rx 8  7D FF FF FF FF FF FF FF 
    711       838.650 DT 0CFF6213 Rx 8  D3 7F F3 7F 00 AF 5F 94 
    712       839.627 DT 0CFF2100 Rx 8  00 00 32 00 32 00 00 73 
    713       839.934 DT 18FF2200 Rx 8  FC 00 00 00 00 32 00 32 
    714       840.751 DT 0CF00400 Rx 8  FF FF FF 00 00 FF F6 70 
    715       841.061 DT 0CFF6600 Rx 8  00 00 8F 8A 01 00 00 FF 
    716       842.488 DT 18FF8627 Rx 8  F3 FF FF FF FF FF FF FF 
    717       843.094 DT 18F0090B Rx 8  FF FF FF 60 7D 48 7D 7D 
    718       843.379 DT 0CFF200B Rx 8  F0 00 32 FF FA 00 00 2D 
    719       845.208 DT 18FEF186 Rx 8  FF FF FF F3 CC FF 9F A0 
    720       845.499 DT 0CFF8187 Rx 8  FF F3 FF FF FF FF FF FF 
    721       845.790 DT 0CFF8186 Rx 8  F3 FC FF FF FF FF FF FF 
    722       848.611 DT 0CFF6213 Rx 8  D3 7F E9 7F 00 AF 6F A3 
    723       849.629 DT 0CFF2100 Rx 8  00 00 32 00 32 00 00 04 
    724       849.931 DT 18FF2200 Rx 8  FC 00 00 00 00 32 00 32 
    725       853.074 DT 18F0090B Rx 8  FF FF FF 60 7D 48 7D 7D 
    726       853.359 DT 18F0010B Rx 8  C0 FF 3F FF FF 01 0B FC 
    727       853.644 DT 18FE4F0B Rx 8  F4 3F FF FF FF FF FF FF 
    728       853.930 DT 0CFF270B Rx 8  00 00 00 00 00 00 FC C2 
    729       854.222 DT 18FEF10B Rx 8  3F 00 00 CF FF FF 3F CF 
    730       854.501 DT 0CFF200B Rx 8  F0 00 32 FF FA 00 00 3E 
    731       858.746 DT 0CFF6213 Rx 8  D3 7F F8 7F 00 AF 7F A4 
    732       859.620 DT 0CFF2100 Rx 8  00 00 32 00 32 00 00 15 
    733       859.928 DT 18FF2200 Rx 8  FC 00 00 00 00 32 00 32 
    734       860.797 DT 0CF00400 Rx 8  FF FF FF 00 00 FF F6 70 
    735       861.100 DT 0CFF6600 Rx 8  00 00 8F 8A 01 00 00 FF 
    736       863.185 DT 18F0090B Rx 8  FF FF FF 60 7D 48 7D 7D 
    737       863.470 DT 0CFF200B Rx 8  F0 00 32 FF FA 00 00 5F 
    738       868.624 DT 0CFF6213 Rx 8  D3 7F 10 80 00 AF 8F 20 
    739       868.909 DT 18FF6913 Rx 8  02 7D FF 7C FB 7F FF FF 
    740       869.629 DT 0CFF2100 Rx 8  00 00 32 00 32 00 00 26 
    741       869.936 DT 18FF2200 Rx 8  FC 00 00 00 00 32 00 32 
    742       871.325 DT 18FEF100 Rx 8  FF FF FF 0C FF 00 F0 FF 
    743       871.634 DT 18FEF200 Rx 8  00 00 00 00 99 14 19 FF 
    744       871.936 DT 18FF6D00 Rx 8  31 FF 31 FF FF FF FF FF 
    745       873.123 DT 18F0090B Rx 8  FF FF FF 60 7D 48 7D 7D 
    746       873.409 DT 0CFF270B Rx 8  00 00 00 00 00 00 0C 46 
    747       873.694 DT 0CFF200B Rx 8  F0 00 32 FF FA 00 00 40 
    748       878.670 DT 0CFF6213 Rx 8  D3 7F FD 7F 00 AF 9F 63 
    749       879.624 DT 0CFF2100 Rx 8  00 00 32 00 32 00 00 37 
    750       879.932 DT 18FF2200 Rx 8  FC 00 00 00 00 32 00 32 
    751       880.749 DT 0CF00400 Rx 8  FF FF FF 00 00 FF F6 70 
    752       881.058 DT 0CFF6600 Rx 8  00 00 8F 8A 01 00 00 FF 
    753       883.013 DT 18F00141 Rx 8  FF FF 3C FF FF FF FF FF 
    754       883.293 DT 18F0090B Rx 8  FF FF FF 60 7D 48 7D 7D 
    755       883.572 DT 0CFF200B Rx 8  F0 00 32 FF FA 00 00 51 
    756       883.868 DT 19FF1741 Rx 8  FF FF FF FF FF FF FF FF 
    757       888.605 DT 0CFF6213 Rx 8  D3 7F F3 7F 00 AF AF 10 
    758       889.616 DT 0CFF2100 Rx 8  00 00 32 00 32 00 00 58 
    759       889.924 DT 18FF2200 Rx 8  FC 00 00 00 00 32 00 32 
    760       893.153 DT 18F0090B Rx 8  FF FF FF 60 7D 48 7D 7D 
    761       893.444 DT 0CFF270B Rx 8  00 00 00 00 00 00 1C 14 
    762       893.724 DT 0CFF200B Rx 8  F0 00 32 FF FA 00 00 62 
    763       895.186 DT 18FECA86 Rx 8  00 FF 00 00 00 00 FF FF 
    764       895.477 DT 18FECA87 Rx 8  00 FF 00 00 00 00 FF FF 
    765       898.745 DT 0CFF6213 Rx 8  D3 7F 0B 80 00 AF BF A1 
    766       899.624 DT 0CFF2100 Rx 8  00 00 32 00 32 00 00 69 
    767       899.926 DT 18FF2200 Rx 8  FC 00 00 00 00 32 00 32 
    768       900.800 DT 0CF00400 Rx 8  FF FF FF 00 00 FF F6 70 
    769       901.104 DT 0CFF6600 Rx 8  00 00 8F 8A 01 00 00 FF 
    770       903.109 DT 18F0090B Rx 8  FF FF FF 60 7D 48 7D 7D 
    771       903.395 DT 0CFF200B Rx 8  F0 00 32 FF FA 00 00 73 
    772       908.604 DT 0CFF6213 Rx 8  D3 7F FD 7F 00 AF CF AC 
    773       909.627 DT 0CFF2100 Rx 8  00 00 32 00 32 00 00 7A 
    774       909.929 DT 18FF2200 Rx 8  FC 00 00 00 00 32 00 32 
    775       913.096 DT 18F0090B Rx 8  FF FF FF 60 7D 48 7D 7D 
    776       913.380 DT 0CFF270B Rx 8  00 00 00 00 00 00 2C E2 
    777       913.666 DT 0CFF200B Rx 8  F0 00 32 FF FA 00 00 04 
    778       918.664 DT 0CFF6213 Rx 8  D3 7F F3 7F 00 AF DF 7B 
    779       919.623 DT 0CFF2100 Rx 8  00 00 32 00 32 00 00 0B 
    780       919.932 DT 18FF2200 Rx 8  FC 00 00 00 00 32 00 32 
    781       920.749 DT 0CF00400 Rx 8  FF FF FF 00 00 FF F6 70 
    782       921.057 DT 0CFF6600 Rx 8  00 00 8F 8A 01 00 00 FF 
    783       923.085 DT 18F0090B Rx 8  FF FF FF 60 7D 48 7D 7D 
    784       923.371 DT 0CFF200B Rx 8  F0 00 32 FF FA 00 00 15 
    785       928.615 DT 0CFF6213 Rx 8  D3 7F F3 7F 00 AF EF 8D 
    786       929.621 DT 0CFF2100 Rx 8  00 00 32 00 32 00 00 1C 
    787       929.929 DT 18FF2200 Rx 8  FC 00 00 00 00 32 00 32 
    788       933.159 DT 18F0090B Rx 8  FF FF FF 60 7D 10 7D 7D 
    789       933.450 DT 0CFF270B Rx 8  00 00 00 00 00 00 3C B0 
    790       933.736 DT 0CFF200B Rx 8  F0 00 32 FF FA 00 00 26 
    791       935.787 DT 18FEF127 Rx 8  F7 FF FF 0F FF FF 9F 67 
    792       936.107 DT 0C090027 Rx 8  7D FF FF FF FF FF FF FF 
    793       938.609 DT 0CFF6213 Rx 8  D3 7F F3 7F 00 AF FF DF 
    794       939.621 DT 0CFF2100 Rx 8  00 00 32 00 32 00 00 2D 
    795       939.928 DT 18FF2200 Rx 8  FC 00 00 00 00 32 00 32 
    796       940.791 DT 0CF00400 Rx 8  FF FF FF 00 00 FF F6 70 
    797       941.100 DT 0CFF6600 Rx 8  00 00 8F 8A 01 00 00 FF 
    798       941.403 DT 10FF6527 Rx 8  1F 03 FC F0 FF FF FF FF 
    799       942.544 DT 18FF8627 Rx 8  F3 FF FF FF FF FF FF FF 
    800       942.830 DT 10FF6541 Rx 8  FF FF FF CF FF C3 FF FF 
    801       943.115 DT 18F0090B Rx 8  FF FF FF 60 7D 10 7D 7D 
    802       943.401 DT 0CFF200B Rx 8  F0 00 32 FF FA 00 00 47 
    803       943.692 DT 10FF6C41 Rx 8  00 FF FF FF FF FF FF FF 
    804       945.207 DT 18FEF186 Rx 8  FF FF FF F3 CC FF AF 90 
    805       945.491 DT 10FF6487 Rx 8  F0 FF FF FF FF C0 FF FF 
    806       945.782 DT 0CFF8186 Rx 8  F3 FC FF FF FF FF FF FF 
    807       946.074 DT 0CFF8187 Rx 8  FF F3 FF FF FF FF FF FF 
    808       946.364 DT 10FF6586 Rx 8  FC FF FF FF FF FF FF FF 
    809       948.696 DT 0CFF6213 Rx 8  D3 7F FD 7F 00 AF 0F DE 
    810       949.621 DT 0CFF2100 Rx 8  00 00 32 00 32 00 00 3E 
    811       949.929 DT 18FF2200 Rx 8  FC 00 00 00 00 32 00 32 
    812       953.010 DT 18F0090B Rx 8  FF FF FF 60 7D 48 7D 7D 
    813       953.294 DT 18F0010B Rx 8  C0 FF 3F FF FF 01 0B FC 
    814       953.580 DT 18FE4F0B Rx 8  F4 3F FF FF FF FF FF FF 
    815       953.864 DT 0CFF270B Rx 8  00 00 00 00 00 00 4C DB 
    816       954.151 DT 18FEF10B Rx 8  3F 00 00 CF FF FF 4F BF 
    817       954.436 DT 0CFF200B Rx 8  F0 00 32 FF FA 00 00 58 
    818       958.617 DT 0CFF6213 Rx 8  D3 7F FD 7F 00 AF 1F 8C 
    819       959.622 DT 0CFF2100 Rx 8  00 00 32 00 32 00 00 4F 
    820       959.931 DT 18FF2200 Rx 8  FC 00 00 00 00 32 00 32 
    821       960.684 DT 0CF00400 Rx 8  FF FF FF 00 00 FF F6 70 
    822       960.993 DT 0CFF6600 Rx 8  00 00 8F 8A 01 00 00 FF 
    823       963.170 DT 18F0090B Rx 8  FF FF FF 60 7D 48 7D 7D 
    824       963.455 DT 0CFF200B Rx 8  F0 00 32 FF FA 00 00 69 
    825       968.689 DT 0CFF6213 Rx 8  D3 7F 06 80 00 AF 2F 96 
    826       968.973 DT 18FF6913 Rx 8  02 7D FE 7C DE 7F FF FF 
    827       969.642 DT 0CFF2100 Rx 8  00 00 32 00 32 00 00 40 
    828       969.955 DT 18FF2200 Rx 8  FC 00 00 00 00 32 00 32 
    829       971.515 DT 18FEF100 Rx 8  FF FF FF 0C FF 00 F0 FF 
    830       971.812 DT 10FF6500 Rx 8  FF FF FF FF 3F FC FF FF 
    831       972.098 DT 18FEF200 Rx 8  00 00 00 00 99 14 19 FF 
    832       972.406 DT 18FF6D00 Rx 8  31 FF 31 FF FF FF FF FF 
    833       973.166 DT 18F0090B Rx 8  FF FF FF 60 7D 48 7D 7D 
    834       973.451 DT 0CFF270B Rx 8  00 00 00 00 00 00 5C 89 
    835       973.737 DT 0CFF200B Rx 8  F0 00 32 FF FA 00 00 7A 
    836       978.610 DT 0CFF6213 Rx 8  D3 7F 06 80 00 AF 3F C4 
    837       979.627 DT 0CFF2100 Rx 8  00 00 32 00 32 00 00 51 
    838       979.935 DT 18FF2200 Rx 8  FC 00 00 00 00 32 00 32 
    839       980.798 DT 0CF00400 Rx 8  FF FF FF 00 00 FF F6 70 
    840       981.106 DT 0CFF6600 Rx 8  00 00 8F 8A 01 00 00 FF 
    841       983.078 DT 18F0090B Rx 8  FF FF FF 60 7D 48 7D 7D 
    842       983.364 DT 0CFF200B Rx 8  F0 00 32 FF FA 00 00 0B 
    843       988.694 DT 0CFF6213 Rx 8  D3 7F 0B 80 00 AF 4F 25 
    844       989.626 DT 0CFF2100 Rx 8  00 00 32 00 32 00 00 62 
    845       989.928 DT 18FF2200 Rx 8  FC 00 00 00 00 32 00 32 
    846       993.071 DT 18F0090B Rx 8  FF FF FF 60 7D 48 7D 7D 
    847       993.356 DT 0CFF270B Rx 8  00 00 00 00 00 00 6C 7F 
    848       993.641 DT 0CFF200B Rx 8  F0 00 32 FF FA 00 00 1C 
    849       998.600 DT 0CFF6213 Rx 8  D3 7F FD 7F 00 AF 5F 11 
    850       999.634 DT 0CFF2100 Rx 8  00 00 32 00 32 00 00 73 
    851       999.937 DT 18FF2200 Rx 8  FC 00 00 00 00 32 00 32 
    852      1000.765 DT 0CF00400 Rx 8  FF FF FF 00 00 FF F6 70 
    853      1001.074 DT 0CFF6600 Rx 8  00 00 8F 8A 01 00 00 FF 
    854      1002.490 DT 18F00141 Rx 8  FF FF 3C FF FF FF FF FF 
    855      1003.158 DT 18F0090B Rx 8  FF FF FF 60 7D 48 7D 7D 
    856      1003.438 DT 0CFF200B Rx 8  F0 00 32 FF FA 00 00 2D 
    857      1008.659 DT 0CFF6213 Rx 8  D3 7F E9 7F 00 AF 6F A3 
    858      1009.643 DT 0CFF2100 Rx 8  00 00 32 00 32 00 00 04 
    859      1009.957 DT 18FF2200 Rx 8  FC 00 00 01 00 32 00 32 
    860      1011.186 DT 10F0ED27 Rx 8  FC FF FF FF FF FF CF DA 
    861      1013.070 DT 18F0090B Rx 8  FF FF FF 60 7D 48 7D 7D 
    862      1013.368 DT 0CFF270B Rx 8  00 00 00 00 00 00 7C 2D 
    863      1013.647 DT 0CFF200B Rx 8  F0 00 32 FF FA 00 00 3E 
    864      1018.612 DT 0CFF6213 Rx 8  D3 7F EE 7F 00 AF 7F 59 
    865      1019.640 DT 0CFF2100 Rx 8  00 00 32 00 32 00 00 15 
    866      1019.954 DT 18FF2200 Rx 8  FC 00 00 02 00 32 00 32 
    867      1020.839 DT 0CF00400 Rx 8  FF FF FF 00 00 FF F6 70 
    868      1021.149 DT 0CFF6600 Rx 8  00 00 8F 8A 01 00 00 FF 
    869      1023.010 DT 18F0090B Rx 8  FF FF FF 60 7D 48 7D 7D 
    870      1023.296 DT 0CFF200B Rx 8  F0 00 32 FF FA 00 00 5F 
    871      1028.604 DT 0CFF6213 Rx 8  D3 7F 0B 80 00 AF 8F 57 
    872      1029.631 DT 0CFF2100 Rx 8  00 00 32 00 32 00 00 26 
    873      1029.940 DT 18FF2200 Rx 8  FC 00 00 07 00 32 00 32 
    874      1033.158 DT 18F0090B Rx 8  FF FF FF 60 7D 48 7D 7D 
    875      1033.449 DT 0CFF270B Rx 8  00 00 00 00 00 00 8C A9 
    876      1033.734 DT 0CFF200B Rx 8  F0 00 32 FF FA 00 00 40 
    877      1035.780 DT 18FEF127 Rx 8  F7 FF FF 0F FF FF AF 57 
    878      1036.099 DT 0C090027 Rx 8  7D FF FF FF FF FF FF FF 
    879      1038.602 DT 0CFF6213 Rx 8  D3 7F FD 7F 00 AF 9F 63 
    880      1039.636 DT 0CFF2100 Rx 8  00 00 32 00 32 00 00 37 
    881      1039.938 DT 18FF2200 Rx 8  FC 00 00 0B 00 32 00 32 
    882      1040.783 DT 0CF00400 Rx 8  FF FF FF 00 00 FF F6 70 
    883      1041.087 DT 0CFF6600 Rx 8  00 00 8F 8A 01 00 00 FF 
    884      1042.093 DT 1CFF6A27 Rx 8  3F 9C FF F3 FF FF FF FF 
    885      1042.406 DT 18FF8627 Rx 8  F3 FF FF FF FF FF FF FF 
    886      1043.086 DT 18F0090B Rx 8  FF FF FF 60 7D 48 7D 7D 
    887      1043.371 DT 0CFF200B Rx 8  F0 00 32 FF FA 00 00 51 
    888      1045.204 DT 18FEF186 Rx 8  FF FF FF F3 CC FF BF 80 
    889      1045.501 DT 0CFF8187 Rx 8  FF F3 FF FF FF FF FF FF 
    890      1045.792 DT 0CFF8186 Rx 8  F3 FC FF FF FF FF FF FF 
    891      1048.614 DT 0CFF6213 Rx 8  D3 7F E9 7F 00 AF AF D1 
    892      1049.631 DT 0CFF2100 Rx 8  00 00 32 00 32 00 00 58 
    893      1049.934 DT 18FF2200 Rx 8  FC 00 00 0C 00 32 00 32 
    894      1053.083 DT 18F0090B Rx 8  FF FF FF 60 7D 48 7D 7D 
    895      1053.367 DT 18F0010B Rx 8  C0 FF 3F FF FF 01 0B FC 
    896      1053.653 DT 18FE4F0B Rx 8  F4 3F FF FF FF FF FF FF 
    897      1053.944 DT 0CFF270B Rx 8  00 00 00 00 00 00 9C FB 
    898      1054.225 DT 18FEF10B Rx 8  3F 00 00 CF FF FF 5F AF 
    899      1054.509 DT 0CFF200B Rx 8  F0 00 32 FF FA 00 00 62 
    900      1058.555 DT 0CFF6213 Rx 8  D3 7F 0B 80 00 AF BF A1 
    901      1059.634 DT 0CFF2100 Rx 8  00 00 32 00 32 00 00 69 
    902      1059.937 DT 18FF2200 Rx 8  FC 00 00 0F 00 32 00 32 
    903      1060.834 DT 0CF00400 Rx 8  FF FF FF 00 00 FF F6 70 
    904      1061.142 DT 0CFF6600 Rx 8  00 00 8F 8A 01 00 00 FF 
    905      1063.085 DT 18F0090B Rx 8  FF FF FF 60 7D 48 7D 7D 
    906      1063.365 DT 0CFF200B Rx 8  F0 00 32 FF FA 00 00 73 
    907      1068.546 DT 0CFF6213 Rx 8  D3 7F 0B 80 00 AF CF CA 
    908      1068.837 DT 18FF6913 Rx 8  02 7D 00 7D FF 7F FF FF 
    909      1069.654 DT 0CFF2100 Rx 8  00 00 32 00 32 00 00 7A 
    910      1069.962 DT 18FF2200 Rx 8  FC 00 00 10 00 32 00 32 
    911      1071.460 DT 18FEF100 Rx 8  FF FF FF 0C FF 00 F0 FF 
    912      1071.767 DT 18FEF200 Rx 8  00 00 00 00 99 14 19 FF 
    913      1072.070 DT 18FF6D00 Rx 8  31 FF 31 FF FF FF FF FF 
    914      1073.259 DT 18F0090B Rx 8  FF FF FF 60 7D 48 7D 7D 
    915      1073.543 DT 0CFF270B Rx 8  00 00 00 00 00 00 AC 0D 
    916      1073.834 DT 0CFF200B Rx 8  F0 00 32 FF FA 00 00 04 
    917      1078.616 DT 0CFF6213 Rx 8  D3 7F 01 80 00 AF DF BA 
    918      1079.639 DT 0CFF2100 Rx 8  00 00 32 00 32 00 00 0B 
    919      1079.952 DT 18FF2200 Rx 8  FC 00 00 13 00 32 00 32 
    920      1080.780 DT 0CF00400 Rx 8  FF FF FF 00 00 FF F6 70 
    921      1081.090 DT 0CFF6600 Rx 8  00 00 8F 8A 01 00 00 FF 
    922      1083.062 DT 18F0090B Rx 8  FF FF FF 60 7D 48 7D 7D 
    923      1083.341 DT 0CFF200B Rx 8  F0 00 32 FF FA 00 00 15 
    924      1088.550 DT 0CFF6213 Rx 8  D3 7F 06 80 00 AF EF E4 
    925      1089.636 DT 0CFF2100 Rx 8  00 00 32 00 32 00 00 1C 
    926      1089.938 DT 18FF2200 Rx 8  FC 00 00 14 00 32 00 32 
    927      1093.001 DT 18F0090B Rx 8  FF FF FF 60 7D 48 7D 7D 
    928      1093.291 DT 0CFF270B Rx 8  00 00 00 00 00 00 BC 5F 
    929      1093.571 DT 0CFF200B Rx 8  F0 00 32 FF FA 00 00 26 
    930      1098.553 DT 0CFF6213 Rx 8  D3 7F 06 80 00 AF FF B6 
    931      1099.633 DT 0CFF2100 Rx 8  00 00 32 00 32 00 00 2D 
    932      1099.935 DT 18FF2200 Rx 8  FC 00 00 18 00 32 00 32 
    933      1100.837 DT 0CF00400 Rx 8  FF FF FF 00 00 FF F6 70 
    934      1101.147 DT 0CFF6600 Rx 8  00 00 8F 8A 01 00 00 FF 
    935      1102.763 DT 18F00141 Rx 8  FF FF 3C FF FF FF FF FF 
    936      1103.158 DT 18F0090B Rx 8  FF FF FF 60 7D 48 7D 7D 
    937      1103.442 DT 0CFF200B Rx 8  F0 00 32 FF FA 00 00 47 
    938      1108.631 DT 0CFF6213 Rx 8  D3 7F 0B 80 00 AF 0F B8 
    939      1109.635 DT 0CFF2100 Rx 8  00 00 32 00 32 00 00 3E 
    940      1109.944 DT 18FF2200 Rx 8  FC 00 00 1C 00 32 00 32 
    941      1113.093 DT 18F0090B Rx 8  FF FF FF 60 7D 48 7D 7D 
    942      1113.377 DT 0CFF270B Rx 8  00 00 00 00 00 00 CC 34 
    943      1113.663 DT 0CFF200B Rx 8  F0 00 32 FF FA 00 00 58 
    944      1118.549 DT 0CFF6213 Rx 8  D3 7F FD 7F 00 AF 1F 8C 
    945      1119.633 DT 0CFF2100 Rx 8  00 00 32 00 32 00 00 4F 
    946      1119.942 DT 18FF2200 Rx 8  FC 00 00 1F 00 32 00 32 
    947      1120.782 DT 0CF00400 Rx 8  FF FF FF 00 00 FF F6 70 
    948      1121.085 DT 0CFF6600 Rx 8  00 00 8F 8A 01 00 00 FF 
    949      1123.073 DT 18F0090B Rx 8  FF FF FF 60 7D 48 7D 7D 
    950      1123.359 DT 0CFF200B Rx 8  F0 00 32 FF FA 00 00 69 
    951      1128.655 DT 0CFF6213 Rx 8  D3 7F F3 7F 00 AF 2F FF 
    952      1129.631 DT 0CFF2100 Rx 8  00 00 32 00 32 00 00 40 
    953      1129.939 DT 18FF2200 Rx 8  FC 00 00 20 00 32 00 32 
    954      1133.065 DT 18F0090B Rx 8  FF FF FF 60 7D 48 7D 7D 
    955      1133.351 DT 0CFF270B Rx 8  00 00 00 00 00 00 DC 66 
    956      1133.631 DT 0CFF200B Rx 8  F0 00 32 FF FA 00 00 7A 
    957      1135.778 DT 18FEF127 Rx 8  F7 FF FF 0F FF FF BF 47 
    958      1136.099 DT 0C090027 Rx 8  7D FF FF FF FF FF FF FF 
    959      1138.566 DT 0CFF6213 Rx 8  D3 7F 01 80 00 AF 3F 6C 
    960      1139.634 DT 0CFF2100 Rx 8  00 00 32 00 32 00 00 51 
    961      1139.936 DT 18FF2200 Rx 8  FC 00 00 23 00 32 00 32 
    962      1140.833 DT 0CF00400 Rx 8  FF FF FF 00 00 FF F6 70 
    963      1141.136 DT 0CFF6600 Rx 8  00 00 8F 8A 01 00 00 FF 
    964      1141.427 DT 10FF6527 Rx 8  1F 03 FC F0 FF FF FF FF 
    965      1142.170 DT 18FF8627 Rx 8  F3 FF FF FF FF FF FF FF 
    966      1142.735 DT 10FF6541 Rx 8  FF FF FF CF FF C3 FF FF 
    967      1143.066 DT 10FF6C41 Rx 8  00 FF FF FF FF FF FF FF 
    968      1143.352 DT 18F0090B Rx 8  FF FF FF 60 7D 48 7D 7D 
    969      1143.632 DT 0CFF200B Rx 8  F0 00 32 FF FA 00 00 0B 
    970      1145.203 DT 18FEF186 Rx 8  FF FF FF F3 CC FF CF F0 
    971      1145.499 DT 0CFF8187 Rx 8  FF F3 FF FF FF FF FF FF 
    972      1145.790 DT 0CFF8186 Rx 8  F3 FC FF FF FF FF FF FF 
    973      1146.093 DT 10FF6586 Rx 8  FC FF FF FF FF FF FF FF 
    974      1148.692 DT 0CFF6213 Rx 8  D3 7F EE 7F 00 AF 4F AF 
    975      1149.641 DT 0CFF2100 Rx 8  00 00 32 00 32 00 00 62 
    976      1149.955 DT 18FF2200 Rx 8  FC 00 00 24 00 32 00 32 
    977      1153.047 DT 18F0090B Rx 8  FF FF FF 60 7D 48 7D 7D 
    978      1153.331 DT 18F0010B Rx 8  C0 FF 3F FF FF 01 0B FC 
    979      1153.617 DT 18FE4F0B Rx 8  F4 3F FF FF FF FF FF FF 
    980      1153.901 DT 0CFF270B Rx 8  00 00 00 00 00 00 EC 90 
    981      1154.193 DT 18FEF10B Rx 8  3F 00 00 CF FF FF 6F 9F 
    982      1154.479 DT 0CFF200B Rx 8  F0 00 32 FF FA 00 00 1C 
    983      1158.564 DT 0CFF6213 Rx 8  D3 7F F3 7F 00 AF 5F 94 
    984      1159.637 DT 0CFF2100 Rx 8  00 00 32 00 32 00 00 73 
    985      1159.951 DT 18FF2200 Rx 8  FC 00 00 28 00 32 00 32 
    986      1160.786 DT 0CF00400 Rx 8  FF FF FF 00 00 FF F6 70 
    987      1161.094 DT 0CFF6600 Rx 8  00 00 8F 8A 01 00 00 FF 
    988      1163.003 DT 18F0090B Rx 8  FF FF FF 60 7D 48 7D 7D 
    989      1163.287 DT 0CFF200B Rx 8  F0 00 32 FF FA 00 00 2D 
    990      1168.715 DT 0CFF6213 Rx 8  D3 7F 06 80 00 AF 6F 0B 
    991      1168.995 DT 18FF6913 Rx 8  02 7D FC 7C C7 7F FF FF 
    992      1169.657 DT 0CFF2100 Rx 8  00 00 32 00 32 00 00 04 
    993      1169.965 DT 18FF2200 Rx 8  FC 00 00 28 00 32 00 32 
    994      1171.548 DT 18FEF100 Rx 8  FF FF FF 0C FF 00 F0 FF 
    995      1171.839 DT 10FF6500 Rx 8  FF FF FF FF 3F FC FF FF 
    996      1172.125 DT 18FEF200 Rx 8  00 00 00 00 99 14 2B FF 
    997      1172.433 DT 18FF6D00 Rx 8  31 FF 31 FF FF FF FF FF 
    998      1173.267 DT 18F0090B Rx 8  FF FF FF 60 7D 48 7D 7D 
    999      1173.553 DT 0CFF270B Rx 8  00 00 00 00 00 00 FC C2 
   1000      1173.836 DT 0CFF200B Rx 8  F0 00 32 FF FA 00 00 3E 
   1001      1178.573 DT 0CFF6213 Rx 8  D3 7F F3 7F 00 AF 7F 30 
   1002      1179.641 DT 0CFF2100 Rx 8  00 00 32 00 32 00 00 15 
   1003      1179.954 DT 18FF2200 Rx 8  FC 00 00 2E 00 32 00 32 
   1004      1180.835 DT 0CF00400 Rx 8  FF FF FF 00 00 FF F6 70 
   1005      1181.138 DT 0CFF6600 Rx 8  00 00 8F 8A 01 00 00 FF 
   1006      1183.099 DT 18F0090B Rx 8  FF FF FF 60 7D 48 7D 7D 
   1007      1183.378 DT 0CFF200B Rx 8  F0 00 32 FF FA 00 00 5F 
   1008      1188.713 DT 0CFF6213 Rx 8  D3 7F 06 80 00 AF 8F DD 
   1009      1189.633 DT 0CFF2100 Rx 8  00 00 32 00 32 00 00 26 
   1010      1189.942 DT 18FF2200 Rx 8  FC 00 00 31 00 32 00 32 
   1011      1193.068 DT 18F0090B Rx 8  FF FF FF 60 7D 48 7D 7D 
   1012      1193.359 DT 0CFF270B Rx 8  00 00 00 00 00 00 0C 46 
   1013      1193.643 DT 0CFF200B Rx 8  F0 00 32 FF FA 00 00 40 
   1014      1198.597 DT 0CFF6213 Rx 8  D3 7F E4 7F 00 AF 9F AD 
   1015      1199.631 DT 0CFF2100 Rx 8  00 00 32 00 32 00 00 37 
   1016      1199.939 DT 18FF2200 Rx 8  FC 00 00 34 00 32 00 32 
   1017      1200.779 DT 0CF00400 Rx 8  FF FF FF 00 00 FF F6 70 
   1018      1201.088 DT 0CFF6600 Rx 8  00 00 8F 8A 01 00 00 FF 
   1019      1202.699 DT 18F00141 Rx 8  FF FF 3C FF FF FF FF FF 
   1020      1203.059 DT 18F0090B Rx 8  FF FF FF 60 7D 48 7D 7D 
   1021      1203.339 DT 0CFF200B Rx 8  F0 00 32 FF FA 00 00 51 
   1022      1208.742 DT 0CFF6213 Rx 8  D3 7F FD 7F 00 AF AF 95 
   1023      1209.634 DT 0CFF2100 Rx 8  00 00 32 00 32 00 00 58 
   1024      1209.941 DT 18FF2200 Rx 8  FC 00 00 37 00 32 00 32 
   1025      1213.154 DT 18F0090B Rx 8  FF FF FF 60 7D 48 7D 7D 
   1026      1213.445 DT 0CFF270B Rx 8  00 00 00 00 00 00 1C 14 
   1027      1213.724 DT 0CFF200B Rx 8  F0 00 32 FF FA 00 00 62 
   1028      1218.723 DT 0CFF6213 Rx 8  D3 7F FD 7F 00 AF BF C7 
   1029      1219.631 DT 0CFF2100 Rx 8  00 00 32 00 32 00 00 69 
   1030      1219.934 DT 18FF2200 Rx 8  FC 00 00 39 00 32 00 32 
   1031      1220.824 DT 0CF00400 Rx 8  FF FF FF 00 00 FF F6 70 
   1032      1221.134 DT 0CFF6600 Rx 8  00 00 8F 8A 01 00 00 FF 
   1033      1223.064 DT 18F0090B Rx 8  FF FF FF 60 7D 48 7D 7D 
   1034      1223.344 DT 0CFF200B Rx 8  F0 00 32 FF FA 00 00 73 
   1035      1228.760 DT 0CFF6213 Rx 8  D3 7F F3 7F 00 AF CF 29 
   1036      1229.639 DT 0CFF2100 Rx 8  00 00 32 00 32 00 00 7A 
   1037      1229.953 DT 18FF2200 Rx 8  FC 00 00 3C 00 32 00 32 
   1038      1232.999 DT 18F0090B Rx 8  FF FF FF 60 7D 48 7D 7D 
   1039      1233.285 DT 0CFF270B Rx 8  00 00 00 00 00 00 2C E2 
   1040      1233.570 DT 0CFF200B Rx 8  F0 00 32 FF FA 00 00 04 
   1041      1235.775 DT 18FEF127 Rx 8  F7 FF FF 0F FF FF CF 37 
   1042      1236.095 DT 0C090027 Rx 8  7D FF FF FF FF FF FF FF 
   1043      1238.723 DT 0CFF6213 Rx 8  D3 7F FD 7F 00 AF DF FE 
   1044      1239.643 DT 0CFF2100 Rx 8  00 00 32 00 32 00 00 0B 
   1045      1239.945 DT 18FF2200 Rx 8  FC 00 00 3D 00 32 00 32 
   1046      1240.774 DT 0CF00400 Rx 8  FF FF FF 00 00 FF F6 70 
   1047      1241.082 DT 0CFF6600 Rx 8  00 00 8F 8A 01 00 00 FF 
   1048      1242.111 DT 18FF8627 Rx 8  F3 FF FF FF FF FF FF FF 
   1049      1243.139 DT 18F0090B Rx 8  FF FF FF 60 7D 48 7D 7D 
   1050      1243.425 DT 0CFF200B Rx 8  F0 00 32 FF FA 00 00 15 
   1051      1245.270 DT 18FEF186 Rx 8  FF FF FF F3 CC FF DF E0 
   1052      1245.561 DT 0CFF8187 Rx 8  FF F3 FF FF FF FF FF FF 
   1053      1245.852 DT 0CFF8186 Rx 8  F3 FC FF FF FF FF FF FF 
   1054      1248.754 DT 0CFF6213 Rx 8  D3 7F 0B 80 00 AF EF 6E 
   1055      1249.634 DT 0CFF2100 Rx 8  00 00 32 00 32 00 00 1C 
   1056      1249.942 DT 18FF2200 Rx 8  FC 00 00 40 00 32 00 32 
   1057      1253.085 DT 18F0090B Rx 8  FF FF FF 60 7D 48 7D 7D 
   1058      1253.370 DT 18F0010B Rx 8  C0 FF 3F FF FF 01 0B FC 
   1059      1253.656 DT 18FE4F0B Rx 8  F4 3F FF FF FF FF FF FF 
   1060      1253.947 DT 0CFF270B Rx 8  00 00 00 00 00 00 3C B0 
   1061      1254.227 DT 18FEF10B Rx 8  3F 00 00 CF FF FF 7F 8F 
   1062      1254.512 DT 0CFF200B Rx 8  F0 00 32 FF FA 00 00 26 
   1063      1258.740 DT 0CFF6213 Rx 8  D3 7F EE 7F 00 AF FF B6 
   1064      1259.638 DT 0CFF2100 Rx 8  00 00 32 00 32 00 00 2D 
   1065      1259.939 DT 18FF2200 Rx 8  FC 00 00 41 00 32 00 32 
   1066      1260.825 DT 0CF00400 Rx 8  FF FF FF 00 00 FF F6 70 
   1067      1261.133 DT 0CFF6600 Rx 8  00 00 8F 8A 01 00 00 FF 
   1068      1262.071 DT 10F0ED27 Rx 8  FC FF FF FF FF FF DF EA 
   1069      1263.082 DT 18F0090B Rx 8  FF FF FF 60 7D 48 7D 7D 
   1070      1263.361 DT 0CFF200B Rx 8  F0 00 32 FF FA 00 00 47 
   1071      1268.646 DT 0CFF6213 Rx 8  D3 7F F8 7F 00 AF 0F CF 
   1072      1268.931 DT 18FF6913 Rx 8  02 7D FF 7C F2 7F FF FF 
   1073      1269.656 DT 0CFF2100 Rx 8  00 00 32 00 32 00 00 3E 
   1074      1269.965 DT 18FF2200 Rx 8  FC 00 00 42 00 32 00 32 
   1075      1271.450 DT 18FEF100 Rx 8  FF FF FF 0C FF 00 F0 FF 
   1076      1271.752 DT 18FEF200 Rx 8  00 00 00 00 99 14 3B FF 
   1077      1272.062 DT 18FF6D00 Rx 8  31 FF 31 FF FF FF FF FF 
   1078      1273.107 DT 18F0090B Rx 8  FF FF FF 60 7D 48 7D 7D 
   1079      1273.391 DT 0CFF270B Rx 8  00 00 00 00 00 00 4C DB 
   1080      1273.677 DT 0CFF200B Rx 8  F0 00 32 FF FA 00 00 58 
   1081      1278.642 DT 0CFF6213 Rx 8  D3 7F FD 7F 00 AF 1F 8C 
   1082      1279.631 DT 0CFF2100 Rx 8  00 00 32 00 32 00 00 4F 
   1083      1279.933 DT 18FF2200 Rx 8  FC 00 00 43 00 32 00 32 
   1084      1280.778 DT 0CF00400 Rx 8  FF FF FF 00 00 FF F6 70 
   1085      1281.081 DT 0CFF6600 Rx 8  00 00 8F 8A 01 00 00 FF 
   1086      1283.139 DT 18F0090B Rx 8  FF FF FF 60 7D 48 7D 7D 
   1087      1283.424 DT 0CFF200B Rx 8  F0 00 32 FF FA 00 00 69 
   1088      1288.623 DT 0CFF6213 Rx 8  D3 7F 06 80 00 AF 2F 96 
   1089      1289.635 DT 0CFF2100 Rx 8  00 00 32 00 32 00 00 40 
   1090      1289.937 DT 18FF2200 Rx 8  FC 00 00 46 00 32 00 32 
   1091      1293.052 DT 18F0090B Rx 8  FF FF FF 60 7D 10 7D 7D 
   1092      1293.343 DT 0CFF270B Rx 8  00 00 00 00 00 00 5C 89 
   1093      1293.623 DT 0CFF200B Rx 8  F0 00 32 FF FA 00 00 7A 
   1094      1298.649 DT 0CFF6213 Rx 8  D3 7F FD 7F 00 AF 3F 28 
   1095      1299.637 DT 0CFF2100 Rx 8  00 00 32 00 32 00 00 51 
   1096      1299.946 DT 18FF2200 Rx 8  FC 00 00 47 00 32 00 32 
   1097      1300.832 DT 0CF00400 Rx 8  FF FF FF 00 00 FF F6 70 
   1098      1301.140 DT 0CFF6600 Rx 8  00 00 8F 8A 01 00 00 FF 
   1099      1302.409 DT 1CFF6A41 Rx 8  FF FF FF FF FF FF C0 FF 
   1100      1302.716 DT 18FF8341 Rx 8  FF FF 00 F0 FF FF FF FF 
   1101      1302.995 DT 18F0090B Rx 8  FF FF FF 60 7D 10 7D 7D 
   1102      1303.281 DT 0CFF200B Rx 8  F0 00 32 FF FA 00 00 0B 
   1103      1303.572 DT 18F00141 Rx 8  FF FF 3C FF FF FF FF FF 
   1104      1303.886 DT 18FF7041 Rx 8  00 00 00 F8 FF FF FF FF 
   1105      1304.194 DT 18FF7141 Rx 8  F0 00 F8 FF FF FF FF FF 
   1106      1308.587 DT 0CFF6213 Rx 8  D3 7F 0B 80 00 AF 4F 25 
   1107      1309.632 DT 0CFF2100 Rx 8  00 00 32 00 32 00 00 62 
   1108      1309.935 DT 18FF2200 Rx 8  FC 00 00 4A 00 32 00 32 
   1109      1313.140 DT 18F0090B Rx 8  FF FF FF 60 7D 10 7D 7D 
   1110      1313.431 DT 0CFF270B Rx 8  00 00 00 00 00 00 6C 7F 
   1111      1313.717 DT 0CFF200B Rx 8  F0 00 32 FF FA 00 00 1C 
   1112      1318.727 DT 0CFF6213 Rx 8  D3 7F F3 7F 00 AF 5F 94 
   1113      1319.636 DT 0CFF2100 Rx 8  00 00 32 00 32 00 00 73 
   1114      1319.938 DT 18FF2200 Rx 8  FC 00 00 4B 00 32 00 32 
   1115      1320.778 DT 0CF00400 Rx 8  FF FF FF 00 00 FF F6 70 
   1116      1321.082 DT 0CFF6600 Rx 8  00 00 8F 8A 01 00 00 FF 
   1117      1322.475 DT 18FECA41 Rx 8  FF FF 00 00 00 00 FF FF 
   1118      1323.074 DT 18F0090B Rx 8  FF FF FF 60 7D 10 7D 7D 
   1119      1323.360 DT 0CFF200B Rx 8  F0 00 32 FF FA 00 00 2D 
   1120      1328.588 DT 0CFF6213 Rx 8  D3 7F 10 80 00 AF 6F F6 
   1121      1329.645 DT 0CFF2100 Rx 8  00 00 32 00 32 00 00 04 
   1122      1329.947 DT 18FF2200 Rx 8  FC 00 00 4E 00 32 00 32 
   1123      1333.063 DT 18F0090B Rx 8  FF FF FF 60 7D 48 7D 7D 
   1124      1333.354 DT 0CFF270B Rx 8  00 00 00 00 00 00 7C 2D 
   1125      1333.634 DT 0CFF200B Rx 8  F0 00 32 FF FA 00 00 3E 
   1126      1335.776 DT 18FEF127 Rx 8  F7 FF FF 0F FF FF DF 27 
   1127      1336.091 DT 0C090027 Rx 8  7D FF FF FF FF FF FF FF 
   1128      1338.587 DT 0CFF6213 Rx 8  D3 7F 0B 80 00 AF 7F D3 
   1129      1339.638 DT 0CFF2100 Rx 8  00 00 32 00 32 00 00 15 
   1130      1339.946 DT 18FF2200 Rx 8  FC 00 00 50 00 32 00 32 
   1131      1340.825 DT 0CF00400 Rx 8  FF FF FF 00 00 FF F6 70 
   1132      1341.135 DT 0CFF6600 Rx 8  00 00 8F 8A 01 00 00 FF 
   1133      1341.420 DT 10FF6527 Rx 8  1F 03 FC F0 FF FF FF FF 
   1134      1342.145 DT 18FF8627 Rx 8  F3 FF FF FF FF FF FF FF 
   1135      1342.927 DT 10FF6541 Rx 8  FF FF FF CF FF C3 FF FF 
   1136      1343.207 DT 18F0090B Rx 8  FF FF FF 60 7D 48 7D 7D 
   1137      1343.493 DT 0CFF200B Rx 8  F0 00 32 FF FA 00 00 5F 
   1138      1343.784 DT 10FF6C41 Rx 8  00 FF FF FF FF FF FF FF 
   1139      1345.253 DT 18FEF186 Rx 8  FF FF FF F3 CC FF EF D0 
   1140      1345.544 DT 0CFF8187 Rx 8  FF F3 FF FF FF FF FF FF 
   1141      1345.835 DT 0CFF8186 Rx 8  F3 FC FF FF FF FF FF FF 
   1142      1346.137 DT 10FF6586 Rx 8  FC FF FF FF FF FF FF FF 
   1143      1348.599 DT 0CFF6213 Rx 8  D3 7F 06 80 00 AF 8F DD 
   1144      1349.638 DT 0CFF2100 Rx 8  00 00 32 00 32 00 00 26 
   1145      1349.940 DT 18FF2200 Rx 8  FC 00 00 54 00 32 00 32 
   1146      1353.141 DT 18F0090B Rx 8  FF FF FF 60 7D 48 7D 7D 
   1147      1353.426 DT 18F0010B Rx 8  C0 FF 3F FF FF 01 0B FC 
   1148      1353.712 DT 18FE4F0B Rx 8  F4 3F FF FF FF FF FF FF 
   1149      1354.004 DT 0CFF270B Rx 8  00 00 00 00 00 00 8C A9 
   1150      1354.288 DT 18FEF10B Rx 8  3F 00 00 CF FF FF 8F 7F 
   1151      1354.574 DT 0CFF200B Rx 8  F0 00 32 FF FA 00 00 40 
   1152      1358.590 DT 0CFF6213 Rx 8  D3 7F 01 80 00 AF 9F 27 
   1153      1359.636 DT 0CFF2100 Rx 8  00 00 32 00 32 00 00 37 
   1154      1359.938 DT 18FF2200 Rx 8  FC 00 00 58 00 32 00 32 
   1155      1360.778 DT 0CF00400 Rx 8  FF FF FF 00 00 FF F6 70 
   1156      1361.082 DT 0CFF6600 Rx 8  00 00 8F 8A 01 00 00 FF 
   1157      1363.046 DT 18F0090B Rx 8  FF FF FF 60 7D 48 7D 7D 
   1158      1363.326 DT 0CFF200B Rx 8  F0 00 32 FF FA 00 00 51 
   1159      1365.810 DT 18FF7127 Rx 8  F0 FF FF FF FF FF FF FF 
   1160      1366.125 DT 18FF2D27 Rx 8  FF FF FF F3 F3 FF FF FF 
   1161      1368.593 DT 0CFF6213 Rx 8  D3 7F F8 7F 00 AF AF 84 
   1162      1368.878 DT 18FF6913 Rx 8  02 7D FE 7C DE 7F FF FF 
   1163      1369.655 DT 0CFF2100 Rx 8  00 00 32 00 32 00 00 58 
   1164      1369.962 DT 18FF2200 Rx 8  FC 00 00 5A 00 32 00 32 
   1165      1371.556 DT 18FEF100 Rx 8  FF FF FF 0C FF 00 F0 FF 
   1166      1371.847 DT 10FF6500 Rx 8  FF FF FF FF 3F FC FF FF 
   1167      1372.134 DT 18FEF200 Rx 8  00 00 00 00 99 14 46 FF 
   1168      1372.441 DT 18FF6D00 Rx 8  31 FF 31 FF FF FF FF FF 
   1169      1373.071 DT 18F0090B Rx 8  FF FF FF 60 7D 48 7D 7D 
   1170      1373.355 DT 0CFF270B Rx 8  00 00 00 00 00 00 9C FB 
   1171      1373.641 DT 0CFF200B Rx 8  F0 00 32 FF FA 00 00 62 
   1172      1378.600 DT 0CFF6213 Rx 8  D3 7F 01 80 00 AF BF 83 
   1173      1379.640 DT 0CFF2100 Rx 8  00 00 32 00 32 00 00 69 
   1174      1379.942 DT 18FF2200 Rx 8  FC 00 00 5B 00 32 00 32 
   1175      1380.828 DT 0CF00400 Rx 8  FF FF FF 00 00 FF F6 70 
   1176      1381.136 DT 0CFF6600 Rx 8  00 00 8F 8A 01 00 00 FF 
   1177      1382.075 DT 18FF6E27 Rx 8  DF FF FF FF FF FF FF FF 
   1178      1383.143 DT 18F0090B Rx 8  FF FF FF 60 7D 48 7D 7D 
   1179      1383.422 DT 0CFF200B Rx 8  F0 00 32 FF FA 00 00 73 
   1180      1388.593 DT 0CFF6213 Rx 8  D3 7F 0B 80 00 AF CF CA 
   1181      1389.642 DT 0CFF2100 Rx 8  00 00 32 00 32 00 00 7A 
   1182      1389.956 DT 18FF2200 Rx 8  FC 00 00 5E 00 32 00 32 
   1183      1393.076 DT 18F0090B Rx 8  FF FF FF 60 7D 48 7D 7D 
   1184      1393.367 DT 0CFF270B Rx 8  00 00 00 00 00 00 AC 0D 
   1185      1393.652 DT 0CFF200B Rx 8  F0 00 32 FF FA 00 00 04 
   1186      1398.589 DT 0CFF6213 Rx 8  D3 7F FD 7F 00 AF DF FE 
   1187      1399.639 DT 0CFF2100 Rx 8  00 00 32 00 32 00 00 0B 
   1188      1399.942 DT 18FF2200 Rx 8  FC 00 00 63 00 32 00 32 
   1189      1400.776 DT 0CF00400 Rx 8  FF FF FF 00 00 FF F6 70 
   1190      1401.085 DT 0CFF6600 Rx 8  00 00 8F 8A 01 00 00 FF 
   1191      1402.381 DT 18F00141 Rx 8  FF FF 3C FF FF FF FF FF 
   1192      1403.056 DT 18F0090B Rx 8  FF FF FF 60 7D 48 7D 7D 
   1193      1403.340 DT 0CFF200B Rx 8  F0 00 32 FF FA 00 00 15 
   1194      1408.602 DT 0CFF6213 Rx 8  D3 7F F3 7F 00 AF EF 8D 
   1195      1409.642 DT 0CFF2100 Rx 8  00 00 32 00 32 00 00 1C 
   1196      1409.945 DT 18FF2200 Rx 8  FC 00 00 65 00 32 00 32 
   1197      1413.048 DT 18F0090B Rx 8  FF FF FF 60 7D 48 7D 7D 
   1198      1413.339 DT 0CFF270B Rx 8  00 00 00 00 00 00 BC 5F 
   1199      1413.618 DT 0CFF200B Rx 8  F0 00 32 FF FA 00 00 26 
   1200      1418.595 DT 0CFF6213 Rx 8  D3 7F F8 7F 00 AF FF 4B 
   1201      1419.640 DT 0CFF2100 Rx 8  00 00 32 00 32 00 00 2D 
   1202      1419.942 DT 18FF2200 Rx 8  FC 00 00 68 00 32 00 32 
   1203      1420.828 DT 0CF00400 Rx 8  FF FF FF 00 00 FF F6 70 
   1204      1421.132 DT 0CFF6600 Rx 8  00 00 8F 8A 01 00 00 FF 
   1205      1423.142 DT 18F0090B Rx 8  FF FF FF 60 7D 48 7D 7D 
   1206      1423.428 DT 0CFF200B Rx 8  F0 00 32 FF FA 00 00 47 
   1207      1428.587 DT 0CFF6213 Rx 8  D3 7F F3 7F 00 AF 0F 5B 
   1208      1429.644 DT 0CFF2100 Rx 8  00 00 32 00 32 00 00 3E 
   1209      1429.946 DT 18FF2200 Rx 8  FC 00 00 6C 00 32 00 32 
   1210      1430.357 DT 18FEEE00 Rx 8  6B FF FF FF FF FF FF FF 
   1211      1430.648 DT 18FECA00 Rx 8  40 FF 00 00 00 00 FF FF 
   1212      1430.945 DT 18FEFC00 Rx 8  FF FA FF FF FF FF FF FF 
   1213      1431.249 DT 18FEF700 Rx 8  FF FF FF FF FC 00 FF FF 
   1214      1431.556 DT 18FF2E00 Rx 8  38 FE FF FF FF FF FF FF 
   1215      1431.865 DT 18FEC100 Rx 8  A3 F1 42 00 00 00 00 00 
   1216      1433.041 DT 18F0090B Rx 8  FF FF FF 60 7D 48 7D 7D 
   1217      1433.327 DT 0CFF270B Rx 8  00 00 00 00 00 00 CC 34 
   1218      1433.611 DT 0CFF200B Rx 8  F0 00 32 FF FA 00 00 58 
   1219      1435.845 DT 18FEF127 Rx 8  F7 FF FF 0F FF FF EF 17 
   1220      1436.166 DT 0C090027 Rx 8  7D FF FF FF FF FF FF FF 
   1221      1438.639 DT 0CFF6213 Rx 8  D3 7F 0B 80 00 AF 1F EA 
   1222      1439.639 DT 0CFF2100 Rx 8  00 00 32 00 32 00 00 4F 
   1223      1439.942 DT 18FF2200 Rx 8  FC 00 00 6F 00 32 00 32 
   1224      1440.775 DT 0CF00400 Rx 8  FF FF FF 00 00 FF F6 70 
   1225      1441.085 DT 0CFF6600 Rx 8  00 00 8F 8A 01 00 00 FF 
   1226      1442.108 DT 18FF8627 Rx 8  F3 FF FF FF FF FF FF FF 
   1227      1442.981 DT 18F0090B Rx 8  FF FF FF 60 7D 48 7D 7D 
   1228      1443.261 DT 0CFF200B Rx 8  F0 00 32 FF FA 00 00 69 
   1229      1445.209 DT 18FEF186 Rx 8  FF FF FF F3 CC FF FF C0 
   1230      1445.494 DT 10FF6487 Rx 8  F0 FF FF FF FF C0 FF FF 
   1231      1445.785 DT 0CFF8186 Rx 8  F3 FC FF FF FF FF FF FF 
   1232      1446.076 DT 0CFF8187 Rx 8  FF F3 FF FF FF FF FF FF 
   1233      1448.590 DT 0CFF6213 Rx 8  D3 7F 06 80 00 AF 2F 96 
   1234      1449.647 DT 0CFF2100 Rx 8  00 00 32 00 32 00 00 40 
   1235      1449.950 DT 18FF2200 Rx 8  FC 00 00 72 00 32 00 32 
   1236      1453.126 DT 18F0090B Rx 8  FF FF FF 60 7D 10 7D 7D 
   1237      1453.412 DT 18F0010B Rx 8  C0 FF 3F FF FF 01 0B FC 
   1238      1453.696 DT 18FE4F0B Rx 8  F4 3F FF FF FF FF FF FF 
   1239      1453.982 DT 0CFF270B Rx 8  00 00 00 00 00 00 DC 66 
   1240      1454.267 DT 18FEF10B Rx 8  3F 00 00 CF FF FF 9F 6F 
   1241      1454.553 DT 0CFF200B Rx 8  F0 00 32 FF FA 00 00 7A 
   1242      1458.672 DT 0CFF6213 Rx 8  D3 7F FD 7F 00 AF 3F 28 
   1243      1459.638 DT 0CFF2100 Rx 8  00 00 32 00 32 00 00 51 
   1244      1459.940 DT 18FF2200 Rx 8  FC 00 00 76 00 32 00 32 
   1245      1460.826 DT 0CF00400 Rx 8  FF FF FF 00 00 FF F6 70 
   1246      1461.130 DT 0CFF6600 Rx 8  00 00 8F 8A 01 00 00 FF 
   1247      1463.089 DT 18F0090B Rx 8  FF FF FF 60 7D 10 7D 7D 
   1248      1463.374 DT 0CFF200B Rx 8  F0 00 32 FF FA 00 00 0B 
   1249      1468.601 DT 0CFF6213 Rx 8  D3 7F 06 80 00 AF 4F AF 
   1250      1468.887 DT 18FF6913 Rx 8  02 7D 01 7D 1C 80 FF FF 
   1251      1469.658 DT 0CFF2100 Rx 8  00 00 32 00 32 00 00 62 
   1252      1469.966 DT 18FF2200 Rx 8  FC 00 00 77 00 32 00 32 
   1253      1471.457 DT 18FEF100 Rx 8  FF FF FF 0C FF 00 F0 FF 
   1254      1471.759 DT 18FEF200 Rx 8  00 00 00 00 99 14 51 FF 
   1255      1472.069 DT 18FF6D00 Rx 8  31 FF 31 FF FF FF FF FF 
   1256      1473.108 DT 18F0090B Rx 8  FF FF FF 60 7D 48 7D 7D 
   1257      1473.393 DT 0CFF270B Rx 8  00 00 00 00 00 00 EC 90 
   1258      1473.673 DT 0CFF200B Rx 8  F0 00 32 FF FA 00 00 1C 
   1259      1478.665 DT 0CFF6213 Rx 8  D3 7F FD 7F 00 AF 5F 11 
   1260      1479.648 DT 0CFF2100 Rx 8  00 00 32 00 32 00 00 73 
   1261      1479.955 DT 18FF2200 Rx 8  FC 00 00 79 00 32 00 32 
   1262      1480.783 DT 0CF00400 Rx 8  FF FF FF 00 00 FF F6 70 
   1263      1481.093 DT 0CFF6600 Rx 8  00 00 8F 8A 01 00 00 FF 
   1264      1483.042 DT 18F0090B Rx 8  FF FF FF 60 7D 48 7D 7D 
   1265      1483.321 DT 0CFF200B Rx 8  F0 00 32 FF FA 00 00 2D 
   1266      1488.611 DT 0CFF6213 Rx 8  D3 7F FD 7F 00 AF 6F E7 
   1267      1489.645 DT 0CFF2100 Rx 8  00 00 32 00 32 00 00 04 
   1268      1489.947 DT 18FF2200 Rx 8  FC 00 00 79 00 32 00 32 
   1269      1493.125 DT 18F0090B Rx 8  FF FF FF 60 7D 48 7D 7D 
   1270      1493.416 DT 0CFF270B Rx 8  00 00 00 00 00 00 FC C2 
   1271      1493.695 DT 0CFF200B Rx 8  F0 00 32 FF FA 00 00 3E 
   1272      1498.706 DT 0CFF6213 Rx 8  D3 7F FD 7F 00 AF 7F B5 
   1273      1499.642 DT 0CFF2100 Rx 8  00 00 32 00 32 00 00 15 
   1274      1499.951 DT 18FF2200 Rx 8  FC 00 00 7F 00 32 00 32 
   1275      1500.836 DT 0CF00400 Rx 8  FF FF FF 00 00 FF F6 70 
   1276      1501.140 DT 0CFF6600 Rx 8  00 00 8F 8A 01 00 00 FF 
   1277      1502.574 DT 18F00141 Rx 8  FF FF 3C FF FF FF FF FF 
   1278      1503.037 DT 18F0090B Rx 8  FF FF FF 60 7D 48 7D 7D 
   1279      1503.316 DT 0CFF200B Rx 8  F0 00 32 FF FA 00 00 5F 
   1280      1508.647 DT 0CFF6213 Rx 8  D3 7F F3 7F 00 AF 8F B4 
   1281      1509.640 DT 0CFF2100 Rx 8  00 00 32 00 32 00 00 26 
   1282      1509.949 DT 18FF2200 Rx 8  FC 00 00 81 00 32 00 32 
   1283      1511.166 DT 10F0ED27 Rx 8  FC FF FF FF FF FF EF FA 
   1284      1512.970 DT 18F0090B Rx 8  FF FF FF 60 7D 48 7D 7D 
   1285      1513.257 DT 0CFF270B Rx 8  00 00 00 00 00 00 0C 46 
   1286      1513.541 DT 0CFF200B Rx 8  F0 00 32 FF FA 00 00 40 
   1287      1518.694 DT 0CFF6213 Rx 8  D3 7F FD 7F 00 AF 9F 63 
   1288      1519.642 DT 0CFF2100 Rx 8  00 00 32 00 32 00 00 37 
   1289      1519.944 DT 18FF2200 Rx 8  FC 00 00 83 00 32 00 32 
   1290      1520.779 DT 0CF00400 Rx 8  FF FF FF 00 00 FF F6 70 
   1291      1521.087 DT 0CFF6600 Rx 8  00 00 8F 8A 01 00 00 FF 
   1292      1523.133 DT 18F0090B Rx 8  FF FF FF 60 7D 48 7D 7D 
   1293      1523.413 DT 0CFF200B Rx 8  F0 00 32 FF FA 00 00 51 
   1294      1528.680 DT 0CFF6213 Rx 8  D3 7F 06 80 00 AF AF 79 
   1295      1529.640 DT 0CFF2100 Rx 8  00 00 32 00 32 00 00 58 
   1296      1529.943 DT 18FF2200 Rx 8  FC 00 00 84 00 32 00 32 
   1297      1533.070 DT 18F0090B Rx 8  FF FF FF 60 7D 48 7D 7D 
   1298      1533.361 DT 0CFF270B Rx 8  00 00 00 00 00 00 1C 14 
   1299      1533.646 DT 0CFF200B Rx 8  F0 00 32 FF FA 00 00 62 
   1300      1535.765 DT 18FEF127 Rx 8  F7 FF FF 0F FF FF FF 07 
   1301      1536.086 DT 0C090027 Rx 8  7D FF FF FF FF FF FF FF 
   1302      1538.701 DT 0CFF6213 Rx 8  D3 7F E9 7F 00 AF BF 83 
   1303      1539.644 DT 0CFF2100 Rx 8  00 00 32 00 32 00 00 69 
   1304      1539.946 DT 18FF2200 Rx 8  FC 00 00 85 00 32 00 32 
   1305      1540.826 DT 0CF00400 Rx 8  FF FF FF 00 00 FF F6 70 
   1306      1541.135 DT 0CFF6600 Rx 8  00 00 8F 8A 01 00 00 FF 
   1307      1541.421 DT 10FF6527 Rx 8  1F 03 FC F0 FF FF FF FF 
   1308      1542.101 DT 1CFF6A27 Rx 8  3F 9C FF F3 FF FF FF FF 
   1309      1542.415 DT 18FF8627 Rx 8  F3 FF FF FF FF FF FF FF 
   1310      1542.893 DT 10FF6541 Rx 8  FF FF FF CF FF C3 FF FF 
   1311      1543.173 DT 18F0090B Rx 8  FF FF FF 60 7D 48 7D 7D 
   1312      1543.453 DT 0CFF200B Rx 8  F0 00 32 FF FA 00 00 73 
   1313      1543.750 DT 10FF6C41 Rx 8  00 FF FF FF FF FF FF FF 
   1314      1545.207 DT 18FEF186 Rx 8  FF FF FF F3 CC FF 0F 30 
   1315      1545.498 DT 0CFF8187 Rx 8  FF F3 FF FF FF FF FF FF 
   1316      1545.789 DT 0CFF8186 Rx 8  F3 FC FF FF FF FF FF FF 
   1317      1546.093 DT 10FF6586 Rx 8  FC FF FF FF FF FF FF FF 
   1318      1548.674 DT 0CFF6213 Rx 8  D3 7F 10 80 00 AF CF BD 
   1319      1549.639 DT 0CFF2100 Rx 8  00 00 32 00 32 00 00 7A 
   1320      1549.941 DT 18FF2200 Rx 8  FC 00 00 86 00 32 00 32 
   1321      1553.039 DT 18F0090B Rx 8  FF FF FF 60 7D 48 7D 7D 
   1322      1553.319 DT 18F0010B Rx 8  C0 FF 3F FF FF 01 0B FC 
   1323      1553.603 DT 18FE4F0B Rx 8  F4 3F FF FF FF FF FF FF 
   1324      1553.889 DT 0CFF270B Rx 8  00 00 00 00 00 00 2C E2 
   1325      1554.175 DT 18FEF10B Rx 8  3F 00 00 CF FF FF AF 5F 
   1326      1554.465 DT 18FEF70B Rx 8  FF FF FF FF FC 00 FC 00 
   1327      1554.751 DT 0CFF200B Rx 8  F0 00 32 FF FA 00 00 04 
   1328      1558.579 DT 0CFF6213 Rx 8  D3 7F FD 7F 00 AF DF FE 
   1329      1559.642 DT 0CFF2100 Rx 8  00 00 32 00 32 00 00 0B 
   1330      1559.944 DT 18FF2200 Rx 8  FC 00 00 87 00 32 00 32 
   1331      1560.778 DT 0CF00400 Rx 8  FF FF FF 00 00 FF F6 70 
   1332      1561.086 DT 0CFF6600 Rx 8  00 00 8F 8A 01 00 00 FF 
   1333      1563.142 DT 18F0090B Rx 8  FF FF FF 60 7D 48 7D 7D 
   1334      1563.428 DT 0CFF200B Rx 8  F0 00 32 FF FA 00 00 15 
   1335      1566.838 DT 18FECA0B Rx 8  00 FF 00 00 00 00 FF FF 
   1336      1568.673 DT 0CFF6213 Rx 8  D3 7F 0B 80 00 AF EF 6E 
   1337      1568.957 DT 18FF6913 Rx 8  02 7D 01 7D 17 80 FF FF 
   1338      1569.660 DT 0CFF2100 Rx 8  00 00 32 00 32 00 00 1C 
   1339      1569.973 DT 18FF2200 Rx 8  FC 00 00 8A 00 32 00 32 
   1340      1571.544 DT 18FEF100 Rx 8  FF FF FF 0C FF 00 F0 FF 
   1341      1571.835 DT 10FF6500 Rx 8  FF FF FF FF 3F FC FF FF 
   1342      1572.127 DT 18FEF200 Rx 8  00 00 00 00 99 14 55 FF 
   1343      1572.436 DT 18FF6D00 Rx 8  31 FF 31 FF FF FF FF FF 
   1344      1573.116 DT 18F0090B Rx 8  FF FF FF 60 7D 48 7D 7D 
   1345      1573.407 DT 0CFF270B Rx 8  00 00 00 00 00 00 3C B0 
   1346      1573.691 DT 0CFF200B Rx 8  F0 00 32 FF FA 00 00 26 
   1347      1578.576 DT 0CFF6213 Rx 8  D3 7F 06 80 00 AF FF B6 
   1348      1579.639 DT 0CFF2100 Rx 8  00 00 32 00 32 00 00 2D 
   1349      1579.942 DT 18FF2200 Rx 8  FC 00 00 8C 00 32 00 32 
   1350      1580.832 DT 0CF00400 Rx 8  FF FF FF 00 00 FF F6 70 
   1351      1581.135 DT 0CFF6600 Rx 8  00 00 8F 8A 01 00 00 FF 
   1352      1583.136 DT 18F0090B Rx 8  FF FF FF 60 7D 48 7D 7D 
   1353      1583.416 DT 0CFF200B Rx 8  F0 00 32 FF FA 00 00 47 
   1354      1588.700 DT 0CFF6213 Rx 8  D3 7F 06 80 00 AF 0F 32 
   1355      1589.648 DT 0CFF2100 Rx 8  00 00 32 00 32 00 00 3E 
   1356      1589.950 DT 18FF2200 Rx 8  FC 00 00 90 00 32 00 32 
   1357      1593.059 DT 18F0090B Rx 8  FF FF FF 60 7D 48 7D 7D 
   1358      1593.350 DT 0CFF270B Rx 8  00 00 00 00 00 00 4C DB 
   1359      1593.635 DT 0CFF200B Rx 8  F0 00 32 FF FA 00 00 58 
   1360      1598.561 DT 0CFF6213 Rx 8  D3 7F 0B 80 00 AF 1F EA 
   1361      1599.640 DT 0CFF2100 Rx 8  00 00 32 00 32 00 00 4F 
   1362      1599.943 DT 18FF2200 Rx 8  FC 00 00 91 00 32 00 32 
   1363      1600.783 DT 0CF00400 Rx 8  FF FF FF 00 00 FF F6 70 
   1364      1601.091 DT 0CFF6600 Rx 8  00 00 8F 8A 01 00 00 FF 
   1365      1602.371 DT 18F00141 Rx 8  FF FF 3C FF FF FF FF FF 
   1366      1603.005 DT 18F0090B Rx 8  FF FF FF 60 7D 48 7D 7D 
   1367      1603.290 DT 0CFF200B Rx 8  F0 00 32 FF FA 00 00 69 
   1368      1608.568 DT 0CFF6213 Rx 8  D3 7F E9 7F 00 AF 2F 3E 
   1369      1609.641 DT 0CFF2100 Rx 8  00 00 32 00 32 00 00 40 
   1370      1609.944 DT 18FF2200 Rx 8  FC 00 00 94 00 32 00 32 
   1371      1613.103 DT 18F0090B Rx 8  FF FF FF 60 7D 48 7D 7D 
   1372      1613.389 DT 0CFF270B Rx 8  00 00 00 00 00 00 5C 89 
   1373      1613.669 DT 0CFF200B Rx 8  F0 00 32 FF FA 00 00 7A 
   1374      1618.577 DT 0CFF6213 Rx 8  D3 7F F8 7F 00 AF 3F 39 
   1375      1619.639 DT 0CFF2100 Rx 8  00 00 32 00 32 00 00 51 
   1376      1619.947 DT 18FF2200 Rx 8  FC 00 00 96 00 32 00 32 
   1377      1620.826 DT 0CF00400 Rx 8  FF FF FF 00 00 FF F6 70 
   1378      1621.129 DT 0CFF6600 Rx 8  00 00 8F 8A 01 00 00 FF 
   1379      1623.032 DT 18F0090B Rx 8  FF FF FF 60 7D 48 7D 7D 
   1380      1623.318 DT 0CFF200B Rx 8  F0 00 32 FF FA 00 00 0B 
   1381      1628.568 DT 0CFF6213 Rx 8  D3 7F FD 7F 00 AF 4F 43 
   1382      1629.647 DT 0CFF2100 Rx 8  00 00 32 00 32 00 00 62 
   1383      1629.932 DT 18FECA13 Rx 8  00 FF 00 00 00 00 FF FF 
   1384      1630.224 DT 18FF2200 Rx 8  FC 00 00 98 00 32 00 32 
   1385      1633.037 DT 18F0090B Rx 8  FF FF FF 60 7D 48 7D 7D 
   1386      1633.328 DT 0CFF270B Rx 8  00 00 00 00 00 00 6C 7F 
   1387      1633.607 DT 0CFF200B Rx 8  F0 00 32 FF FA 00 00 1C 
   1388      1635.772 DT 18FEF127 Rx 8  F7 FF FF 0F FF FF 0F F7 
   1389      1636.087 DT 0C090027 Rx 8  7D FF FF FF FF FF FF FF 
   1390      1638.572 DT 0CFF6213 Rx 8  D3 7F FD 7F 00 AF 5F 11 
   1391      1639.645 DT 0CFF2100 Rx 8  00 00 32 00 32 00 00 73 
   1392      1639.947 DT 18FF2200 Rx 8  FC 00 00 9D 00 32 00 32 
   1393      1640.782 DT 0CF00400 Rx 8  FF FF FF 00 00 FF F6 70 
   1394      1641.085 DT 0CFF6600 Rx 8  00 00 8F 8A 01 00 00 FF 
   1395      1642.079 DT 18FF8627 Rx 8  F3 FF FF FF FF FF FF FF 
   1396      1643.033 DT 18F0090B Rx 8  FF FF FF 60 7D 48 7D 7D 
   1397      1643.318 DT 0CFF200B Rx 8  F0 00 32 FF FA 00 00 2D 
   1398      1645.210 DT 18FEF186 Rx 8  FF FF FF F3 CC FF 1F 20 
   1399      1645.501 DT 0CFF8187 Rx 8  FF F3 FF FF FF FF FF FF 
   1400      1645.792 DT 0CFF8186 Rx 8  F3 FC FF FF FF FF FF FF 
   1401      1648.584 DT 0CFF6213 Rx 8  D3 7F FD 7F 00 AF 6F E7 
   1402      1649.653 DT 0CFF2100 Rx 8  00 00 32 00 32 00 00 04 
   1403      1649.960 DT 18FF2200 Rx 8  FC 00 00 A0 00 32 00 32 
   1404      1653.126 DT 18F0090B Rx 8  FF FF FF 60 7D 48 7D 7D 
   1405      1653.411 DT 18F0010B Rx 8  C0 FF 3F FF FF 01 0B FC 
   1406      1653.697 DT 18FE4F0B Rx 8  F4 3F FF FF FF FF FF FF 
   1407      1653.989 DT 0CFF270B Rx 8  00 00 00 00 00 00 7C 2D 
   1408      1654.273 DT 18FEF10B Rx 8  3F 00 00 CF FF FF BF 4F 
   1409      1654.559 DT 0CFF200B Rx 8  F0 00 32 FF FA 00 00 3E 
   1410      1658.576 DT 0CFF6213 Rx 8  D3 7F FD 7F 00 AF 7F B5 
   1411      1659.649 DT 0CFF2100 Rx 8  00 00 32 00 32 00 00 15 
   1412      1659.951 DT 18FF2200 Rx 8  FC 00 00 A1 00 32 00 32 
   1413      1660.825 DT 0CF00400 Rx 8  FF FF FF 00 00 FF F6 70 
   1414      1661.135 DT 0CFF6600 Rx 8  00 00 8F 8A 01 00 00 FF 
   1415      1663.065 DT 18F0090B Rx 8  FF FF FF 60 7D 48 7D 7D 
   1416      1663.351 DT 0CFF200B Rx 8  F0 00 32 FF FA 00 00 5F 
   1417      1668.571 DT 0CFF6213 Rx 8  D3 7F FD 7F 00 AF 8F 31 
   1418      1668.857 DT 18FF6913 Rx 8  02 7D 00 7D 00 80 FF FF 
   1419      1669.657 DT 0CFF2100 Rx 8  00 00 32 00 32 00 00 26 
   1420      1669.970 DT 18FF2200 Rx 8  FC 00 00 A5 00 32 00 32 
   1421      1671.445 DT 18FEF100 Rx 8  FF FF FF 0C FF 00 F0 FF 
   1422      1671.741 DT 18FEF200 Rx 8  00 00 00 00 99 14 5A FF 
   1423      1672.051 DT 18FF6D00 Rx 8  31 FF 31 FF FF FF FF FF 
   1424      1673.039 DT 18F0090B Rx 8  FF FF FF 60 7D 48 7D 7D 
   1425      1673.323 DT 0CFF270B Rx 8  00 00 00 00 00 00 8C A9 
   1426      1673.609 DT 0CFF200B Rx 8  F0 00 32 FF FA 00 00 40 
   1427      1678.591 DT 0CFF6213 Rx 8  D3 7F F3 7F 00 AF 9F E6 
   1428      1679.647 DT 0CFF2100 Rx 8  00 00 32 00 32 00 00 37 
   1429      1679.949 DT 18FF2200 Rx 8  FC 00 00 A7 00 32 00 32 
   1430      1680.777 DT 0CF00400 Rx 8  FF FF FF 00 00 FF F6 70 
   1431      1681.087 DT 0CFF6600 Rx 8  00 00 8F 8A 01 00 00 FF 
   1432      1683.086 DT 18F0090B Rx 8  FF FF FF 60 7D 48 7D 7D 
   1433      1683.366 DT 0CFF200B Rx 8  F0 00 32 FF FA 00 00 51 
   1434      1688.570 DT 0CFF6213 Rx 8  D3 7F 0B 80 00 AF AF F3 
   1435      1689.645 DT 0CFF2100 Rx 8  00 00 32 00 32 00 00 58 
   1436      1689.947 DT 18FF2200 Rx 8  FC 00 00 AB 00 32 00 32 
   1437      1693.038 DT 18F0090B Rx 8  FF FF FF 60 7D 10 7D 7D 
   1438      1693.322 DT 0CFF270B Rx 8  00 00 00 00 00 00 9C FB 
   1439      1693.608 DT 0CFF200B Rx 8  F0 00 32 FF FA 00 00 62 
   1440      1698.578 DT 0CFF6213 Rx 8  D3 7F FD 7F 00 AF BF C7 
   1441      1699.641 DT 0CFF2100 Rx 8  00 00 32 00 32 00 00 69 
   1442      1699.943 DT 18FF2200 Rx 8  FC 00 00 AC 00 32 00 32 
   1443      1700.834 DT 0CF00400 Rx 8  FF FF FF 00 00 FF F6 70 
   1444      1701.143 DT 0CFF6600 Rx 8  00 00 8F 8A 01 00 00 FF 
   1445      1702.520 DT 18F00141 Rx 8  FF FF 3C FF FF FF FF FF 
   1446      1703.040 DT 18F0090B Rx 8  FF FF FF 60 7D 10 7D 7D 
   1447      1703.320 DT 0CFF200B Rx 8  F0 00 32 FF FA 00 00 73 
   1448      1708.627 DT 0CFF6213 Rx 8  D3 7F EE 7F 00 AF CF 40 
   1449      1709.650 DT 0CFF2100 Rx 8  00 00 32 00 32 00 00 7A 
   1450      1709.952 DT 18FF2200 Rx 8  FC 00 00 B0 00 32 00 32 
   1451      1711.250 DT 18FECA27 Rx 8  00 FF 00 00 00 00 FF FF 
   1452      1713.027 DT 18F0090B Rx 8  FF FF FF 60 7D 10 7D 7D 
   1453      1713.318 DT 0CFF270B Rx 8  00 00 00 00 00 00 AC 0D 
   1454      1713.602 DT 0CFF200B Rx 8  F0 00 32 FF FA 00 00 04 
   1455      1718.574 DT 0CFF6213 Rx 8  D3 7F EE 7F 00 AF DF 12 
   1456      1719.653 DT 0CFF2100 Rx 8  00 00 32 00 32 00 00 0B 
   1457      1719.956 DT 18FF2200 Rx 8  FC 00 00 B2 00 32 00 32 
   1458      1720.784 DT 0CF00400 Rx 8  FF FF FF 00 00 FF F6 70 
   1459      1721.087 DT 0CFF6600 Rx 8  00 00 8F 8A 01 00 00 FF 
   1460      1723.127 DT 18F0090B Rx 8  FF FF FF 60 7D 10 7D 7D 
   1461      1723.411 DT 0CFF200B Rx 8  F0 00 32 FF FA 00 00 15 
   1462      1725.514 DT 18FEC117 Rx 8  FF FF FF FF FB E0 03 00 
   1463      1725.856 DT 18FEF717 Rx 8  FF FF FF FF FE 00 FF FF 
   1464      1726.200 DT 18FEF517 Rx 8  FF FF FF E0 24 FF FF FF 
   1465      1726.571 DT 18FF7117 Rx 8  FF 00 F8 FF 2C A4 02 00 
   1466      1726.919 DT 18FECA17 Rx 8  FF FF 00 00 00 00 FF FF 
   1467      1728.644 DT 0CFF6213 Rx 8  D3 7F 06 80 00 AF EF E4 
   1468      1729.643 DT 0CFF2100 Rx 8  00 00 32 00 32 00 00 1C 
   1469      1729.946 DT 18FF2200 Rx 8  FC 00 00 B6 00 32 00 32 
   1470      1733.069 DT 18F0090B Rx 8  FF FF FF 60 7D 10 7D 7D 
   1471      1733.359 DT 0CFF270B Rx 8  00 00 00 00 00 00 BC 5F 
   1472      1733.638 DT 0CFF200B Rx 8  F0 00 32 FF FA 00 00 26 
   1473      1735.751 DT 18FEF127 Rx 8  F7 FF FF 0F FF FF 1F E7 
   1474      1736.072 DT 0C090027 Rx 8  7D FF FF FF FF FF FF FF 
   1475      1738.585 DT 0CFF6213 Rx 8  D3 7F FD 7F 00 AF FF 5A 
   1476      1739.648 DT 0CFF2100 Rx 8  00 00 32 00 32 00 00 2D 
   1477      1739.950 DT 18FF2200 Rx 8  FC 00 00 B7 00 32 00 32 
   1478      1740.829 DT 0CF00400 Rx 8  FF FF FF 00 00 FF F6 70 
   1479      1741.139 DT 0CFF6600 Rx 8  00 00 8F 8A 01 00 00 FF 
   1480      1741.423 DT 10FF6527 Rx 8  1F 03 FC F0 FF FF FF FF 
   1481      1742.133 DT 18FF8627 Rx 8  F3 FF FF FF FF FF FF FF 
   1482      1742.995 DT 18F0090B Rx 8  FF FF FF 60 7D 10 7D 7D 
   1483      1743.280 DT 0CFF200B Rx 8  F0 00 32 FF FA 00 00 47 
   1484      1743.566 DT 10FF6541 Rx 8  FF FF FF CF FF C3 FF FF 
   1485      1743.891 DT 10FF6C41 Rx 8  00 FF FF FF FF FF FF FF 
   1486      1745.211 DT 18FEF186 Rx 8  FF FF FF F3 CC FF 2F 10 
   1487      1745.502 DT 0CFF8187 Rx 8  FF F3 FF FF FF FF FF FF 
   1488      1745.793 DT 0CFF8186 Rx 8  F3 FC FF FF FF FF FF FF 
   1489      1746.097 DT 10FF6586 Rx 8  FC FF FF FF FF FF FF FF 
   1490      1748.662 DT 0CFF6213 Rx 8  D3 7F 06 80 00 AF 0F 32 
   1491      1749.650 DT 0CFF2100 Rx 8  00 00 32 00 32 00 00 3E 
   1492      1749.953 DT 18FF2200 Rx 8  FC 00 00 B8 00 32 00 32 
   1493      1753.078 DT 18F0090B Rx 8  FF FF FF 60 7D 10 7D 7D 
   1494      1753.363 DT 18F0010B Rx 8  C0 FF 3F FF FF 01 0B FC 
   1495      1753.649 DT 18FE4F0B Rx 8  F4 3F FF FF FF FF FF FF 
   1496      1753.933 DT 0CFF270B Rx 8  00 00 00 00 00 00 CC 34 
   1497      1754.220 DT 18FEF10B Rx 8  3F 00 00 CF FF FF CF 3F 
   1498      1754.505 DT 0CFF200B Rx 8  F0 00 32 FF FA 00 00 58 
   1499      1758.510 DT 0CFF6213 Rx 8  D3 7F FD 7F 00 AF 1F 8C 
   1500      1759.583 DT 0CFF2100 Rx 8  00 00 32 00 32 00 00 4F 
   1501      1759.885 DT 18FF2200 Rx 8  FC 00 00 BB 00 32 00 32 
   1502      1760.720 DT 0CF00400 Rx 8  FF FF FF 00 00 FF F6 70 
   1503      1761.028 DT 0CFF6600 Rx 8  00 00 8F 8A 01 00 00 FF 
   1504      1761.993 DT 10F0ED27 Rx 8  FC FF FF FF FF FF FF 0A 
   1505      1762.981 DT 18F0090B Rx 8  FF FF FF 60 7D 10 7D 7D 
   1506      1763.267 DT 0CFF200B Rx 8  F0 00 32 FF FA 00 00 69 
   1507      1768.603 DT 0CFF6213 Rx 8  D3 7F F8 7F 00 AF 2F 6B 
   1508      1768.888 DT 18FF6913 Rx 8  02 7D FB 7C AF 7F FF FF 
   1509      1769.603 DT 0CFF2100 Rx 8  00 00 32 00 32 00 00 40 
   1510      1769.910 DT 18FF2200 Rx 8  FC 00 00 BC 00 32 00 32 
   1511      1771.481 DT 18FEF100 Rx 8  FF FF FF 0C FF 00 F0 FF 
   1512      1771.772 DT 10FF6500 Rx 8  FF FF FF FF 3F FC FF FF 
   1513      1772.059 DT 18FEF200 Rx 8  00 00 00 00 99 14 60 FF 
   1514      1772.366 DT 18FF6D00 Rx 8  31 FF 31 FF FF FF FF FF 
   1515      1773.052 DT 18F0090B Rx 8  FF FF FF 60 7D 10 7D 7D 
   1516      1773.337 DT 0CFF270B Rx 8  00 00 00 00 00 00 DC 66 
   1517      1773.616 DT 0CFF200B Rx 8  F0 00 32 FF FA 00 00 7A 
   1518      1778.513 DT 0CFF6213 Rx 8  D3 7F EE 7F 00 AF 3F C4 
   1519      1779.587 DT 0CFF2100 Rx 8  00 00 32 00 32 00 00 51 
   1520      1779.890 DT 18FF2200 Rx 8  FC 00 00 BC 00 32 00 32 
   1521      1780.768 DT 0CF00400 Rx 8  FF FF FF 00 00 FF F6 70 
   1522      1781.072 DT 0CFF6600 Rx 8  00 00 8F 8A 01 00 00 FF 
   1523      1782.970 DT 18F0090B Rx 8  FF FF FF 60 7D 10 7D 7D 
   1524      1783.254 DT 0CFF200B Rx 8  F0 00 32 FF FA 00 00 0B 
   1525      1788.619 DT 0CFF6213 Rx 8  D3 7F F8 7F 00 AF 4F 52 
   1526      1789.584 DT 0CFF2100 Rx 8  00 00 32 00 32 00 00 62 
   1527      1789.886 DT 18FF2200 Rx 8  FC 00 00 BE 00 32 00 32 
   1528      1793.046 DT 18F0090B Rx 8  FF FF FF 60 7D 48 7D 7D 
