;$FILEVERSION=2.0
;$STARTTIME=45126.627700081
;$COLUMNS=N,O,T,I,d,l,D
;
;   Start time: 7/19/2023 15:03:53.287.0
;   Generated by PCAN-View v4.3.4.615
;-------------------------------------------------------------------------------
;   Connection                 Bit rate
;   PCANLight_USB_16@pcan_usb  500 kBit/s
;-------------------------------------------------------------------------------
;   Message   Time    Type ID     Rx/Tx
;   Number    Offset  |    [hex]  |  Data Length
;   |         [ms]    |    |      |  |  Data [hex] ...
;   |         |       |    |      |  |  |
;---+-- ------+------ +- --+----- +- +- +- +- -- -- -- -- -- -- --
      1         1.557 DT 0CFF6213 Rx 8  D2 7F F3 7F 00 AF 8F 20 
      2         1.841 DT 18FF6913 Rx 8  02 7D FE 7C EA 7F FF FF 
      3         5.675 DT 18F0090B Rx 8  FF FF FF 60 7D 48 7D 7D 
      4         5.966 DT 0CFF270B Rx 8  00 00 00 00 00 00 0C 46 
      5         6.252 DT 0CFF200B Rx 8  F0 00 32 FF FA 00 00 40 
      6         7.405 DT 0CFF2100 Rx 8  00 00 32 00 32 00 00 26 
      7         7.708 DT 18FF2200 Rx 8  FC 00 00 00 00 32 00 32 
      8         9.118 DT 18FEF100 Rx 8  FF FF FF 0C FF 00 F0 FF 
      9         9.427 DT 18FEF200 Rx 8  00 00 00 00 99 14 20 FF 
     10         9.731 DT 18FF6D00 Rx 8  31 FF 31 FF FF FF FF FF 
     11        11.599 DT 0CFF6213 Rx 8  D2 7F 01 80 00 AF 9F B3 
     12        15.661 DT 18F0090B Rx 8  FF FF FF 60 7D 48 7D 7D 
     13        15.940 DT 0CFF200B Rx 8  F0 00 32 FF FA 00 00 51 
     14        17.401 DT 0CFF2100 Rx 8  00 00 32 00 32 00 00 37 
     15        17.710 DT 18FF2200 Rx 8  FC 00 00 00 00 32 00 32 
     16        18.527 DT 0CF00400 Rx 8  FF FF FF 00 00 FF F6 6F 
     17        18.835 DT 0CFF6600 Rx 8  00 00 8F 8C 01 00 00 FF 
     18        21.463 DT 0CFF6213 Rx 8  D2 7F E9 7F 00 AF AF 45 
     19        25.687 DT 18F0090B Rx 8  FF FF FF 60 7D 48 7D 7D 
     20        25.978 DT 0CFF270B Rx 8  00 00 00 00 00 00 1C 14 
     21        26.258 DT 0CFF200B Rx 8  F0 00 32 FF FA 00 00 62 
     22        27.406 DT 0CFF2100 Rx 8  00 00 32 00 32 00 00 58 
     23        27.710 DT 18FF2200 Rx 8  FC 00 00 00 00 32 00 32 
     24        28.687 DT 18FEF127 Rx 8  F7 FF FF 0F FF FF 5F A7 
     25        29.012 DT 0C090027 Rx 8  7D FF FF FF FF FF FF FF 
     26        31.582 DT 0CFF6213 Rx 8  D2 7F F8 7F 00 AF BF 42 
     27        32.856 DT 10FF6541 Rx 8  FF FF FF CF FF C3 FF FF 
     28        33.169 DT 10FF6C41 Rx 8  00 FF FF FF FF FF FF FF 
     29        33.483 DT 18F00141 Rx 8  FF FF 3C FF FF FF FF FF 
     30        35.633 DT 18F0090B Rx 8  FF FF FF 60 7D 48 7D 7D 
     31        35.917 DT 0CFF200B Rx 8  F0 00 32 FF FA 00 00 73 
     32        37.403 DT 0CFF2100 Rx 8  00 00 32 00 32 00 00 69 
     33        37.711 DT 18FF2200 Rx 8  FC 00 00 00 00 32 00 32 
     34        38.562 DT 18FEF186 Rx 8  FF FF FF F3 CC FF AF 90 
     35        38.853 DT 0CF00400 Rx 8  FF FF FF 00 00 FF F6 6F 
     36        39.144 DT 0CFF8186 Rx 8  F3 FC FF FF FF FF FF FF 
     37        39.434 DT 0CFF6600 Rx 8  00 00 8F 8C 01 00 00 FF 
     38        39.721 DT 10FF6487 Rx 8  F0 FF FF FF FF C0 FF FF 
     39        40.012 DT 10FF6586 Rx 8  FC FF FF FF FF FF FF FF 
     40        40.303 DT 0CFF8187 Rx 8  FF F3 FF FF FF FF FF FF 
     41        41.548 DT 0CFF6213 Rx 8  D2 7F F3 7F 00 AF CF BD 
     42        45.640 DT 18F0090B Rx 8  FF FF FF 60 7D 48 7D 7D 
     43        45.931 DT 0CFF270B Rx 8  00 00 00 00 00 00 2C E2 
     44        46.215 DT 0CFF200B Rx 8  F0 00 32 FF FA 00 00 04 
     45        47.409 DT 0CFF2100 Rx 8  00 00 32 00 32 00 00 7A 
     46        47.719 DT 18FF2200 Rx 8  FC 00 00 00 00 32 00 32 
     47        51.460 DT 0CFF6213 Rx 8  D2 7F F8 7F 00 AF DF 7B 
     48        55.638 DT 18F0090B Rx 8  FF FF FF 60 7D 48 7D 7D 
     49        55.921 DT 0CFF200B Rx 8  F0 00 32 FF FA 00 00 15 
     50        57.407 DT 0CFF2100 Rx 8  00 00 32 00 32 00 00 0B 
     51        57.715 DT 18FF2200 Rx 8  FC 00 00 00 00 32 00 32 
     52        58.531 DT 0CF00400 Rx 8  FF FF FF 00 00 FF F6 6F 
     53        58.834 DT 0CFF6600 Rx 8  00 00 8F 8C 01 00 00 FF 
     54        61.467 DT 0CFF6213 Rx 8  D2 7F 01 80 00 AF EF D8 
     55        65.724 DT 18F0090B Rx 8  FF FF FF 60 7D 10 7D 7D 
     56        66.015 DT 0CFF270B Rx 8  00 00 00 00 00 00 3C B0 
     57        66.294 DT 0CFF200B Rx 8  F0 00 32 FF FA 00 00 26 
     58        67.403 DT 0CFF2100 Rx 8  00 00 32 00 32 00 00 1C 
     59        67.711 DT 18FF2200 Rx 8  FC 00 00 00 00 32 00 32 
     60        71.494 DT 0CFF6213 Rx 8  D2 7F FD 7F 00 AF FF CE 
     61        75.671 DT 18F0090B Rx 8  FF FF FF 60 7D 10 7D 7D 
     62        75.956 DT 0CFF200B Rx 8  F0 00 32 FF FA 00 00 47 
     63        77.407 DT 0CFF2100 Rx 8  00 00 32 00 32 00 00 2D 
     64        77.710 DT 18FF2200 Rx 8  FC 00 00 00 00 32 00 32 
     65        78.578 DT 0CF00400 Rx 8  FF FF FF 00 00 FF F6 6F 
     66        78.869 DT 18FF8627 Rx 8  F3 FF FF FF FF FF FF FF 
     67        79.160 DT 0CFF6600 Rx 8  00 00 8F 8C 01 00 00 FF 
     68        81.468 DT 0CFF6213 Rx 8  D2 7F 06 80 00 AF 0F A6 
     69        85.600 DT 18F0090B Rx 8  FF FF FF 60 7D 10 7D 7D 
     70        85.885 DT 18F0010B Rx 8  C0 FF 3F FF FF 01 0B FC 
     71        86.171 DT 18FE4F0B Rx 8  F4 3F FF FF FF FF FF FF 
     72        86.455 DT 0CFF270B Rx 8  00 00 00 00 00 00 4C DB 
     73        86.742 DT 18FEF10B Rx 8  3F 00 00 CF FF FF 4F BF 
     74        87.026 DT 0CFF200B Rx 8  F0 00 32 FF FA 00 00 58 
     75        87.460 DT 0CFF2100 Rx 8  00 00 32 00 32 00 00 3E 
     76        87.775 DT 18FF2200 Rx 8  FC 00 00 00 00 32 00 32 
     77        91.460 DT 0CFF6213 Rx 8  D2 7F F3 7F 00 AF 1F 9D 
     78        95.698 DT 18F0090B Rx 8  FF FF FF 60 7D 10 7D 7D 
     79        95.984 DT 0CFF200B Rx 8  F0 00 32 FF FA 00 00 69 
     80        97.400 DT 0CFF2100 Rx 8  00 00 32 00 32 00 00 4F 
     81        97.709 DT 18FF2200 Rx 8  FC 00 00 00 00 32 00 32 
     82        98.530 DT 0CF00400 Rx 8  FF FF FF 00 00 FF F6 6F 
     83        98.840 DT 0CFF6600 Rx 8  00 00 8F 8C 01 00 00 FF 
     84       101.496 DT 0CFF6213 Rx 8  D2 7F FD 7F 00 AF 2F EE 
     85       101.777 DT 18FF6913 Rx 8  02 7D 01 7D 1F 80 FF FF 
     86       105.622 DT 18F0090B Rx 8  FF FF FF 60 7D 48 7D 7D 
     87       105.906 DT 0CFF270B Rx 8  00 00 00 00 00 00 5C 89 
     88       106.192 DT 0CFF200B Rx 8  F0 00 32 FF FA 00 00 7A 
     89       107.409 DT 0CFF2100 Rx 8  00 00 32 00 32 00 00 40 
     90       107.712 DT 18FF2200 Rx 8  FC 00 00 00 00 32 00 32 
     91       109.288 DT 18FEF100 Rx 8  FF FF FF 0C FF 00 F0 FF 
     92       109.580 DT 10FF6500 Rx 8  FF FF FF FF 3F FC FF FF 
     93       109.870 DT 18FEF200 Rx 8  00 00 00 00 99 14 21 FF 
     94       110.179 DT 18FF6D00 Rx 8  31 FF 31 FF FF FF FF FF 
     95       111.453 DT 0CFF6213 Rx 8  D2 7F FD 7F 00 AF 3F BC 
     96       115.710 DT 18F0090B Rx 8  FF FF FF 60 7D 48 7D 7D 
     97       115.994 DT 0CFF200B Rx 8  F0 00 32 FF FA 00 00 0B 
     98       117.411 DT 0CFF2100 Rx 8  00 00 32 00 32 00 00 51 
     99       117.715 DT 18FF2200 Rx 8  FC 00 00 00 00 32 00 32 
    100       118.577 DT 0CF00400 Rx 8  FF FF FF 00 00 FF F6 6F 
    101       118.885 DT 0CFF6600 Rx 8  00 00 8F 8C 01 00 00 FF 
    102       121.461 DT 0CFF6213 Rx 8  D2 7F F8 7F 00 AF 4F C6 
    103       125.634 DT 18F0090B Rx 8  FF FF FF 60 7D 48 7D 7D 
    104       125.925 DT 0CFF270B Rx 8  00 00 00 00 00 00 6C 7F 
    105       126.209 DT 0CFF200B Rx 8  F0 00 32 FF FA 00 00 1C 
    106       127.409 DT 0CFF2100 Rx 8  00 00 32 00 32 00 00 62 
    107       127.713 DT 18FF2200 Rx 8  FC 00 00 00 00 32 00 32 
    108       128.683 DT 18FEF127 Rx 8  F7 FF FF 0F FF FF 6F 97 
    109       129.003 DT 0C090027 Rx 8  7D FF FF FF FF FF FF FF 
    110       131.527 DT 0CFF6213 Rx 8  D2 7F 01 80 00 AF 5F C1 
    111       132.877 DT 1CFF6A41 Rx 8  FF FF FF FF FF FF C0 FF 
    112       133.179 DT 18FF8341 Rx 8  FF FF 00 F0 FF FF FF FF 
    113       133.481 DT 18F00141 Rx 8  FF FF 3C FF FF FF FF FF 
    114       133.785 DT 18FF7041 Rx 8  00 00 00 F8 FF FF FF FF 
    115       134.086 DT 18FF7141 Rx 8  F0 00 F8 FF FF FF FF FF 
    116       134.371 DT 10FF6527 Rx 8  1F 03 FC F0 FF FF FF FF 
    117       135.731 DT 18F0090B Rx 8  FF FF FF 60 7D 48 7D 7D 
    118       136.011 DT 0CFF200B Rx 8  F0 00 32 FF FA 00 00 2D 
    119       137.410 DT 0CFF2100 Rx 8  00 00 32 00 32 00 00 73 
    120       137.714 DT 18FF2200 Rx 8  FC 00 00 00 00 32 00 32 
    121       138.542 DT 0CF00400 Rx 8  FF FF FF 00 00 FF F6 6F 
    122       138.822 DT 18FEF186 Rx 8  FF FF FF F3 CC FF BF 80 
    123       139.113 DT 0CFF6600 Rx 8  00 00 8F 8C 01 00 00 FF 
    124       139.404 DT 0CFF8186 Rx 8  F3 FC FF FF FF FF FF FF 
    125       139.696 DT 0CFF8187 Rx 8  FF F3 FF FF FF FF FF FF 
    126       141.460 DT 0CFF6213 Rx 8  D2 7F 06 80 00 AF 6F 9F 
    127       145.661 DT 18F0090B Rx 8  FF FF FF 60 7D 10 7D 7D 
    128       145.952 DT 0CFF270B Rx 8  00 00 00 00 00 00 7C 2D 
    129       146.236 DT 0CFF200B Rx 8  F0 00 32 FF FA 00 00 3E 
    130       147.414 DT 0CFF2100 Rx 8  00 00 32 00 32 00 00 04 
    131       147.722 DT 18FF2200 Rx 8  FC 00 00 00 00 32 00 32 
    132       151.532 DT 0CFF6213 Rx 8  D2 7F FD 7F 00 AF 7F 21 
    133       155.606 DT 18F0090B Rx 8  FF FF FF 60 7D 10 7D 7D 
    134       155.892 DT 0CFF200B Rx 8  F0 00 32 FF FA 00 00 5F 
    135       157.410 DT 0CFF2100 Rx 8  00 00 32 00 32 00 00 15 
    136       157.713 DT 18FF2200 Rx 8  FC 00 00 00 00 32 00 32 
    137       158.582 DT 0CF00400 Rx 8  FF FF FF 00 00 FF F6 6F 
    138       158.885 DT 0CFF6600 Rx 8  00 00 8F 8C 01 00 00 FF 
    139       161.495 DT 0CFF6213 Rx 8  D2 7F FD 7F 00 AF 8F A5 
    140       165.695 DT 18F0090B Rx 8  FF FF FF 60 7D 10 7D 7D 
    141       165.980 DT 0CFF270B Rx 8  00 00 00 00 00 00 8C A9 
    142       166.267 DT 0CFF200B Rx 8  F0 00 32 FF FA 00 00 40 
    143       167.405 DT 0CFF2100 Rx 8  00 00 32 00 32 00 00 26 
    144       167.713 DT 18FF2200 Rx 8  FC 00 00 00 00 32 00 32 
    145       171.541 DT 0CFF6213 Rx 8  D2 7F F3 7F 00 AF 9F 72 
    146       175.626 DT 18F0090B Rx 8  FF FF FF 60 7D 10 7D 7D 
    147       175.911 DT 0CFF200B Rx 8  F0 00 32 FF FA 00 00 51 
    148       177.408 DT 0CFF2100 Rx 8  00 00 32 00 32 00 00 37 
    149       177.716 DT 18FF2200 Rx 8  FC 00 00 00 00 32 00 32 
    150       178.532 DT 0CF00400 Rx 8  FF FF FF 00 00 FF F6 6F 
    151       178.819 DT 1CFF6A27 Rx 8  3F 9C FF F3 FF FF FF FF 
    152       179.110 DT 0CFF6600 Rx 8  00 00 8F 8C 01 00 00 FF 
    153       179.389 DT 10F0ED27 Rx 8  FC FF FF FF FF FF 4F 5A 
    154       179.709 DT 18FF8627 Rx 8  F3 FF FF FF FF FF FF FF 
    155       181.519 DT 0CFF6213 Rx 8  D2 7F FD 7F 00 AF AF 01 
    156       185.628 DT 18F0090B Rx 8  FF FF FF 60 7D 10 7D 7D 
    157       185.913 DT 18F0010B Rx 8  C0 FF 3F FF FF 01 0B FC 
    158       186.198 DT 18FE4F0B Rx 8  F4 3F FF FF FF FF FF FF 
    159       186.484 DT 0CFF270B Rx 8  00 00 00 00 00 00 9C FB 
    160       186.769 DT 18FEF10B Rx 8  3F 00 00 CF FF FF 5F AF 
    161       187.055 DT 0CFF200B Rx 8  F0 00 32 FF FA 00 00 62 
    162       187.460 DT 0CFF2100 Rx 8  00 00 32 00 32 00 00 58 
    163       187.769 DT 18FF2200 Rx 8  FC 00 00 00 00 32 00 32 
    164       191.620 DT 0CFF6213 Rx 8  D2 7F 01 80 00 AF BF 17 
    165       195.637 DT 18F0090B Rx 8  FF FF FF 60 7D 10 7D 7D 
    166       195.921 DT 0CFF200B Rx 8  F0 00 32 FF FA 00 00 73 
    167       197.407 DT 0CFF2100 Rx 8  00 00 32 00 32 00 00 69 
    168       197.710 DT 18FF2200 Rx 8  FC 00 00 00 00 32 00 32 
    169       198.578 DT 0CF00400 Rx 8  FF FF FF 00 00 FF F6 6F 
    170       198.887 DT 0CFF6600 Rx 8  00 00 8F 8C 01 00 00 FF 
    171       201.531 DT 0CFF6213 Rx 8  D2 7F E4 7F 00 AF CF F6 
    172       201.812 DT 18FF6913 Rx 8  02 7D 02 7D 31 80 FF FF 
    173       205.725 DT 18F0090B Rx 8  FF FF FF 60 7D 10 7D 7D 
    174       206.016 DT 0CFF270B Rx 8  00 00 00 00 00 00 AC 0D 
    175       206.301 DT 0CFF200B Rx 8  F0 00 32 FF FA 00 00 04 
    176       207.415 DT 0CFF2100 Rx 8  00 00 32 00 32 00 00 7A 
    177       207.718 DT 18FF2200 Rx 8  FC 00 00 00 00 32 00 32 
    178       209.123 DT 18FEF100 Rx 8  FF FF FF 0C FF 00 F0 FF 
    179       209.426 DT 18FEF200 Rx 8  00 00 00 00 99 14 20 FF 
    180       209.734 DT 18FF6D00 Rx 8  31 FF 31 FF FF FF FF FF 
    181       211.563 DT 0CFF6213 Rx 8  D2 7F 10 80 00 AF DF 7B 
    182       215.709 DT 18F0090B Rx 8  FF FF FF 60 7D 10 7D 7D 
    183       215.995 DT 0CFF200B Rx 8  F0 00 32 FF FA 00 00 15 
    184       217.411 DT 0CFF2100 Rx 8  00 00 32 00 32 00 00 0B 
    185       217.714 DT 18FF2200 Rx 8  FC 00 00 00 00 32 00 32 
    186       218.536 DT 0CF00400 Rx 8  FF FF FF 00 00 FF F6 6F 
    187       218.839 DT 0CFF6600 Rx 8  00 00 8F 8C 01 00 00 FF 
    188       221.553 DT 0CFF6213 Rx 8  D2 7F FD 7F 00 AF EF 9C 
    189       225.582 DT 18F0090B Rx 8  FF FF FF 60 7D 10 7D 7D 
    190       225.873 DT 0CFF270B Rx 8  00 00 00 00 00 00 BC 5F 
    191       226.153 DT 0CFF200B Rx 8  F0 00 32 FF FA 00 00 26 
    192       227.409 DT 0CFF2100 Rx 8  00 00 32 00 32 00 00 1C 
    193       227.718 DT 18FF2200 Rx 8  FC 00 00 00 00 32 00 32 
    194       228.677 DT 18FEF127 Rx 8  F7 FF FF 0F FF FF 7F 87 
    195       228.997 DT 0C090027 Rx 8  7D FF FF FF FF FF FF FF 
    196       231.574 DT 0CFF6213 Rx 8  D2 7F 01 80 00 AF FF 8A 
    197       232.814 DT 10FF6541 Rx 8  FF FF FF CF FF C3 FF FF 
    198       233.121 DT 10FF6C41 Rx 8  00 FF FF FF FF FF FF FF 
    199       233.423 DT 18D01741 Rx 8  FF FF FF FF FF FF FF FF 
    200       233.722 DT 18F00141 Rx 8  FF FF 3C FF FF FF FF FF 
    201       235.681 DT 18F0090B Rx 8  FF FF FF 60 7D 10 7D 7D 
    202       235.961 DT 0CFF200B Rx 8  F0 00 32 FF FA 00 00 47 
    203       237.411 DT 0CFF2100 Rx 8  00 00 32 00 32 00 00 2D 
    204       237.714 DT 18FF2200 Rx 8  FC 00 00 00 00 32 00 32 
    205       238.560 DT 18FEF186 Rx 8  FF FF FF F3 CC FF CF F0 
    206       238.851 DT 0CF00400 Rx 8  FF FF FF 00 00 FF F6 6F 
    207       239.142 DT 0CFF8186 Rx 8  F3 FC FF FF FF FF FF FF 
    208       239.433 DT 0CFF6600 Rx 8  00 00 8F 8C 01 00 00 FF 
    209       239.725 DT 0CFF8187 Rx 8  FF F3 FF FF FF FF FF FF 
    210       240.009 DT 10FF6586 Rx 8  FC FF FF FF FF FF FF FF 
    211       241.541 DT 0CFF6213 Rx 8  D2 7F 01 80 00 AF 0F 0E 
    212       245.626 DT 18F0090B Rx 8  FF FF FF 60 7D 10 7D 7D 
    213       245.917 DT 0CFF270B Rx 8  00 00 00 00 00 00 CC 34 
    214       246.197 DT 0CFF200B Rx 8  F0 00 32 FF FA 00 00 58 
    215       247.413 DT 0CFF2100 Rx 8  00 00 32 00 32 00 00 3E 
    216       247.717 DT 18FF2200 Rx 8  FC 00 00 00 00 32 00 32 
    217       251.653 DT 0CFF6213 Rx 8  D2 7F 15 80 00 AF 1F 18 
    218       255.635 DT 18F0090B Rx 8  FF FF FF 60 7D 10 7D 7D 
    219       255.919 DT 0CFF200B Rx 8  F0 00 32 FF FA 00 00 69 
    220       257.405 DT 0CFF2100 Rx 8  00 00 32 00 32 00 00 4F 
    221       257.713 DT 18FF2200 Rx 8  FC 00 00 00 00 32 00 32 
    222       258.536 DT 0CF00400 Rx 8  FF FF FF 00 00 FF F6 6F 
    223       258.839 DT 0CFF6600 Rx 8  00 00 8F 8C 01 00 00 FF 
    224       261.553 DT 0CFF6213 Rx 8  D2 7F F3 7F 00 AF 2F 6B 
    225       265.620 DT 18F0090B Rx 8  FF FF FF 60 7D 10 7D 7D 
    226       265.906 DT 0CFF270B Rx 8  00 00 00 00 00 00 DC 66 
    227       266.190 DT 0CFF200B Rx 8  F0 00 32 FF FA 00 00 7A 
    228       267.413 DT 0CFF2100 Rx 8  00 00 32 00 32 00 00 40 
    229       267.717 DT 18FF2200 Rx 8  FC 00 00 00 00 32 00 32 
    230       271.555 DT 0CFF6213 Rx 8  D2 7F 10 80 00 AF 3F AD 
    231       275.716 DT 18F0090B Rx 8  FF FF FF 60 7D 10 7D 7D 
    232       275.995 DT 0CFF200B Rx 8  F0 00 32 FF FA 00 00 0B 
    233       277.411 DT 0CFF2100 Rx 8  00 00 32 00 32 00 00 51 
    234       277.714 DT 18FF2200 Rx 8  FC 00 00 00 00 32 00 32 
    235       278.583 DT 0CF00400 Rx 8  FF FF FF 00 00 FF F6 6F 
    236       278.874 DT 18FF8627 Rx 8  F3 FF FF FF FF FF FF FF 
    237       279.165 DT 0CFF6600 Rx 8  00 00 8F 8C 01 00 00 FF 
    238       281.571 DT 0CFF6213 Rx 8  D2 7F FD 7F 00 AF 4F D7 
    239       285.650 DT 18F0090B Rx 8  FF FF FF 60 7D 48 7D 7D 
    240       285.936 DT 18F0010B Rx 8  C0 FF 3F FF FF 01 0B FC 
    241       286.221 DT 18FE4F0B Rx 8  F4 3F FF FF FF FF FF FF 
    242       286.507 DT 0CFF270B Rx 8  00 00 00 00 00 00 EC 90 
    243       286.799 DT 18FEF10B Rx 8  3F 00 00 CF FF FF 6F 9F 
    244       287.078 DT 0CFF200B Rx 8  F0 00 32 FF FA 00 00 1C 
    245       287.465 DT 0CFF2100 Rx 8  00 00 32 00 32 00 00 62 
    246       287.775 DT 18FF2200 Rx 8  FC 00 00 00 00 32 00 32 
    247       291.539 DT 0CFF6213 Rx 8  D2 7F F3 7F 00 AF 5F 00 
    248       295.590 DT 18F0090B Rx 8  FF FF FF 60 7D 48 7D 7D 
    249       295.869 DT 0CFF200B Rx 8  F0 00 32 FF FA 00 00 2D 
    250       297.417 DT 0CFF2100 Rx 8  00 00 32 00 32 00 00 73 
    251       297.721 DT 18FF2200 Rx 8  FC 00 00 00 00 32 00 32 
    252       298.542 DT 0CF00400 Rx 8  FF FF FF 00 00 FF F6 6F 
    253       298.828 DT 18FF7127 Rx 8  F0 FF FF FF FF FF FF FF 
    254       299.119 DT 0CFF6600 Rx 8  00 00 8F 8C 01 00 00 FF 
    255       299.410 DT 18FF2D27 Rx 8  FF FF FF F3 F3 FF FF FF 
    256       301.565 DT 0CFF6213 Rx 8  D2 7F F8 7F 00 AF 6F 62 
    257       301.850 DT 18FF6913 Rx 8  02 7D FA 7C 96 7F FF FF 
    258       305.576 DT 18F0090B Rx 8  FF FF FF 60 7D 48 7D 7D 
    259       305.867 DT 0CFF270B Rx 8  00 00 00 00 00 00 FC C2 
    260       306.152 DT 0CFF200B Rx 8  F0 00 32 FF FA 00 00 3E 
    261       307.318 DT 0CFF2100 Rx 8  00 00 32 00 32 00 00 04 
    262       307.621 DT 18FF2200 Rx 8  FC 00 00 00 00 32 00 32 
    263       309.215 DT 18FEF100 Rx 8  FF FF FF 0C FF 00 F0 FF 
    264       309.507 DT 10FF6500 Rx 8  FF FF FF FF 3F FC FF FF 
    265       309.791 DT 18FEF200 Rx 8  00 00 00 00 99 14 20 FF 
    266       310.100 DT 18FF6D00 Rx 8  31 FF 31 FF FF FF FF FF 
    267       311.454 DT 0CFF6213 Rx 8  D2 7F 0B 80 00 AF 7F 47 
    268       315.207 DT 18FF6E27 Rx 8  DF FF FF FF FF FF FF FF 
    269       315.602 DT 18F0090B Rx 8  FF FF FF 60 7D 48 7D 7D 
    270       315.882 DT 0CFF200B Rx 8  F0 00 32 FF FA 00 00 5F 
    271       317.315 DT 0CFF2100 Rx 8  00 00 32 00 32 00 00 15 
    272       317.619 DT 18FF2200 Rx 8  FC 00 00 00 00 32 00 32 
    273       318.486 DT 0CF00400 Rx 8  FF FF FF 00 00 FF F6 6F 
    274       318.788 DT 0CFF6600 Rx 8  00 00 8F 8C 01 00 00 FF 
    275       321.468 DT 0CFF6213 Rx 8  D2 7F F3 7F 00 AF 8F 20 
    276       325.526 DT 18F0090B Rx 8  FF FF FF 60 7D 48 7D 7D 
    277       325.817 DT 0CFF270B Rx 8  00 00 00 00 00 00 0C 46 
    278       326.097 DT 0CFF200B Rx 8  F0 00 32 FF FA 00 00 40 
    279       327.313 DT 0CFF2100 Rx 8  00 00 32 00 32 00 00 26 
    280       327.617 DT 18FF2200 Rx 8  FC 00 00 00 00 32 00 32 
    281       328.570 DT 18FEF127 Rx 8  F7 FF FF 0F FF FF 8F 77 
    282       328.888 DT 0C090027 Rx 8  7D FF FF FF FF FF FF FF 
    283       331.425 DT 0CFF6213 Rx 8  D2 7F F8 7F 00 AF 9F E6 
    284       332.899 DT 18F00141 Rx 8  FF FF 3C FF FF FF FF FF 
    285       334.035 DT 10FF6527 Rx 8  1F 03 FC F0 FF FF FF FF 
    286       335.510 DT 18F0090B Rx 8  FF FF FF 60 7D 48 7D 7D 
    287       335.790 DT 0CFF200B Rx 8  F0 00 32 FF FA 00 00 51 
    288       337.308 DT 0CFF2100 Rx 8  00 00 32 00 32 00 00 37 
    289       337.618 DT 18FF2200 Rx 8  FC 00 00 00 00 32 00 32 
    290       338.439 DT 0CF00400 Rx 8  FF FF FF 00 00 FF F6 6F 
    291       338.726 DT 18FEF186 Rx 8  FF FF FF F3 CC FF DF E0 
    292       339.017 DT 0CFF6600 Rx 8  00 00 8F 8C 01 00 00 FF 
    293       339.308 DT 0CFF8186 Rx 8  F3 FC FF FF FF FF FF FF 
    294       339.600 DT 0CFF8187 Rx 8  FF F3 FF FF FF FF FF FF 
    295       341.433 DT 0CFF6213 Rx 8  D2 7F FD 7F 00 AF AF 01 
    296       345.610 DT 18F0090B Rx 8  FF FF FF 60 7D 48 7D 7D 
    297       345.901 DT 0CFF270B Rx 8  00 00 00 00 00 00 1C 14 
    298       346.181 DT 0CFF200B Rx 8  F0 00 32 FF FA 00 00 62 
    299       347.311 DT 0CFF2100 Rx 8  00 00 32 00 32 00 00 58 
    300       347.614 DT 18FF2200 Rx 8  FC 00 00 00 00 32 00 32 
    301       351.430 DT 0CFF6213 Rx 8  D2 7F 01 80 00 AF BF 17 
    302       355.555 DT 18F0090B Rx 8  FF FF FF 60 7D 48 7D 7D 
    303       355.841 DT 0CFF200B Rx 8  F0 00 32 FF FA 00 00 73 
    304       357.309 DT 0CFF2100 Rx 8  00 00 32 00 32 00 00 69 
    305       357.617 DT 18FF2200 Rx 8  FC 00 00 00 00 32 00 32 
    306       358.486 DT 0CF00400 Rx 8  FF FF FF 00 00 FF F6 6F 
    307       358.789 DT 0CFF6600 Rx 8  00 00 8F 8C 01 00 00 FF 
    308       361.422 DT 0CFF6213 Rx 8  D2 7F 06 80 00 AF CF D4 
    309       365.485 DT 18F0090B Rx 8  FF FF FF 60 7D 10 7D 7D 
    310       365.770 DT 0CFF270B Rx 8  00 00 00 00 00 00 2C E2 
    311       366.055 DT 0CFF200B Rx 8  F0 00 32 FF FA 00 00 04 
    312       367.310 DT 0CFF2100 Rx 8  00 00 32 00 32 00 00 7A 
    313       367.620 DT 18FF2200 Rx 8  FC 00 00 00 00 32 00 32 
    314       371.435 DT 0CFF6213 Rx 8  D2 7F 01 80 00 AF DF 2E 
    315       372.721 DT 18FECA41 Rx 8  FF FF 00 00 00 00 FF FF 
    316       375.572 DT 18F0090B Rx 8  FF FF FF 60 7D 10 7D 7D 
    317       375.858 DT 0CFF200B Rx 8  F0 00 32 FF FA 00 00 15 
    318       377.314 DT 0CFF2100 Rx 8  00 00 32 00 32 00 00 0B 
    319       377.618 DT 18FF2200 Rx 8  FC 00 00 00 00 32 00 32 
    320       378.434 DT 0CF00400 Rx 8  FF FF FF 00 00 FF F6 6F 
    321       378.726 DT 18FF8627 Rx 8  F3 FF FF FF FF FF FF FF 
    322       379.017 DT 0CFF6600 Rx 8  00 00 8F 8C 01 00 00 FF 
    323       381.422 DT 0CFF6213 Rx 8  D2 7F 06 80 00 AF EF 70 
    324       385.513 DT 18F0090B Rx 8  FF FF FF 60 7D 10 7D 7D 
    325       385.799 DT 18F0010B Rx 8  C0 FF 3F FF FF 01 0B FC 
    326       386.083 DT 18FE4F0B Rx 8  F4 3F FF FF FF FF FF FF 
    327       386.374 DT 0CFF270B Rx 8  00 00 00 00 00 00 3C B0 
    328       386.661 DT 18FEF10B Rx 8  3F 00 00 CF FF FF 7F 8F 
    329       386.940 DT 0CFF200B Rx 8  F0 00 32 FF FA 00 00 26 
    330       387.362 DT 0CFF2100 Rx 8  00 00 32 00 32 00 00 1C 
    331       387.676 DT 18FF2200 Rx 8  FC 00 00 00 00 32 00 32 
    332       391.429 DT 0CFF6213 Rx 8  D2 7F 06 80 00 AF FF 22 
    333       395.544 DT 18F0090B Rx 8  FF FF FF 60 7D 10 7D 7D 
    334       395.823 DT 0CFF200B Rx 8  F0 00 32 FF FA 00 00 47 
    335       397.314 DT 0CFF2100 Rx 8  00 00 32 00 32 00 00 2D 
    336       397.617 DT 18FF2200 Rx 8  FC 00 00 00 00 32 00 32 
    337       398.485 DT 0CF00400 Rx 8  FF FF FF 00 00 FF F6 6F 
    338       398.794 DT 0CFF6600 Rx 8  00 00 8F 8C 01 00 00 FF 
    339       401.456 DT 0CFF6213 Rx 8  D2 7F FD 7F 00 AF 0F 4A 
    340       401.742 DT 18FF6913 Rx 8  02 7D FE 7C E7 7F FF FF 
    341       405.511 DT 18F0090B Rx 8  FF FF FF 60 7D 48 7D 7D 
    342       405.802 DT 0CFF270B Rx 8  00 00 00 00 00 00 4C DB 
    343       406.088 DT 0CFF200B Rx 8  F0 00 32 FF FA 00 00 58 
    344       407.309 DT 0CFF2100 Rx 8  00 00 32 00 32 00 00 3E 
    345       407.619 DT 18FF2200 Rx 8  FC 00 00 00 00 32 00 32 
    346       409.007 DT 18FEF100 Rx 8  FF FF FF 0C FF 00 F0 FF 
    347       409.309 DT 18FEF200 Rx 8  00 00 00 00 99 14 20 FF 
    348       409.617 DT 18FF6D00 Rx 8  31 FF 31 FF FF FF FF FF 
    349       411.348 DT 0CFF6213 Rx 8  D2 7F F3 7F 00 AF 1F 9D 
    350       415.702 DT 18F0090B Rx 8  FF FF FF 60 7D 48 7D 7D 
    351       415.987 DT 0CFF200B Rx 8  F0 00 32 FF FA 00 00 69 
    352       417.313 DT 0CFF2100 Rx 8  00 00 32 00 32 00 00 4F 
    353       417.616 DT 18FF2200 Rx 8  FC 00 00 00 00 32 00 32 
    354       418.456 DT 0CF00400 Rx 8  FF FF FF 00 00 FF F6 6F 
    355       418.758 DT 0CFF6600 Rx 8  00 00 8F 8C 01 00 00 FF 
    356       421.473 DT 0CFF6213 Rx 8  D2 7F F3 7F 00 AF 2F 6B 
    357       425.548 DT 18F0090B Rx 8  FF FF FF 60 7D 48 7D 7D 
    358       425.832 DT 0CFF270B Rx 8  00 00 00 00 00 00 5C 89 
    359       426.112 DT 0CFF200B Rx 8  F0 00 32 FF FA 00 00 7A 
    360       427.312 DT 0CFF2100 Rx 8  00 00 32 00 32 00 00 40 
    361       427.615 DT 18FF2200 Rx 8  FC 00 00 00 00 32 00 32 
    362       428.569 DT 18FEF127 Rx 8  F7 FF FF 0F FF FF 9F 67 
    363       428.888 DT 0C090027 Rx 8  7D FF FF FF FF FF FF FF 
    364       429.196 DT 10F0ED27 Rx 8  FC FF FF FF FF FF 5F 6A 
    365       431.430 DT 0CFF6213 Rx 8  D2 7F F3 7F 00 AF 3F 39 
    366       432.984 DT 10FF6541 Rx 8  FF FF FF CF FF C3 FF FF 
    367       433.309 DT 10FF6C41 Rx 8  00 FF FF FF FF FF FF FF 
    368       433.623 DT 18F00141 Rx 8  FF FF 3C FF FF FF FF FF 
    369       435.475 DT 18F0090B Rx 8  FF FF FF 60 7D 48 7D 7D 
    370       435.759 DT 0CFF200B Rx 8  F0 00 32 FF FA 00 00 0B 
    371       437.313 DT 0CFF2100 Rx 8  00 00 32 00 32 00 00 51 
    372       437.617 DT 18FF2200 Rx 8  FC 00 00 00 00 32 00 32 
    373       438.491 DT 0CF00400 Rx 8  FF FF FF 00 00 FF F6 6F 
    374       438.782 DT 0CFF8187 Rx 8  FF F3 FF FF FF FF FF FF 
    375       439.073 DT 0CFF6600 Rx 8  00 00 8F 8C 01 00 00 FF 
    376       439.353 DT 18FEF186 Rx 8  FF FF FF F3 CC FF EF D0 
    377       439.656 DT 0CFF8186 Rx 8  F3 FC FF FF FF FF FF FF 
    378       439.958 DT 10FF6586 Rx 8  FC FF FF FF FF FF FF FF 
    379       441.473 DT 0CFF6213 Rx 8  D2 7F 06 80 00 AF 4F 3B 
    380       445.557 DT 18F0090B Rx 8  FF FF FF 60 7D 48 7D 7D 
    381       445.848 DT 0CFF270B Rx 8  00 00 00 00 00 00 6C 7F 
    382       446.132 DT 0CFF200B Rx 8  F0 00 32 FF FA 00 00 1C 
    383       447.310 DT 0CFF2100 Rx 8  00 00 32 00 32 00 00 62 
    384       447.618 DT 18FF2200 Rx 8  FC 00 00 00 00 32 00 32 
    385       451.348 DT 0CFF6213 Rx 8  D2 7F 10 80 00 AF 5F 94 
    386       455.502 DT 18F0090B Rx 8  FF FF FF 60 7D 48 7D 7D 
    387       455.788 DT 0CFF200B Rx 8  F0 00 32 FF FA 00 00 2D 
    388       457.313 DT 0CFF2100 Rx 8  00 00 32 00 32 00 00 73 
    389       457.616 DT 18FF2200 Rx 8  FC 00 00 00 00 32 00 32 
    390       458.437 DT 0CF00400 Rx 8  FF FF FF 00 00 FF F6 6F 
    391       458.747 DT 0CFF6600 Rx 8  00 00 8F 8C 01 00 00 FF 
    392       461.484 DT 0CFF6213 Rx 8  D2 7F 10 80 00 AF 6F 62 
    393       465.517 DT 18F0090B Rx 8  FF FF FF 60 7D 10 7D 7D 
    394       465.807 DT 0CFF270B Rx 8  00 00 00 00 00 00 7C 2D 
    395       466.093 DT 0CFF200B Rx 8  F0 00 32 FF FA 00 00 3E 
    396       467.315 DT 0CFF2100 Rx 8  00 00 32 00 32 00 00 04 
    397       467.624 DT 18FF2200 Rx 8  FC 00 00 00 00 32 00 32 
    398       471.377 DT 0CFF6213 Rx 8  D2 7F F3 7F 00 AF 7F A4 
    399       475.521 DT 18F0090B Rx 8  FF FF FF 60 7D 10 7D 7D 
    400       475.805 DT 0CFF200B Rx 8  F0 00 32 FF FA 00 00 5F 
    401       477.319 DT 0CFF2100 Rx 8  00 00 32 00 32 00 00 15 
    402       477.622 DT 18FF2200 Rx 8  FC 00 00 00 00 32 00 32 
    403       478.484 DT 0CF00400 Rx 8  FF FF FF 00 00 FF F6 6F 
    404       478.775 DT 18FF8627 Rx 8  F3 FF FF FF FF FF FF FF 
    405       479.066 DT 0CFF6600 Rx 8  00 00 8F 8C 01 00 00 FF 
    406       481.493 DT 0CFF6213 Rx 8  D2 7F FD 7F 00 AF 8F A5 
    407       485.602 DT 18F0090B Rx 8  FF FF FF 60 7D 10 7D 7D 
    408       485.887 DT 18F0010B Rx 8  C0 FF 3F FF FF 01 0B FC 
    409       486.172 DT 18FE4F0B Rx 8  F4 3F FF FF FF FF FF FF 
    410       486.459 DT 0CFF270B Rx 8  00 00 00 00 00 00 8C A9 
    411       486.743 DT 18FEF10B Rx 8  3F 00 00 CF FF FF 8F 7F 
    412       487.029 DT 0CFF200B Rx 8  F0 00 32 FF FA 00 00 40 
    413       487.354 DT 0CFF2100 Rx 8  00 00 32 00 32 00 00 26 
    414       487.663 DT 18FF2200 Rx 8  FC 00 00 00 00 32 00 32 
    415       491.480 DT 0CFF6213 Rx 8  D2 7F FD 7F 00 AF 9F F7 
    416       495.547 DT 18F0090B Rx 8  FF FF FF 60 7D 10 7D 7D 
    417       495.826 DT 0CFF200B Rx 8  F0 00 32 FF FA 00 00 51 
    418       497.312 DT 0CFF2100 Rx 8  00 00 32 00 32 00 00 37 
    419       497.620 DT 18FF2200 Rx 8  FC 00 00 00 00 32 00 32 
    420       498.436 DT 0CF00400 Rx 8  FF FF FF 00 00 FF F6 6F 
    421       498.745 DT 0CFF6600 Rx 8  00 00 8F 8C 01 00 00 FF 
    422       501.494 DT 0CFF6213 Rx 8  D2 7F FD 7F 00 AF AF 01 
    423       501.778 DT 18FF6913 Rx 8  02 7D 00 7D 06 80 FF FF 
    424       505.475 DT 18F0090B Rx 8  FF FF FF 60 7D 10 7D 7D 
    425       505.766 DT 0CFF270B Rx 8  00 00 00 00 00 00 9C FB 
    426       506.045 DT 0CFF200B Rx 8  F0 00 32 FF FA 00 00 62 
    427       507.307 DT 0CFF2100 Rx 8  00 00 32 00 32 00 00 58 
    428       507.617 DT 18FF2200 Rx 8  FC 00 00 00 00 32 00 32 
    429       509.238 DT 18FEF100 Rx 8  FF FF FF 0C FF 00 F0 FF 
    430       509.530 DT 10FF6500 Rx 8  FF FF FF FF 3F FC FF FF 
    431       509.815 DT 18FEF200 Rx 8  00 00 00 00 99 14 20 FF 
    432       510.123 DT 18FF6D00 Rx 8  31 FF 31 FF FF FF FF FF 
    433       511.472 DT 0CFF6213 Rx 8  D2 7F 06 80 00 AF BF BF 
    434       515.699 DT 18F0090B Rx 8  FF FF FF 60 7D 10 7D 7D 
    435       515.985 DT 0CFF200B Rx 8  F0 00 32 FF FA 00 00 73 
    436       517.309 DT 0CFF2100 Rx 8  00 00 32 00 32 00 00 69 
    437       517.619 DT 18FF2200 Rx 8  FC 00 00 00 00 32 00 32 
    438       518.482 DT 0CF00400 Rx 8  FF FF FF 00 00 FF F6 6F 
    439       518.788 DT 0CFF6600 Rx 8  00 00 8F 8C 01 00 00 FF 
    440       521.509 DT 0CFF6213 Rx 8  D2 7F 06 80 00 AF CF D4 
    441       525.504 DT 18F0090B Rx 8  FF FF FF 60 7D 48 7D 7D 
    442       525.795 DT 0CFF270B Rx 8  00 00 00 00 00 00 AC 0D 
    443       526.079 DT 0CFF200B Rx 8  F0 00 32 FF FA 00 00 04 
    444       527.314 DT 0CFF2100 Rx 8  00 00 32 00 32 00 00 7A 
    445       527.622 DT 18FF2200 Rx 8  FC 00 00 00 00 32 00 32 
    446       528.560 DT 18FEF127 Rx 8  F7 FF FF 0F FF FF AF 57 
    447       528.878 DT 0C090027 Rx 8  7D FF FF FF FF FF FF FF 
    448       531.466 DT 0CFF6213 Rx 8  D2 7F FD 7F 00 AF DF 6A 
    449       532.678 DT 18F00141 Rx 8  FF FF 3C FF FF FF FF FF 
    450       534.025 DT 10FF6527 Rx 8  1F 03 FC F0 FF FF FF FF 
    451       535.505 DT 18F0090B Rx 8  FF FF FF 60 7D 48 7D 7D 
    452       535.791 DT 0CFF200B Rx 8  F0 00 32 FF FA 00 00 15 
    453       537.316 DT 0CFF2100 Rx 8  00 00 32 00 32 00 00 0B 
    454       537.624 DT 18FF2200 Rx 8  FC 00 00 00 00 32 00 32 
    455       538.441 DT 0CF00400 Rx 8  FF FF FF 00 00 FF F6 6F 
    456       538.727 DT 10FF6487 Rx 8  F0 FF FF FF FF C0 FF FF 
    457       539.018 DT 0CFF6600 Rx 8  00 00 8F 8C 01 00 00 FF 
    458       539.309 DT 0CFF8187 Rx 8  FF F3 FF FF FF FF FF FF 
    459       539.594 DT 18FEF186 Rx 8  FF FF FF F3 CC FF FF C0 
    460       539.896 DT 0CFF8186 Rx 8  F3 FC FF FF FF FF FF FF 
    461       541.491 DT 0CFF6213 Rx 8  D2 7F 0B 80 00 AF EF FA 
    462       545.513 DT 18F0090B Rx 8  FF FF FF 60 7D 10 7D 7D 
    463       545.804 DT 0CFF270B Rx 8  00 00 00 00 00 00 BC 5F 
    464       546.084 DT 0CFF200B Rx 8  F0 00 32 FF FA 00 00 26 
    465       546.375 DT 18FEC117 Rx 8  FF FF FF FF F8 E0 03 00 
    466       546.713 DT 18FEF717 Rx 8  FF FF FF FF F5 00 FF FF 
    467       547.061 DT 18FEF517 Rx 8  FF FF FF E0 24 FF FF FF 
    468       547.352 DT 0CFF2100 Rx 8  00 00 32 00 32 00 00 1C 
    469       547.630 DT 18FF7117 Rx 8  FF 00 F8 FF 29 A4 02 00 
    470       547.917 DT 18FF2200 Rx 8  FC 00 00 00 00 32 00 32 
    471       548.208 DT 18FECA17 Rx 8  FF FF 00 00 00 00 FF FF 
    472       551.477 DT 0CFF6213 Rx 8  D2 7F FD 7F 00 AF FF CE 
    473       555.608 DT 18F0090B Rx 8  FF FF FF 60 7D 10 7D 7D 
    474       555.888 DT 0CFF200B Rx 8  F0 00 32 FF FA 00 00 47 
    475       557.309 DT 0CFF2100 Rx 8  00 00 32 00 32 00 00 2D 
    476       557.612 DT 18FF2200 Rx 8  FC 00 00 00 00 32 00 32 
    477       558.480 DT 0CF00400 Rx 8  FF FF FF 00 00 FF F6 6F 
    478       558.789 DT 0CFF6600 Rx 8  00 00 8F 8C 01 00 00 FF 
    479       561.492 DT 0CFF6213 Rx 8  D2 7F 01 80 00 AF 0F 0E 
    480       565.536 DT 18F0090B Rx 8  FF FF FF 60 7D 48 7D 7D 
    481       565.827 DT 0CFF270B Rx 8  00 00 00 00 00 00 CC 34 
    482       566.106 DT 0CFF200B Rx 8  F0 00 32 FF FA 00 00 58 
    483       567.318 DT 0CFF2100 Rx 8  00 00 32 00 32 00 00 3E 
    484       567.621 DT 18FF2200 Rx 8  FC 00 00 00 00 32 00 32 
    485       568.019 DT 18FEEE00 Rx 8  44 FF FF FF FF FF FF FF 
    486       568.313 DT 18FECA00 Rx 8  40 FF 00 00 00 00 FF FF 
    487       568.602 DT 18FEFC00 Rx 8  FF FA FF FF FF FF FF FF 
    488       568.910 DT 18FEF700 Rx 8  FF FF FF FF F4 00 FF FF 
    489       569.224 DT 18FF2E00 Rx 8  38 FE FF FF FF FF FF FF 
    490       569.527 DT 18FEC100 Rx 8  A0 F1 42 00 00 00 00 00 
    491       571.406 DT 0CFF6213 Rx 8  D2 7F 01 80 00 AF 1F 5C 
    492       575.458 DT 18F0090B Rx 8  FF FF FF 60 7D 48 7D 7D 
    493       575.743 DT 0CFF200B Rx 8  F0 00 32 FF FA 00 00 69 
    494       577.313 DT 0CFF2100 Rx 8  00 00 32 00 32 00 00 4F 
    495       577.623 DT 18FF2200 Rx 8  FC 00 00 00 00 32 00 32 
    496       578.439 DT 0CF00400 Rx 8  FF FF FF 00 00 FF F6 6F 
    497       578.731 DT 18FF8627 Rx 8  F3 FF FF FF FF FF FF FF 
    498       579.022 DT 0CFF6600 Rx 8  00 00 8F 8C 01 00 00 FF 
    499       581.415 DT 0CFF6213 Rx 8  D2 7F F3 7F 00 AF 2F 6B 
    500       585.563 DT 18F0090B Rx 8  FF FF FF 60 7D 48 7D 7D 
    501       585.849 DT 18F0010B Rx 8  C0 FF 3F FF FF 01 0B FC 
    502       586.133 DT 18FE4F0B Rx 8  F4 3F FF FF FF FF FF FF 
    503       586.419 DT 0CFF270B Rx 8  00 00 00 00 00 00 DC 66 
    504       586.704 DT 18FEF10B Rx 8  3F 00 00 CF FF FF 9F 6F 
    505       586.990 DT 0CFF200B Rx 8  F0 00 32 FF FA 00 00 7A 
    506       587.366 DT 0CFF2100 Rx 8  00 00 32 00 32 00 00 40 
    507       587.676 DT 18FF2200 Rx 8  FC 00 00 00 00 32 00 32 
    508       591.406 DT 0CFF6213 Rx 8  D2 7F F8 7F 00 AF 3F AD 
    509       595.507 DT 18F0090B Rx 8  FF FF FF 60 7D 48 7D 7D 
    510       595.793 DT 0CFF200B Rx 8  F0 00 32 FF FA 00 00 0B 
    511       597.318 DT 0CFF2100 Rx 8  00 00 32 00 32 00 00 51 
    512       597.622 DT 18FF2200 Rx 8  FC 00 00 00 00 32 00 32 
    513       598.484 DT 0CF00400 Rx 8  FF FF FF 00 00 FF F6 6F 
    514       598.792 DT 0CFF6600 Rx 8  00 00 8F 8C 01 00 00 FF 
    515       601.379 DT 0CFF6213 Rx 8  D2 7F FD 7F 00 AF 4F D7 
    516       601.659 DT 18FF6913 Rx 8  02 7D FF 7C F6 7F FF FF 
    517       605.499 DT 18F0090B Rx 8  FF FF FF 60 7D 48 7D 7D 
    518       605.784 DT 0CFF270B Rx 8  00 00 00 00 00 00 EC 90 
    519       606.070 DT 0CFF200B Rx 8  F0 00 32 FF FA 00 00 1C 
    520       607.314 DT 0CFF2100 Rx 8  00 00 32 00 32 00 00 62 
    521       607.624 DT 18FF2200 Rx 8  FC 00 00 00 00 32 00 32 
    522       609.039 DT 18FEF100 Rx 8  FF FF FF 0C FF 00 F0 FF 
    523       609.348 DT 18FEF200 Rx 8  00 00 00 00 99 14 20 FF 
    524       609.651 DT 18FF6D00 Rx 8  31 FF 31 FF FF FF FF FF 
    525       611.416 DT 0CFF6213 Rx 8  D2 7F 0B 80 00 AF 5F E3 
    526       615.548 DT 18F0090B Rx 8  FF FF FF 60 7D 48 7D 7D 
    527       615.832 DT 0CFF200B Rx 8  F0 00 32 FF FA 00 00 2D 
    528       617.318 DT 0CFF2100 Rx 8  00 00 32 00 32 00 00 73 
    529       617.626 DT 18FF2200 Rx 8  FC 00 00 00 00 32 00 32 
    530       618.443 DT 0CF00400 Rx 8  FF FF FF 00 00 FF F6 6F 
    531       618.751 DT 0CFF6600 Rx 8  00 00 8F 8C 01 00 00 FF 
    532       621.385 DT 0CFF6213 Rx 8  D2 7F F8 7F 00 AF 6F 62 
    533       625.574 DT 18F0090B Rx 8  FF FF FF 60 7D 48 7D 7D 
    534       625.859 DT 0CFF270B Rx 8  00 00 00 00 00 00 FC C2 
    535       626.145 DT 0CFF200B Rx 8  F0 00 32 FF FA 00 00 3E 
    536       627.321 DT 0CFF2100 Rx 8  00 00 32 00 32 00 00 04 
    537       627.630 DT 18FF2200 Rx 8  FC 00 00 00 00 32 00 32 
    538       628.555 DT 18FEF127 Rx 8  F7 FF FF 0F FF FF BF 47 
    539       628.880 DT 0C090027 Rx 8  7D FF FF FF FF FF FF FF 
    540       631.421 DT 0CFF6213 Rx 8  D2 7F F3 7F 00 AF 7F A4 
    541       632.776 DT 10FF6541 Rx 8  FF FF FF CF FF C3 FF FF 
    542       633.088 DT 10FF6C41 Rx 8  00 FF FF FF FF FF FF FF 
    543       633.397 DT 1CFF6A41 Rx 8  FF FF FF FF FF FF C0 FF 
    544       633.705 DT 18F00141 Rx 8  FF FF 3C FF FF FF FF FF 
    545       635.493 DT 18F0090B Rx 8  FF FF FF 60 7D 48 7D 7D 
    546       635.779 DT 0CFF200B Rx 8  F0 00 32 FF FA 00 00 5F 
    547       637.315 DT 0CFF2100 Rx 8  00 00 32 00 32 00 00 15 
    548       637.619 DT 18FF2200 Rx 8  FC 00 00 00 00 32 00 32 
    549       638.459 DT 18FEF186 Rx 8  FF FF FF F3 CC FF 0F 30 
    550       638.750 DT 0CF00400 Rx 8  FF FF FF 00 00 FF F6 6F 
    551       639.034 DT 0CFF8186 Rx 8  F3 FC FF FF FF FF FF FF 
    552       639.325 DT 0CFF6600 Rx 8  00 00 8F 8C 01 00 00 FF 
    553       639.617 DT 0CFF8187 Rx 8  FF F3 FF FF FF FF FF FF 
    554       639.907 DT 10FF6586 Rx 8  FC FF FF FF FF FF FF FF 
    555       641.393 DT 0CFF6213 Rx 8  D2 7F F8 7F 00 AF 8F B4 
    556       645.426 DT 18F0090B Rx 8  FF FF FF 60 7D 48 7D 7D 
    557       645.712 DT 0CFF270B Rx 8  00 00 00 00 00 00 0C 46 
    558       645.997 DT 0CFF200B Rx 8  F0 00 32 FF FA 00 00 40 
    559       647.311 DT 0CFF2100 Rx 8  00 00 32 00 32 00 00 26 
    560       647.615 DT 18FF2200 Rx 8  FC 00 00 00 00 32 00 32 
    561       651.379 DT 0CFF6213 Rx 8  D2 7F FD 7F 00 AF 9F F7 
    562       655.534 DT 18F0090B Rx 8  FF FF FF 60 7D 48 7D 7D 
    563       655.818 DT 0CFF200B Rx 8  F0 00 32 FF FA 00 00 51 
    564       657.315 DT 0CFF2100 Rx 8  00 00 32 00 32 00 00 37 
    565       657.619 DT 18FF2200 Rx 8  FC 00 00 00 00 32 00 32 
    566       658.441 DT 0CF00400 Rx 8  FF FF FF 00 00 FF F6 6F 
    567       658.743 DT 0CFF6600 Rx 8  00 00 8F 8C 01 00 00 FF 
    568       661.394 DT 0CFF6213 Rx 8  D2 7F F8 7F 00 AF AF 10 
    569       665.485 DT 18F0090B Rx 8  FF FF FF 60 7D 48 7D 7D 
    570       665.775 DT 0CFF270B Rx 8  00 00 00 00 00 00 1C 14 
    571       666.061 DT 0CFF200B Rx 8  F0 00 32 FF FA 00 00 62 
    572       667.312 DT 0CFF2100 Rx 8  00 00 32 00 32 00 00 58 
    573       667.620 DT 18FF2200 Rx 8  FC 00 00 00 00 32 00 32 
    574       671.402 DT 0CFF6213 Rx 8  D2 7F EE 7F 00 AF BF BF 
    575       675.512 DT 18F0090B Rx 8  FF FF FF 60 7D 48 7D 7D 
    576       675.791 DT 0CFF200B Rx 8  F0 00 32 FF FA 00 00 73 
    577       677.316 DT 0CFF2100 Rx 8  00 00 32 00 32 00 00 69 
    578       677.619 DT 18FF2200 Rx 8  FC 00 00 00 00 32 00 32 
    579       678.487 DT 0CF00400 Rx 8  FF FF FF 00 00 FF F6 6F 
    580       678.773 DT 1CFF6A27 Rx 8  3F 9C FF F3 FF FF FF FF 
    581       679.064 DT 0CFF6600 Rx 8  00 00 8F 8C 01 00 00 FF 
    582       679.344 DT 10F0ED27 Rx 8  FC FF FF FF FF FF 6F 7A 
    583       679.663 DT 18FF8627 Rx 8  F3 FF FF FF FF FF FF FF 
    584       681.400 DT 0CFF6213 Rx 8  D2 7F EE 7F 00 AF CF D4 
    585       685.498 DT 18F0090B Rx 8  FF FF FF 60 7D 48 7D 7D 
    586       685.782 DT 18F0010B Rx 8  C0 FF 3F FF FF 01 0B FC 
    587       686.068 DT 18FE4F0B Rx 8  F4 3F FF FF FF FF FF FF 
    588       686.353 DT 0CFF270B Rx 8  00 00 00 00 00 00 2C E2 
    589       686.639 DT 18FEF10B Rx 8  3F 00 00 CF FF FF AF 5F 
    590       686.924 DT 18FEF70B Rx 8  FF FF FF FF F3 00 F3 00 
    591       687.210 DT 0CFF200B Rx 8  F0 00 32 FF FA 00 00 04 
    592       687.502 DT 0CFF2100 Rx 8  00 00 32 00 32 00 00 7A 
    593       687.809 DT 18FF2200 Rx 8  FC 00 00 00 00 32 00 32 
    594       691.402 DT 0CFF6213 Rx 8  D2 7F 06 80 00 AF DF 86 
    595       695.597 DT 18F0090B Rx 8  FF FF FF 60 7D 48 7D 7D 
    596       695.882 DT 0CFF200B Rx 8  F0 00 32 FF FA 00 00 15 
    597       697.315 DT 0CFF2100 Rx 8  00 00 32 00 32 00 00 0B 
    598       697.625 DT 18FF2200 Rx 8  FC 00 00 00 00 32 00 32 
    599       698.442 DT 0CF00400 Rx 8  FF FF FF 00 00 FF F6 6F 
    600       698.749 DT 0CFF6600 Rx 8  00 00 8F 8C 01 00 00 FF 
    601       699.263 DT 18FECA0B Rx 8  00 FF 00 00 00 00 FF FF 
    602       701.417 DT 0CFF6213 Rx 8  D2 7F E9 7F 00 AF EF D8 
    603       701.702 DT 18FF6913 Rx 8  02 7D 00 7D 0F 80 FF FF 
    604       705.508 DT 18F0090B Rx 8  FF FF FF 60 7D 48 7D 7D 
    605       705.799 DT 0CFF270B Rx 8  00 00 00 00 00 00 3C B0 
    606       706.078 DT 0CFF200B Rx 8  F0 00 32 FF FA 00 00 26 
    607       707.318 DT 0CFF2100 Rx 8  00 00 32 00 32 00 00 1C 
    608       707.621 DT 18FF2200 Rx 8  FC 00 00 00 00 32 00 32 
    609       709.202 DT 18FEF100 Rx 8  FF FF FF 0C FF 00 F0 FF 
    610       709.494 DT 10FF6500 Rx 8  FF FF FF FF 3F FC FF FF 
    611       709.779 DT 18FEF200 Rx 8  00 00 00 00 99 14 20 FF 
    612       710.088 DT 18FF6D00 Rx 8  31 FF 31 FF FF FF FF FF 
    613       711.400 DT 0CFF6213 Rx 8  D2 7F F8 7F 00 AF FF DF 
    614       715.732 DT 18F0090B Rx 8  FF FF FF 60 7D 48 7D 7D 
    615       716.017 DT 0CFF200B Rx 8  F0 00 32 FF FA 00 00 47 
    616       717.308 DT 0CFF2100 Rx 8  00 00 32 00 32 00 00 2D 
    617       717.617 DT 18FF2200 Rx 8  FC 00 00 00 00 32 00 32 
    618       718.491 DT 0CF00400 Rx 8  FF FF FF 00 00 FF F6 6F 
    619       718.799 DT 0CFF6600 Rx 8  00 00 8F 8C 01 00 00 FF 
    620       721.403 DT 0CFF6213 Rx 8  D2 7F 0B 80 00 AF 0F 2C 
    621       725.508 DT 18F0090B Rx 8  FF FF FF 60 7D 48 7D 7D 
    622       725.792 DT 0CFF270B Rx 8  00 00 00 00 00 00 4C DB 
    623       726.078 DT 0CFF200B Rx 8  F0 00 32 FF FA 00 00 58 
    624       727.317 DT 0CFF2100 Rx 8  00 00 32 00 32 00 00 3E 
    625       727.626 DT 18FF2200 Rx 8  FC 00 00 00 00 32 00 32 
    626       728.552 DT 18FEF127 Rx 8  F7 FF FF 0F FF FF CF 37 
    627       728.877 DT 0C090027 Rx 8  7D FF FF FF FF FF FF FF 
    628       731.443 DT 0CFF6213 Rx 8  D2 7F FD 7F 00 AF 1F 18 
    629       732.979 DT 18F00141 Rx 8  FF FF 3C FF FF FF FF FF 
    630       734.013 DT 10FF6527 Rx 8  1F 03 FC F0 FF FF FF FF 
    631       735.418 DT 18F0090B Rx 8  FF FF FF 60 7D 48 7D 7D 
    632       735.704 DT 0CFF200B Rx 8  F0 00 32 FF FA 00 00 69 
    633       737.309 DT 0CFF2100 Rx 8  00 00 32 00 32 00 00 4F 
    634       737.617 DT 18FF2200 Rx 8  FC 00 00 00 00 32 00 32 
    635       738.441 DT 0CF00400 Rx 8  FF FF FF 00 00 FF F6 6F 
    636       738.720 DT 18FEF186 Rx 8  FF FF FF F3 CC FF 1F 20 
    637       739.011 DT 0CFF6600 Rx 8  00 00 8F 8C 01 00 00 FF 
    638       739.302 DT 0CFF8186 Rx 8  F3 FC FF FF FF FF FF FF 
    639       739.594 DT 0CFF8187 Rx 8  FF F3 FF FF FF FF FF FF 
    640       741.409 DT 0CFF6213 Rx 8  D2 7F 10 80 00 AF 2F FF 
    641       745.529 DT 18F0090B Rx 8  FF FF FF 60 7D 48 7D 7D 
    642       745.815 DT 0CFF270B Rx 8  00 00 00 00 00 00 5C 89 
    643       746.099 DT 0CFF200B Rx 8  F0 00 32 FF FA 00 00 7A 
    644       747.321 DT 0CFF2100 Rx 8  00 00 32 00 32 00 00 40 
    645       747.625 DT 18FF2200 Rx 8  FC 00 00 00 00 32 00 32 
    646       751.452 DT 0CFF6213 Rx 8  D2 7F 10 80 00 AF 3F AD 
    647       753.063 DT 19FF1741 Rx 8  FF FF FF FF FF FF FF FF 
    648       755.485 DT 18F0090B Rx 8  FF FF FF 60 7D 48 7D 7D 
    649       755.771 DT 0CFF200B Rx 8  F0 00 32 FF FA 00 00 0B 
    650       757.313 DT 0CFF2100 Rx 8  00 00 32 00 32 00 00 51 
    651       757.622 DT 18FF2200 Rx 8  FC 00 00 00 00 32 00 32 
    652       758.485 DT 0CF00400 Rx 8  FF FF FF 00 00 FF F6 6F 
    653       758.792 DT 0CFF6600 Rx 8  00 00 8F 8C 01 00 00 FF 
    654       761.414 DT 0CFF6213 Rx 8  D2 7F F3 7F 00 AF 4F 52 
    655       762.523 DT 18FECA13 Rx 8  00 FF 00 00 00 00 FF FF 
    656       765.494 DT 18F0090B Rx 8  FF FF FF 60 7D 48 7D 7D 
    657       765.784 DT 0CFF270B Rx 8  00 00 00 00 00 00 6C 7F 
    658       766.070 DT 0CFF200B Rx 8  F0 00 32 FF FA 00 00 1C 
    659       767.315 DT 0CFF2100 Rx 8  00 00 32 00 32 00 00 62 
    660       767.618 DT 18FF2200 Rx 8  FC 00 00 00 00 32 00 32 
    661       771.451 DT 0CFF6213 Rx 8  D2 7F F8 7F 00 AF 5F 94 
    662       775.475 DT 18F0090B Rx 8  FF FF FF 60 7D 48 7D 7D 
    663       775.754 DT 0CFF200B Rx 8  F0 00 32 FF FA 00 00 2D 
    664       777.314 DT 0CFF2100 Rx 8  00 00 32 00 32 00 00 73 
    665       777.622 DT 18FF2200 Rx 8  FC 00 00 00 00 32 00 32 
    666       778.439 DT 0CF00400 Rx 8  FF FF FF 00 00 FF F6 6F 
    667       778.729 DT 18FF8627 Rx 8  F3 FF FF FF FF FF FF FF 
    668       779.020 DT 0CFF6600 Rx 8  00 00 8F 8C 01 00 00 FF 
    669       781.408 DT 0CFF6213 Rx 8  D2 7F 06 80 00 AF 6F 9F 
    670       785.562 DT 18F0090B Rx 8  FF FF FF 60 7D 10 7D 7D 
    671       785.846 DT 18F0010B Rx 8  C0 FF 3F FF FF 01 0B FC 
    672       786.132 DT 18FE4F0B Rx 8  F4 3F FF FF FF FF FF FF 
    673       786.423 DT 0CFF270B Rx 8  00 00 00 00 00 00 7C 2D 
    674       786.708 DT 18FEF10B Rx 8  3F 00 00 CF FF FF BF 4F 
    675       786.994 DT 0CFF200B Rx 8  F0 00 32 FF FA 00 00 3E 
    676       787.365 DT 0CFF2100 Rx 8  00 00 32 00 32 00 00 04 
    677       787.680 DT 18FF2200 Rx 8  FC 00 00 00 00 32 00 32 
    678       791.484 DT 0CFF6213 Rx 8  D2 7F FD 7F 00 AF 7F 21 
    679       795.496 DT 18F0090B Rx 8  FF FF FF 60 7D 10 7D 7D 
    680       795.780 DT 0CFF200B Rx 8  F0 00 32 FF FA 00 00 5F 
    681       797.316 DT 0CFF2100 Rx 8  00 00 32 00 32 00 00 15 
    682       797.626 DT 18FF2200 Rx 8  FC 00 00 00 00 32 00 32 
    683       798.489 DT 0CF00400 Rx 8  FF FF FF 00 00 FF F6 6F 
    684       798.791 DT 0CFF6600 Rx 8  00 00 8F 8C 01 00 00 FF 
    685       801.430 DT 0CFF6213 Rx 8  D2 7F FD 7F 00 AF 8F A5 
    686       801.709 DT 18FF6913 Rx 8  02 7D FD 7C D1 7F FF FF 
    687       804.029 DT 18FECA27 Rx 8  00 FF 00 00 00 00 FF FF 
    688       805.453 DT 18F0090B Rx 8  FF FF FF 60 7D 10 7D 7D 
    689       805.744 DT 0CFF270B Rx 8  00 00 00 00 00 00 8C A9 
    690       806.023 DT 0CFF200B Rx 8  F0 00 32 FF FA 00 00 40 
    691       807.314 DT 0CFF2100 Rx 8  00 00 32 00 32 00 00 26 
    692       807.623 DT 18FF2200 Rx 8  FC 00 00 00 00 32 00 32 
    693       809.027 DT 18FEF100 Rx 8  FF FF FF 0C FF 00 F0 FF 
    694       809.330 DT 18FEF200 Rx 8  00 00 00 00 99 14 20 FF 
    695       809.639 DT 18FF6D00 Rx 8  31 FF 31 FF FF FF FF FF 
    696       811.485 DT 0CFF6213 Rx 8  D2 7F 01 80 00 AF 9F B3 
    697       815.673 DT 18F0090B Rx 8  FF FF FF 60 7D 10 7D 7D 
    698       815.957 DT 0CFF200B Rx 8  F0 00 32 FF FA 00 00 51 
    699       817.317 DT 0CFF2100 Rx 8  00 00 32 00 32 00 00 37 
    700       817.620 DT 18FF2200 Rx 8  FC 00 00 00 00 32 00 32 
    701       818.437 DT 0CF00400 Rx 8  FF FF FF 00 00 FF F6 6F 
    702       818.740 DT 0CFF6600 Rx 8  00 00 8F 8C 01 00 00 FF 
    703       821.459 DT 0CFF6213 Rx 8  D2 7F FD 7F 00 AF AF 01 
    704       825.498 DT 18F0090B Rx 8  FF FF FF 60 7D 10 7D 7D 
    705       825.784 DT 0CFF270B Rx 8  00 00 00 00 00 00 9C FB 
    706       826.068 DT 0CFF200B Rx 8  F0 00 32 FF FA 00 00 62 
    707       827.314 DT 0CFF2100 Rx 8  00 00 32 00 32 00 00 58 
    708       827.622 DT 18FF2200 Rx 8  FC 00 00 00 00 32 00 32 
    709       828.553 DT 18FEF127 Rx 8  F7 FF FF 0F FF FF DF 27 
    710       828.873 DT 0C090027 Rx 8  7D FF FF FF FF FF FF FF 
    711       831.478 DT 0CFF6213 Rx 8  D2 7F 06 80 00 AF BF BF 
    712       832.918 DT 10FF6541 Rx 8  FF FF FF CF FF C3 FF FF 
    713       833.266 DT 10FF6C41 Rx 8  00 FF FF FF FF FF FF FF 
    714       833.597 DT 18F00141 Rx 8  FF FF 3C FF FF FF FF FF 
    715       835.500 DT 18F0090B Rx 8  FF FF FF 60 7D 10 7D 7D 
    716       835.779 DT 0CFF200B Rx 8  F0 00 32 FF FA 00 00 73 
    717       837.310 DT 0CFF2100 Rx 8  00 00 32 00 32 00 00 69 
    718       837.619 DT 18FF2200 Rx 8  FC 00 00 00 00 32 00 32 
    719       838.465 DT 18FEF186 Rx 8  FF FF FF F3 CC FF 2F 10 
    720       838.749 DT 0CF00400 Rx 8  FF FF FF 00 00 FF F6 6F 
    721       839.040 DT 0CFF8186 Rx 8  F3 FC FF FF FF FF FF FF 
    722       839.331 DT 0CFF6600 Rx 8  00 00 8F 8C 01 00 00 FF 
    723       839.622 DT 0CFF8187 Rx 8  FF F3 FF FF FF FF FF FF 
    724       839.913 DT 10FF6586 Rx 8  FC FF FF FF FF FF FF FF 
    725       841.450 DT 0CFF6213 Rx 8  D2 7F 01 80 00 AF CF 7C 
    726       845.489 DT 18F0090B Rx 8  FF FF FF 60 7D 10 7D 7D 
    727       845.775 DT 0CFF270B Rx 8  00 00 00 00 00 00 AC 0D 
    728       846.066 DT 0CFF200B Rx 8  F0 00 32 FF FA 00 00 04 
    729       847.317 DT 0CFF2100 Rx 8  00 00 32 00 32 00 00 7A 
    730       847.620 DT 18FF2200 Rx 8  FC 00 00 00 00 32 00 32 
    731       848.808 DT 18D0FF17 Rx 8  16 FF FF FF FF FF FF FF 
    732       851.487 DT 0CFF6213 Rx 8  D2 7F F8 7F 00 AF DF 7B 
    733       855.579 DT 18F0090B Rx 8  FF FF FF 60 7D 10 7D 7D 
    734       855.863 DT 0CFF200B Rx 8  F0 00 32 FF FA 00 00 15 
    735       857.319 DT 0CFF2100 Rx 8  00 00 32 00 32 00 00 0B 
    736       857.629 DT 18FF2200 Rx 8  FC 00 00 00 00 32 00 32 
    737       858.434 DT 0CF00400 Rx 8  FF FF FF 00 00 FF F6 6F 
    738       858.742 DT 0CFF6600 Rx 8  00 00 8F 8C 01 00 00 FF 
    739       861.444 DT 0CFF6213 Rx 8  D2 7F 01 80 00 AF EF D8 
    740       865.500 DT 18F0090B Rx 8  FF FF FF 60 7D 10 7D 7D 
    741       865.785 DT 0CFF270B Rx 8  00 00 00 00 00 00 BC 5F 
    742       866.071 DT 0CFF200B Rx 8  F0 00 32 FF FA 00 00 26 
    743       867.333 DT 0CFF2100 Rx 8  00 00 32 00 32 00 00 1C 
    744       867.636 DT 18FF2200 Rx 8  FC 00 00 00 00 32 00 32 
    745       871.482 DT 0CFF6213 Rx 8  D2 7F F3 7F 00 AF FF 4B 
    746       875.458 DT 18F0090B Rx 8  FF FF FF 60 7D 10 7D 7D 
    747       875.744 DT 0CFF200B Rx 8  F0 00 32 FF FA 00 00 47 
    748       877.308 DT 0CFF2100 Rx 8  00 00 32 00 32 00 00 2D 
    749       877.617 DT 18FF2200 Rx 8  FC 00 00 00 00 32 00 32 
    750       878.480 DT 0CF00400 Rx 8  FF FF FF 00 00 FF F6 6F 
    751       878.764 DT 18FF8627 Rx 8  F3 FF FF FF FF FF FF FF 
    752       879.055 DT 0CFF6600 Rx 8  00 00 8F 8C 01 00 00 FF 
    753       881.449 DT 0CFF6213 Rx 8  D2 7F FD 7F 00 AF 0F 4A 
    754       885.564 DT 18F0090B Rx 8  FF FF FF 60 7D 10 7D 7D 
    755       885.849 DT 18F0010B Rx 8  C0 FF 3F FF FF 01 0B FC 
    756       886.135 DT 18FE4F0B Rx 8  F4 3F FF FF FF FF FF FF 
    757       886.419 DT 0CFF270B Rx 8  00 00 00 00 00 00 CC 34 
    758       886.706 DT 18FEF10B Rx 8  3F 00 00 CF FF FF CF 3F 
    759       886.985 DT 0CFF200B Rx 8  F0 00 32 FF FA 00 00 58 
    760       887.368 DT 0CFF2100 Rx 8  00 00 32 00 32 00 00 3E 
    761       887.682 DT 18FF2200 Rx 8  FC 00 00 00 00 32 00 32 
    762       891.367 DT 0CFF6213 Rx 8  D2 7F F3 7F 00 AF 1F 9D 
    763       895.499 DT 18F0090B Rx 8  FF FF FF 60 7D 10 7D 7D 
    764       895.783 DT 0CFF200B Rx 8  F0 00 32 FF FA 00 00 69 
    765       897.314 DT 0CFF2100 Rx 8  00 00 32 00 32 00 00 4F 
    766       897.618 DT 18FF2200 Rx 8  FC 00 00 00 00 32 00 32 
    767       898.434 DT 0CF00400 Rx 8  FF FF FF 00 00 FF F6 6F 
    768       898.742 DT 0CFF6600 Rx 8  00 00 8F 8C 01 00 00 FF 
    769       901.438 DT 0CFF6213 Rx 8  D2 7F FD 7F 00 AF 2F EE 
    770       901.718 DT 18FF6913 Rx 8  02 7D FE 7C ED 7F FF FF 
    771       905.500 DT 18F0090B Rx 8  FF FF FF 60 7D 10 7D 7D 
    772       905.786 DT 0CFF270B Rx 8  00 00 00 00 00 00 DC 66 
    773       906.065 DT 0CFF200B Rx 8  F0 00 32 FF FA 00 00 7A 
    774       907.316 DT 0CFF2100 Rx 8  00 00 32 00 32 00 00 40 
    775       907.620 DT 18FF2200 Rx 8  FC 00 00 00 00 32 00 32 
    776       909.202 DT 18FEF100 Rx 8  FF FF FF 0C FF 00 F0 FF 
    777       909.494 DT 10FF6500 Rx 8  FF FF FF FF 3F FC FF FF 
    778       909.773 DT 18FEF200 Rx 8  00 00 00 00 99 14 36 FF 
    779       910.081 DT 18FF6D00 Rx 8  31 FF 31 FF FF FF FF FF 
    780       911.377 DT 0CFF6213 Rx 8  D2 7F F8 7F 00 AF 3F AD 
    781       915.565 DT 18F0090B Rx 8  FF FF FF 60 7D 10 7D 7D 
    782       915.851 DT 0CFF200B Rx 8  F0 00 32 FF FA 00 00 0B 
    783       917.319 DT 0CFF2100 Rx 8  00 00 32 00 32 00 00 51 
    784       917.622 DT 18FF2200 Rx 8  FC 00 00 00 00 32 00 32 
    785       918.479 DT 0CF00400 Rx 8  FF FF FF 00 00 FF F6 6F 
    786       918.787 DT 0CFF6600 Rx 8  00 00 8F 8C 01 00 00 FF 
    787       921.438 DT 0CFF6213 Rx 8  D2 7F E4 7F 00 AF 4F 19 
    788       925.558 DT 18F0090B Rx 8  FF FF FF 60 7D 48 7D 7D 
    789       925.844 DT 0CFF270B Rx 8  00 00 00 00 00 00 EC 90 
    790       926.128 DT 0CFF200B Rx 8  F0 00 32 FF FA 00 00 1C 
    791       927.322 DT 0CFF2100 Rx 8  00 00 32 00 32 00 00 62 
    792       927.625 DT 18FF2200 Rx 8  FC 00 00 00 00 32 00 32 
    793       928.540 DT 18FEF127 Rx 8  F7 FF FF 0F FF FF EF 17 
    794       928.859 DT 0C090027 Rx 8  7D FF FF FF FF FF FF FF 
    795       929.172 DT 10F0ED27 Rx 8  FC FF FF FF FF FF 7F 8A 
    796       931.326 DT 0CFF6213 Rx 8  D2 7F FD 7F 00 AF 5F 85 
    797       933.045 DT 18F00141 Rx 8  FF FF 3C FF FF FF FF FF 
    798       934.034 DT 10FF6527 Rx 8  1F 03 FC F0 FF FF FF FF 
    799       935.486 DT 18F0090B Rx 8  FF FF FF 60 7D 48 7D 7D 
    800       935.765 DT 0CFF200B Rx 8  F0 00 32 FF FA 00 00 2D 
    801       937.325 DT 0CFF2100 Rx 8  00 00 32 00 32 00 00 73 
    802       937.628 DT 18FF2200 Rx 8  FC 00 00 00 00 32 00 32 
    803       938.444 DT 0CF00400 Rx 8  FF FF FF 00 00 FF F6 6F 
    804       938.728 DT 18FEF186 Rx 8  FF FF FF F3 CC FF 3F 00 
    805       939.019 DT 0CFF6600 Rx 8  00 00 8F 8C 01 00 00 FF 
    806       939.313 DT 0CFF8186 Rx 8  F3 FC FF FF FF FF FF FF 
    807       939.600 DT 0CFF8187 Rx 8  FF F3 FF FF FF FF FF FF 
    808       941.353 DT 0CFF6213 Rx 8  D2 7F F3 7F 00 AF 6F F6 
    809       945.444 DT 18F0090B Rx 8  FF FF FF 60 7D 48 7D 7D 
    810       945.735 DT 0CFF270B Rx 8  00 00 00 00 00 00 FC C2 
    811       946.021 DT 0CFF200B Rx 8  F0 00 32 FF FA 00 00 3E 
    812       947.317 DT 0CFF2100 Rx 8  00 00 32 00 32 00 00 04 
    813       947.626 DT 18FF2200 Rx 8  FC 00 00 00 00 32 00 32 
    814       951.328 DT 0CFF6213 Rx 8  D2 7F 06 80 00 AF 7F CD 
    815       955.556 DT 18F0090B Rx 8  FF FF FF 60 7D 48 7D 7D 
    816       955.841 DT 0CFF200B Rx 8  F0 00 32 FF FA 00 00 5F 
    817       957.321 DT 0CFF2100 Rx 8  00 00 32 00 32 00 00 15 
    818       957.624 DT 18FF2200 Rx 8  FC 00 00 00 00 32 00 32 
    819       958.475 DT 0CF00400 Rx 8  FF FF FF 00 00 FF F6 6F 
    820       958.783 DT 0CFF6600 Rx 8  00 00 8F 8C 01 00 00 FF 
    821       961.320 DT 0CFF6213 Rx 8  D2 7F 10 80 00 AF 8F B4 
    822       965.474 DT 18F0090B Rx 8  FF FF FF 60 7D 10 7D 7D 
    823       965.765 DT 0CFF270B Rx 8  00 00 00 00 00 00 0C 46 
    824       966.049 DT 0CFF200B Rx 8  F0 00 32 FF FA 00 00 40 
    825       967.311 DT 0CFF2100 Rx 8  00 00 32 00 32 00 00 26 
    826       967.621 DT 18FF2200 Rx 8  FC 00 00 00 00 32 00 32 
    827       971.356 DT 0CFF6213 Rx 8  D2 7F FD 7F 00 AF 9F F7 
    828       975.483 DT 18F0090B Rx 8  FF FF FF 60 7D 10 7D 7D 
    829       975.763 DT 0CFF200B Rx 8  F0 00 32 FF FA 00 00 51 
    830       977.315 DT 0CFF2100 Rx 8  00 00 32 00 32 00 00 37 
    831       977.624 DT 18FF2200 Rx 8  FC 00 00 00 00 32 00 32 
    832       978.435 DT 0CF00400 Rx 8  FF FF FF 00 00 FF F6 6F 
    833       978.726 DT 18FF8627 Rx 8  F3 FF FF FF FF FF FF FF 
    834       979.016 DT 0CFF6600 Rx 8  00 00 8F 8C 01 00 00 FF 
    835       981.318 DT 0CFF6213 Rx 8  D2 7F F3 7F 00 AF AF 84 
    836       985.484 DT 18F0090B Rx 8  FF FF FF 60 7D 48 7D 7D 
    837       985.770 DT 18F0010B Rx 8  C0 FF 3F FF FF 01 0B FC 
    838       986.054 DT 18FE4F0B Rx 8  F4 3F FF FF FF FF FF FF 
    839       986.340 DT 0CFF270B Rx 8  00 00 00 00 00 00 1C 14 
    840       986.632 DT 18FEF10B Rx 8  3F 00 00 CF FF FF DF 2F 
    841       986.912 DT 0CFF200B Rx 8  F0 00 32 FF FA 00 00 62 
    842       987.362 DT 0CFF2100 Rx 8  00 00 32 00 32 00 00 58 
    843       987.666 DT 18FF2200 Rx 8  FC 00 00 00 00 32 00 32 
    844       988.437 DT 18FECA86 Rx 8  00 FF 00 00 00 00 FF FF 
    845       988.728 DT 18FECA87 Rx 8  00 FF 00 00 00 00 FF FF 
    846       991.327 DT 0CFF6213 Rx 8  D2 7F FD 7F 00 AF BF 53 
    847       995.573 DT 18F0090B Rx 8  FF FF FF 60 7D 48 7D 7D 
    848       995.857 DT 0CFF200B Rx 8  F0 00 32 FF FA 00 00 73 
    849       997.314 DT 0CFF2100 Rx 8  00 00 32 00 32 00 00 69 
    850       997.623 DT 18FF2200 Rx 8  FC 00 00 00 00 32 00 32 
    851       998.479 DT 0CF00400 Rx 8  FF FF FF 00 00 FF F6 6F 
    852       998.788 DT 0CFF6600 Rx 8  00 00 8F 8C 01 00 00 FF 
    853      1001.369 DT 0CFF6213 Rx 8  D2 7F F8 7F 00 AF CF 29 
    854      1001.650 DT 18FF6913 Rx 8  02 7D 02 7D 34 80 FF FF 
    855      1005.472 DT 18F0090B Rx 8  FF FF FF 60 7D 48 7D 7D 
    856      1005.757 DT 0CFF270B Rx 8  00 00 00 00 00 00 2C E2 
    857      1006.042 DT 0CFF200B Rx 8  F0 00 32 FF FA 00 00 04 
    858      1007.315 DT 0CFF2100 Rx 8  00 00 32 00 32 00 00 7A 
    859      1007.625 DT 18FF2200 Rx 8  FC 00 00 00 00 32 00 32 
    860      1009.029 DT 18FEF100 Rx 8  FF FF FF 0C FF 00 F0 FF 
    861      1009.338 DT 18FEF200 Rx 8  00 00 00 00 99 14 38 FF 
    862      1009.641 DT 18FF6D00 Rx 8  31 FF 31 FF FF FF FF FF 
    863      1011.331 DT 0CFF6213 Rx 8  D2 7F FD 7F 00 AF DF 6A 
    864      1015.491 DT 18F0090B Rx 8  FF FF FF 60 7D 48 7D 7D 
    865      1015.775 DT 0CFF200B Rx 8  F0 00 32 FF FA 00 00 15 
    866      1017.323 DT 0CFF2100 Rx 8  00 00 32 00 32 00 00 0B 
    867      1017.626 DT 18FF2200 Rx 8  FC 00 00 00 00 32 00 32 
    868      1018.438 DT 0CF00400 Rx 8  FF FF FF 00 00 FF F6 6F 
    869      1018.740 DT 0CFF6600 Rx 8  00 00 8F 8C 01 00 00 FF 
    870      1021.378 DT 0CFF6213 Rx 8  D2 7F F3 7F 00 AF EF 19 
    871      1025.568 DT 18F0090B Rx 8  FF FF FF 60 7D 10 7D 7D 
    872      1025.854 DT 0CFF270B Rx 8  00 00 00 00 00 00 3C B0 
    873      1026.138 DT 0CFF200B Rx 8  F0 00 32 FF FA 00 00 26 
    874      1027.315 DT 0CFF2100 Rx 8  00 00 32 00 32 00 00 1C 
    875      1027.623 DT 18FF2200 Rx 8  FC 00 00 00 00 32 00 32 
    876      1028.543 DT 18FEF127 Rx 8  F7 FF FF 0F FF FF FF 07 
    877      1028.863 DT 0C090027 Rx 8  7D FF FF FF FF FF FF FF 
    878      1031.376 DT 0CFF6213 Rx 8  D2 7F 01 80 00 AF FF 8A 
    879      1032.685 DT 10FF6541 Rx 8  FF FF FF CF FF C3 FF FF 
    880      1032.987 DT 10FF6C41 Rx 8  00 FF FF FF FF FF FF FF 
    881      1033.289 DT 18F00141 Rx 8  FF FF 3C FF FF FF FF FF 
    882      1035.484 DT 18F0090B Rx 8  FF FF FF 60 7D 10 7D 7D 
    883      1035.769 DT 0CFF200B Rx 8  F0 00 32 FF FA 00 00 47 
    884      1037.316 DT 0CFF2100 Rx 8  00 00 32 00 32 00 00 2D 
    885      1037.626 DT 18FF2200 Rx 8  FC 00 00 00 00 32 00 32 
    886      1038.459 DT 18FEF186 Rx 8  FF FF FF F3 CC FF 4F 70 
    887      1038.745 DT 0CF00400 Rx 8  FF FF FF 00 00 FF F6 6F 
    888      1039.036 DT 0CFF8186 Rx 8  F3 FC FF FF FF FF FF FF 
    889      1039.327 DT 0CFF6600 Rx 8  00 00 8F 8C 01 00 00 FF 
    890      1039.613 DT 10FF6487 Rx 8  F0 FF FF FF FF C0 FF FF 
    891      1039.903 DT 10FF6586 Rx 8  FC FF FF FF FF FF FF FF 
    892      1040.194 DT 0CFF8187 Rx 8  FF F3 FF FF FF FF FF FF 
    893      1041.411 DT 0CFF6213 Rx 8  D2 7F FD 7F 00 AF 0F 4A 
    894      1045.468 DT 18F0090B Rx 8  FF FF FF 60 7D D9 7C 7D 
    895      1045.759 DT 0CFF270B Rx 8  00 00 00 00 00 00 4C DB 
    896      1046.044 DT 0CFF200B Rx 8  F0 00 32 FF FA 00 00 58 
    897      1047.324 DT 0CFF2100 Rx 8  00 00 32 00 32 00 00 3E 
    898      1047.627 DT 18FF2200 Rx 8  FC 00 00 00 00 32 00 32 
    899      1051.369 DT 0CFF6213 Rx 8  D2 7F 06 80 00 AF 1F F4 
    900      1055.482 DT 18F0090B Rx 8  FF FF FF 60 7D D9 7C 7D 
    901      1055.768 DT 0CFF200B Rx 8  F0 00 32 FF FA 00 00 69 
    902      1057.315 DT 0CFF2100 Rx 8  00 00 32 00 32 00 00 4F 
    903      1057.624 DT 18FF2200 Rx 8  FC 00 00 00 00 32 00 32 
    904      1058.371 DT 0CF00400 Rx 8  FF FF FF 00 00 FF F6 6F 
    905      1058.685 DT 0CFF6600 Rx 8  00 00 8F 8C 01 00 00 FF 
    906      1061.434 DT 0CFF6213 Rx 8  D2 7F 01 80 00 AF 2F AA 
    907      1065.564 DT 18F0090B Rx 8  FF FF FF 60 7D 10 7D 7D 
    908      1065.850 DT 0CFF270B Rx 8  00 00 00 00 00 00 5C 89 
    909      1066.134 DT 0CFF200B Rx 8  F0 00 32 FF FA 00 00 7A 
    910      1067.317 DT 0CFF2100 Rx 8  00 00 32 00 32 00 00 40 
    911      1067.620 DT 18FF2200 Rx 8  FC 00 00 00 00 32 00 32 
    912      1071.379 DT 0CFF6213 Rx 8  D2 7F E9 7F 00 AF 3F F8 
    913      1075.477 DT 18F0090B Rx 8  FF FF FF 60 7D 10 7D 7D 
    914      1075.761 DT 0CFF200B Rx 8  F0 00 32 FF FA 00 00 0B 
    915      1077.320 DT 0CFF2100 Rx 8  00 00 32 00 32 00 00 51 
    916      1077.623 DT 18FF2200 Rx 8  FC 00 00 00 00 32 00 32 
    917      1078.481 DT 0CF00400 Rx 8  FF FF FF 00 00 FF F6 6F 
    918      1078.772 DT 18FF8627 Rx 8  F3 FF FF FF FF FF FF FF 
    919      1079.063 DT 0CFF6600 Rx 8  00 00 8F 8C 01 00 00 FF 
    920      1081.434 DT 0CFF6213 Rx 8  D2 7F FD 7F 00 AF 4F D7 
    921      1085.434 DT 18F0090B Rx 8  FF FF FF 60 7D 48 7D 7D 
    922      1085.720 DT 18F0010B Rx 8  C0 FF 3F FF FF 01 0B FC 
    923      1085.999 DT 18FE4F0B Rx 8  F4 3F FF FF FF FF FF FF 
    924      1086.290 DT 0CFF270B Rx 8  00 00 00 00 00 00 6C 7F 
    925      1086.576 DT 18FEF10B Rx 8  3F 00 00 CF FF FF EF 1F 
    926      1086.862 DT 0CFF200B Rx 8  F0 00 32 FF FA 00 00 1C 
    927      1087.347 DT 0CFF2100 Rx 8  00 00 32 00 32 00 00 62 
    928      1087.655 DT 18FF2200 Rx 8  FC 00 00 00 00 32 00 32 
    929      1091.396 DT 0CFF6213 Rx 8  D2 7F F3 7F 00 AF 5F 00 
    930      1095.561 DT 18F0090B Rx 8  FF FF FF 60 7D 48 7D 7D 
    931      1095.847 DT 0CFF200B Rx 8  F0 00 32 FF FA 00 00 2D 
    932      1097.315 DT 0CFF2100 Rx 8  00 00 32 00 32 00 00 73 
    933      1097.623 DT 18FF2200 Rx 8  FC 00 00 00 00 32 00 32 
    934      1098.417 DT 0CF00400 Rx 8  FF FF FF 00 00 FF F6 6F 
    935      1098.726 DT 0CFF6600 Rx 8  00 00 8F 8C 01 00 00 FF 
    936      1101.463 DT 0CFF6213 Rx 8  D2 7F E9 7F 00 AF 6F 37 
    937      1101.747 DT 18FF6913 Rx 8  02 7D FF 7C FD 7F FF FF 
    938      1105.473 DT 18F0090B Rx 8  FF FF FF 60 7D 48 7D 7D 
    939      1105.764 DT 0CFF270B Rx 8  00 00 00 00 00 00 7C 2D 
    940      1106.044 DT 0CFF200B Rx 8  F0 00 32 FF FA 00 00 3E 
    941      1107.329 DT 0CFF2100 Rx 8  00 00 32 00 32 00 00 04 
    942      1107.632 DT 18FF2200 Rx 8  FC 00 00 00 00 32 00 32 
    943      1109.208 DT 18FEF100 Rx 8  FF FF FF 0C FF 00 F0 FF 
    944      1109.499 DT 10FF6500 Rx 8  FF FF FF FF 3F FC FF FF 
    945      1109.790 DT 18FEF200 Rx 8  00 00 00 00 99 14 38 FF 
    946      1110.099 DT 18FF6D00 Rx 8  31 FF 31 FF FF FF FF FF 
    947      1111.431 DT 0CFF6213 Rx 8  D2 7F FD 7F 00 AF 7F 21 
    948      1115.543 DT 18F0090B Rx 8  FF FF FF 60 7D 48 7D 7D 
    949      1115.829 DT 0CFF200B Rx 8  F0 00 32 FF FA 00 00 5F 
    950      1117.320 DT 0CFF2100 Rx 8  00 00 32 00 32 00 00 15 
    951      1117.623 DT 18FF2200 Rx 8  FC 00 00 00 00 32 00 32 
    952      1118.479 DT 0CF00400 Rx 8  FF FF FF 00 00 FF F6 6F 
    953      1118.788 DT 0CFF6600 Rx 8  00 00 8F 8C 01 00 00 FF 
    954      1121.479 DT 0CFF6213 Rx 8  D2 7F 01 80 00 AF 8F E1 
    955      1125.463 DT 18F0090B Rx 8  FF FF FF 60 7D 48 7D 7D 
    956      1125.754 DT 0CFF270B Rx 8  00 00 00 00 00 00 8C A9 
    957      1126.033 DT 0CFF200B Rx 8  F0 00 32 FF FA 00 00 40 
    958      1127.312 DT 0CFF2100 Rx 8  00 00 32 00 32 00 00 26 
    959      1127.621 DT 18FF2200 Rx 8  FC 00 00 00 00 32 00 32 
    960      1128.534 DT 18FEF127 Rx 8  F7 FF FF 0F FF FF 0F F7 
    961      1128.854 DT 0C090027 Rx 8  7D FF FF FF FF FF FF FF 
    962      1131.436 DT 0CFF6213 Rx 8  D2 7F 0B 80 00 AF 9F 91 
    963      1132.762 DT 1CFF6A41 Rx 8  FF FF FF FF FF FF C0 FF 
    964      1133.076 DT 18FF8341 Rx 8  FF FF 00 F0 FF FF FF FF 
    965      1133.389 DT 18F00141 Rx 8  FF FF 3C FF FF FF FF FF 
    966      1133.715 DT 18FF7041 Rx 8  00 00 00 F8 FF FF FF FF 
    967      1134.023 DT 18FF7141 Rx 8  F0 00 F8 FF FF FF FF FF 
    968      1134.309 DT 10FF6527 Rx 8  1F 03 FC F0 FF FF FF FF 
    969      1135.549 DT 18F0090B Rx 8  FF FF FF 60 7D 48 7D 7D 
    970      1135.829 DT 0CFF200B Rx 8  F0 00 32 FF FA 00 00 51 
    971      1137.319 DT 0CFF2100 Rx 8  00 00 32 00 32 00 00 37 
    972      1137.627 DT 18FF2200 Rx 8  FC 00 00 00 00 32 00 32 
    973      1138.439 DT 0CF00400 Rx 8  FF FF FF 00 00 FF F6 6F 
    974      1138.719 DT 18FEF186 Rx 8  FF FF FF F3 CC FF 5F 60 
    975      1139.010 DT 0CFF6600 Rx 8  00 00 8F 8C 01 00 00 FF 
    976      1139.301 DT 0CFF8186 Rx 8  F3 FC FF FF FF FF FF FF 
    977      1139.593 DT 0CFF8187 Rx 8  FF F3 FF FF FF FF FF FF 
    978      1141.466 DT 0CFF6213 Rx 8  D2 7F 01 80 00 AF AF 45 
    979      1145.478 DT 18F0090B Rx 8  FF FF FF 60 7D 48 7D 7D 
    980      1145.769 DT 0CFF270B Rx 8  00 00 00 00 00 00 9C FB 
    981      1146.048 DT 0CFF200B Rx 8  F0 00 32 FF FA 00 00 62 
    982      1147.316 DT 0CFF2100 Rx 8  00 00 32 00 32 00 00 58 
    983      1147.619 DT 18FF2200 Rx 8  FC 00 00 00 00 32 00 32 
    984      1151.447 DT 0CFF6213 Rx 8  D2 7F FD 7F 00 AF BF 53 
    985      1155.434 DT 18F0090B Rx 8  FF FF FF 60 7D 48 7D 7D 
    986      1155.720 DT 0CFF200B Rx 8  F0 00 32 FF FA 00 00 73 
    987      1157.319 DT 0CFF2100 Rx 8  00 00 32 00 32 00 00 69 
    988      1157.628 DT 18FF2200 Rx 8  FC 00 00 00 00 32 00 32 
    989      1158.484 DT 0CF00400 Rx 8  FF FF FF 00 00 FF F6 6F 
    990      1158.793 DT 0CFF6600 Rx 8  00 00 8F 8C 01 00 00 FF 
    991      1161.466 DT 0CFF6213 Rx 8  D2 7F E9 7F 00 AF CF 7C 
    992      1165.540 DT 18F0090B Rx 8  FF FF FF 60 7D 48 7D 7D 
    993      1165.830 DT 0CFF270B Rx 8  00 00 00 00 00 00 AC 0D 
    994      1166.116 DT 0CFF200B Rx 8  F0 00 32 FF FA 00 00 04 
    995      1167.321 DT 0CFF2100 Rx 8  00 00 32 00 32 00 00 7A 
    996      1167.629 DT 18FF2200 Rx 8  FC 00 00 00 00 32 00 32 
    997      1171.435 DT 0CFF6213 Rx 8  D2 7F 0B 80 00 AF DF 0C 
    998      1175.475 DT 18F0090B Rx 8  FF FF FF 60 7D 48 7D 7D 
    999      1175.759 DT 0CFF200B Rx 8  F0 00 32 FF FA 00 00 15 
   1000      1177.318 DT 0CFF2100 Rx 8  00 00 32 00 32 00 00 0B 
   1001      1177.628 DT 18FF2200 Rx 8  FC 00 00 00 00 32 00 32 
   1002      1178.438 DT 0CF00400 Rx 8  FF FF FF 00 00 FF F6 6F 
   1003      1178.724 DT 1CFF6A27 Rx 8  3F 9C FF F3 FF FF FF FF 
   1004      1179.015 DT 0CFF6600 Rx 8  00 00 8F 8C 01 00 00 FF 
   1005      1179.300 DT 10F0ED27 Rx 8  FC FF FF FF FF FF 8F 9A 
   1006      1179.614 DT 18FF8627 Rx 8  F3 FF FF FF FF FF FF FF 
   1007      1181.443 DT 0CFF6213 Rx 8  D2 7F F8 7F 00 AF EF 8D 
   1008      1185.471 DT 18F0090B Rx 8  FF FF FF 60 7D 48 7D 7D 
   1009      1185.755 DT 18F0010B Rx 8  C0 FF 3F FF FF 01 0B FC 
   1010      1186.041 DT 18FE4F0B Rx 8  F4 3F FF FF FF FF FF FF 
   1011      1186.332 DT 0CFF270B Rx 8  00 00 00 00 00 00 BC 5F 
   1012      1186.618 DT 18FEF10B Rx 8  3F 00 00 CF FF FF FF 0F 
   1013      1186.897 DT 0CFF200B Rx 8  F0 00 32 FF FA 00 00 26 
   1014      1187.359 DT 0CFF2100 Rx 8  00 00 32 00 32 00 00 1C 
   1015      1187.669 DT 18FF2200 Rx 8  FC 00 00 00 00 32 00 32 
   1016      1191.434 DT 0CFF6213 Rx 8  D2 7F FD 7F 00 AF FF CE 
   1017      1195.490 DT 18F0090B Rx 8  FF FF FF 60 7D 48 7D 7D 
   1018      1195.776 DT 0CFF200B Rx 8  F0 00 32 FF FA 00 00 47 
   1019      1197.323 DT 0CFF2100 Rx 8  00 00 32 00 32 00 00 2D 
   1020      1197.626 DT 18FF2200 Rx 8  FC 00 00 00 00 32 00 32 
   1021      1198.483 DT 0CF00400 Rx 8  FF FF FF 00 00 FF F6 6F 
   1022      1198.791 DT 0CFF6600 Rx 8  00 00 8F 8C 01 00 00 FF 
   1023      1201.310 DT 0CFF6213 Rx 8  D2 7F FD 7F 00 AF 0F 4A 
   1024      1201.596 DT 18FF6913 Rx 8  02 7D FF 7C FF 7F FF FF 
   1025      1205.543 DT 18F0090B Rx 8  FF FF FF 60 7D 48 7D 7D 
   1026      1205.828 DT 0CFF270B Rx 8  00 00 00 00 00 00 CC 34 
   1027      1206.113 DT 0CFF200B Rx 8  F0 00 32 FF FA 00 00 58 
   1028      1207.324 DT 0CFF2100 Rx 8  00 00 32 00 32 00 00 3E 
   1029      1207.628 DT 18FF2200 Rx 8  FC 00 00 00 00 32 00 32 
   1030      1209.032 DT 18FEF100 Rx 8  FF FF FF 0C FF 00 F0 FF 
   1031      1209.341 DT 18FEF200 Rx 8  00 00 00 00 99 14 38 FF 
   1032      1209.649 DT 18FF6D00 Rx 8  31 FF 31 FF FF FF FF FF 
   1033      1211.437 DT 0CFF6213 Rx 8  D2 7F FD 7F 00 AF 1F 18 
   1034      1215.505 DT 18F0090B Rx 8  FF FF FF 60 7D 48 7D 7D 
   1035      1215.790 DT 0CFF200B Rx 8  F0 00 32 FF FA 00 00 69 
   1036      1217.314 DT 0CFF2100 Rx 8  00 00 32 00 32 00 00 4F 
   1037      1217.624 DT 18FF2200 Rx 8  FC 00 00 00 00 32 00 32 
   1038      1218.441 DT 0CF00400 Rx 8  FF FF FF 00 00 FF F6 6F 
   1039      1218.743 DT 0CFF6600 Rx 8  00 00 8F 8C 01 00 00 FF 
   1040      1221.313 DT 0CFF6213 Rx 8  D2 7F 01 80 00 AF 2F AA 
   1041      1225.399 DT 18F0090B Rx 8  FF FF FF 60 7D 7F 7D 7D 
   1042      1225.686 DT 0CFF270B Rx 8  00 00 00 00 00 00 DC 66 
   1043      1225.965 DT 0CFF200B Rx 8  F0 00 32 FF FA 00 00 7A 
   1044      1227.324 DT 0CFF2100 Rx 8  00 00 32 00 32 00 00 40 
   1045      1227.627 DT 18FF2200 Rx 8  FC 00 00 00 00 32 00 32 
   1046      1228.530 DT 18FEF127 Rx 8  F7 FF FF 0F FF FF 1F E7 
   1047      1228.849 DT 0C090027 Rx 8  7D FF FF FF FF FF FF FF 
   1048      1231.306 DT 0CFF6213 Rx 8  D2 7F F3 7F 00 AF 3F 39 
   1049      1232.814 DT 10FF6541 Rx 8  FF FF FF CF FF C3 FF FF 
   1050      1233.127 DT 10FF6C41 Rx 8  00 FF FF FF FF FF FF FF 
   1051      1233.425 DT 18F00141 Rx 8  FF FF 3C FF FF FF FF FF 
   1052      1235.510 DT 18F0090B Rx 8  FF FF FF 60 7D 7F 7D 7D 
   1053      1235.795 DT 0CFF200B Rx 8  F0 00 32 FF FA 00 00 0B 
   1054      1237.320 DT 0CFF2100 Rx 8  00 00 32 00 32 00 00 51 
   1055      1237.629 DT 18FF2200 Rx 8  FC 00 00 00 00 32 00 32 
   1056      1238.458 DT 18FEF186 Rx 8  FF FF FF F3 CC FF 6F 50 
   1057      1238.749 DT 0CF00400 Rx 8  FF FF FF 00 00 FF F6 6F 
   1058      1239.040 DT 0CFF8186 Rx 8  F3 FC FF FF FF FF FF FF 
   1059      1239.324 DT 0CFF6600 Rx 8  00 00 8F 8C 01 00 00 FF 
   1060      1239.622 DT 0CFF8187 Rx 8  FF F3 FF FF FF FF FF FF 
   1061      1239.907 DT 10FF6586 Rx 8  FC FF FF FF FF FF FF FF 
   1062      1241.397 DT 0CFF6213 Rx 8  D2 7F E9 7F 00 AF 4F 93 
   1063      1245.442 DT 18F0090B Rx 8  FF FF FF 60 7D 48 7D 7D 
   1064      1245.727 DT 0CFF270B Rx 8  00 00 00 00 00 00 EC 90 
   1065      1246.012 DT 0CFF200B Rx 8  F0 00 32 FF FA 00 00 1C 
   1066      1247.321 DT 0CFF2100 Rx 8  00 00 32 00 32 00 00 62 
   1067      1247.629 DT 18FF2200 Rx 8  FC 00 00 00 00 32 00 32 
   1068      1251.308 DT 0CFF6213 Rx 8  D2 7F 01 80 00 AF 5F C1 
   1069      1255.456 DT 18F0090B Rx 8  FF FF FF 60 7D 48 7D 7D 
   1070      1255.735 DT 0CFF200B Rx 8  F0 00 32 FF FA 00 00 2D 
   1071      1257.324 DT 0CFF2100 Rx 8  00 00 32 00 32 00 00 73 
   1072      1257.632 DT 18FF2200 Rx 8  FC 00 00 00 00 32 00 32 
   1073      1258.444 DT 0CF00400 Rx 8  FF FF FF 00 00 FF F6 6F 
   1074      1258.746 DT 0CFF6600 Rx 8  00 00 8F 8C 01 00 00 FF 
   1075      1261.316 DT 0CFF6213 Rx 8  D2 7F F3 7F 00 AF 6F F6 
   1076      1265.453 DT 18F0090B Rx 8  FF FF FF 60 7D 10 7D 7D 
   1077      1265.738 DT 0CFF270B Rx 8  00 00 00 00 00 00 FC C2 
   1078      1266.024 DT 0CFF200B Rx 8  F0 00 32 FF FA 00 00 3E 
   1079      1267.325 DT 0CFF2100 Rx 8  00 00 32 00 32 00 00 04 
   1080      1267.628 DT 18FF2200 Rx 8  FC 00 00 00 00 32 00 32 
   1081      1271.422 DT 0CFF6213 Rx 8  D2 7F E9 7F 00 AF 7F 65 
   1082      1275.543 DT 18F0090B Rx 8  FF FF FF 60 7D 10 7D 7D 
   1083      1275.827 DT 0CFF200B Rx 8  F0 00 32 FF FA 00 00 5F 
   1084      1277.324 DT 0CFF2100 Rx 8  00 00 32 00 32 00 00 15 
   1085      1277.627 DT 18FF2200 Rx 8  FC 00 00 00 00 32 00 32 
   1086      1278.479 DT 0CF00400 Rx 8  FF FF FF 00 00 FF F6 6F 
   1087      1278.770 DT 18FF8627 Rx 8  F3 FF FF FF FF FF FF FF 
   1088      1279.061 DT 0CFF6600 Rx 8  00 00 8F 8C 01 00 00 FF 
   1089      1281.310 DT 0CFF6213 Rx 8  D2 7F EE 7F 00 AF 8F 49 
   1090      1285.459 DT 18F0090B Rx 8  FF FF FF 60 7D 10 7D 7D 
   1091      1285.739 DT 18F0010B Rx 8  C0 FF 3F FF FF 01 0B FC 
   1092      1286.023 DT 18FE4F0B Rx 8  F4 3F FF FF FF FF FF FF 
   1093      1286.314 DT 0CFF270B Rx 8  00 00 00 00 00 00 0C 46 
   1094      1286.601 DT 18FEF10B Rx 8  3F 00 00 CF FF FF 0F FF 
   1095      1286.885 DT 0CFF200B Rx 8  F0 00 32 FF FA 00 00 40 
   1096      1287.354 DT 0CFF2100 Rx 8  00 00 32 00 32 00 00 26 
   1097      1287.662 DT 18FF2200 Rx 8  FC 00 00 00 00 32 00 32 
   1098      1291.434 DT 0CFF6213 Rx 8  D2 7F FD 7F 00 AF 9F F7 
   1099      1295.433 DT 18F0090B Rx 8  FF FF FF 60 7D 10 7D 7D 
   1100      1295.718 DT 0CFF200B Rx 8  F0 00 32 FF FA 00 00 51 
   1101      1297.317 DT 0CFF2100 Rx 8  00 00 32 00 32 00 00 37 
   1102      1297.626 DT 18FF2200 Rx 8  FC 00 00 00 00 32 00 32 
   1103      1298.437 DT 0CF00400 Rx 8  FF FF FF 00 00 FF F6 6F 
   1104      1298.723 DT 18FEF427 Rx 8  FD FD FD FD FF FF FF FF 
   1105      1299.014 DT 0CFF6600 Rx 8  00 00 8F 8C 01 00 00 FF 
   1106      1299.298 DT 18FF7127 Rx 8  F0 FF FF FF FF FF FF FF 
   1107      1299.613 DT 18FF2D27 Rx 8  FF FF FF F3 F3 FF FF FF 
   1108      1301.343 DT 0CFF6213 Rx 8  D2 7F 06 80 00 AF AF ED 
   1109      1301.630 DT 18FF6913 Rx 8  02 7D 00 7D 03 80 FF FF 
   1110      1305.435 DT 18F0090B Rx 8  FF FF FF 60 7D 10 7D 7D 
   1111      1305.724 DT 0CFF270B Rx 8  00 00 00 00 00 00 1C 14 
   1112      1306.008 DT 0CFF200B Rx 8  F0 00 32 FF FA 00 00 62 
   1113      1307.220 DT 0CFF2100 Rx 8  00 00 32 00 32 00 00 58 
   1114      1307.523 DT 18FF2200 Rx 8  FC 00 00 00 00 32 00 32 
   1115      1309.110 DT 18FEF100 Rx 8  FF FF FF 0C FF 00 F0 FF 
   1116      1309.402 DT 10FF6500 Rx 8  FF FF FF FF 3F FC FF FF 
   1117      1309.692 DT 18FEF200 Rx 8  00 00 00 00 99 14 38 FF 
   1118      1310.001 DT 18FF6D00 Rx 8  31 FF 31 FF FF FF FF FF 
   1119      1311.338 DT 0CFF6213 Rx 8  D2 7F F3 7F 00 AF BF D6 
   1120      1315.051 DT 18FF6E27 Rx 8  DF FF FF FF FF FF FF FF 
   1121      1315.435 DT 18F0090B Rx 8  FF FF FF 60 7D 10 7D 7D 
   1122      1315.714 DT 0CFF200B Rx 8  F0 00 32 FF FA 00 00 73 
   1123      1317.221 DT 0CFF2100 Rx 8  00 00 32 00 32 00 00 69 
   1124      1317.531 DT 18FF2200 Rx 8  FC 00 00 00 00 32 00 32 
   1125      1318.387 DT 0CF00400 Rx 8  FF FF FF 00 00 FF F6 6F 
   1126      1318.688 DT 0CFF6600 Rx 8  00 00 8F 8C 01 00 00 FF 
   1127      1321.214 DT 0CFF6213 Rx 8  D2 7F 06 80 00 AF CF D4 
   1128      1325.362 DT 18F0090B Rx 8  FF FF FF 60 7D 10 7D 7D 
   1129      1325.648 DT 0CFF270B Rx 8  00 00 00 00 00 00 2C E2 
   1130      1325.939 DT 0CFF200B Rx 8  F0 00 32 FF FA 00 00 04 
   1131      1327.218 DT 0CFF2100 Rx 8  00 00 32 00 32 00 00 7A 
   1132      1327.521 DT 18FF2200 Rx 8  FC 00 00 00 00 32 00 32 
   1133      1328.424 DT 18FEF127 Rx 8  F7 FF FF 0F FF FF 2F D7 
   1134      1328.743 DT 0C090027 Rx 8  7D FF FF FF FF FF FF FF 
   1135      1331.349 DT 0CFF6213 Rx 8  D2 7F F3 7F 00 AF DF EF 
   1136      1332.623 DT 18F00141 Rx 8  FF FF 3C FF FF FF FF FF 
   1137      1333.879 DT 10FF6527 Rx 8  1F 03 FC F0 FF FF FF FF 
   1138      1335.370 DT 18F0090B Rx 8  FF FF FF 60 7D 10 7D 7D 
   1139      1335.656 DT 0CFF200B Rx 8  F0 00 32 FF FA 00 00 15 
   1140      1337.220 DT 0CFF2100 Rx 8  00 00 32 00 32 00 00 0B 
   1141      1337.530 DT 18FF2200 Rx 8  FC 00 00 00 00 32 00 32 
   1142      1338.341 DT 0CF00400 Rx 8  FF FF FF 00 00 FF F6 6F 
   1143      1338.626 DT 18FEF186 Rx 8  FF FF FF F3 CC FF 7F 40 
   1144      1338.911 DT 0CFF6600 Rx 8  00 00 8F 8C 01 00 00 FF 
   1145      1339.202 DT 0CFF8186 Rx 8  F3 FC FF FF FF FF FF FF 
   1146      1339.493 DT 0CFF8187 Rx 8  FF F3 FF FF FF FF FF FF 
   1147      1341.246 DT 0CFF6213 Rx 8  D2 7F 0B 80 00 AF EF FA 
   1148      1345.446 DT 18F0090B Rx 8  FF FF FF 60 7D 48 7D 7D 
   1149      1345.737 DT 0CFF270B Rx 8  00 00 00 00 00 00 3C B0 
   1150      1346.016 DT 0CFF200B Rx 8  F0 00 32 FF FA 00 00 26 
   1151      1347.228 DT 0CFF2100 Rx 8  00 00 32 00 32 00 00 1C 
   1152      1347.531 DT 18FF2200 Rx 8  FC 00 00 00 00 32 00 32 
   1153      1351.354 DT 0CFF6213 Rx 8  D2 7F 0B 80 00 AF FF A8 
   1154      1352.026 DT 18D0FF17 Rx 8  17 FF FF FF FF FF FF FF 
   1155      1355.353 DT 18F0090B Rx 8  FF FF FF 60 7D 48 7D 7D 
   1156      1355.632 DT 0CFF200B Rx 8  F0 00 32 FF FA 00 00 47 
   1157      1357.218 DT 0CFF2100 Rx 8  00 00 32 00 32 00 00 2D 
   1158      1357.528 DT 18FF2200 Rx 8  FC 00 00 00 00 32 00 32 
   1159      1358.384 DT 0CF00400 Rx 8  FF FF FF 00 00 FF F6 6F 
   1160      1358.693 DT 0CFF6600 Rx 8  00 00 8F 8C 01 00 00 FF 
   1161      1361.285 DT 0CFF6213 Rx 8  D2 7F FD 7F 00 AF 0F 4A 
   1162      1365.320 DT 18F0090B Rx 8  FF FF FF 60 7D 48 7D 7D 
   1163      1365.611 DT 0CFF270B Rx 8  00 00 00 00 00 00 4C DB 
   1164      1365.896 DT 0CFF200B Rx 8  F0 00 32 FF FA 00 00 58 
   1165      1367.238 DT 0CFF2100 Rx 8  00 00 32 00 32 00 00 3E 
   1166      1367.541 DT 18FF2200 Rx 8  FC 00 00 00 00 32 00 32 
   1167      1371.352 DT 0CFF6213 Rx 8  D2 7F F3 7F 00 AF 1F 9D 
   1168      1372.648 DT 18FECA41 Rx 8  FF FF 00 00 00 00 FF FF 
   1169      1375.442 DT 18F0090B Rx 8  FF FF FF 60 7D 48 7D 7D 
   1170      1375.728 DT 0CFF200B Rx 8  F0 00 32 FF FA 00 00 69 
   1171      1377.219 DT 0CFF2100 Rx 8  00 00 32 00 32 00 00 4F 
   1172      1377.527 DT 18FF2200 Rx 8  FC 00 00 00 00 32 00 32 
   1173      1378.344 DT 0CF00400 Rx 8  FF FF FF 00 00 FF F6 6F 
   1174      1378.629 DT 18FF8627 Rx 8  F3 FF FF FF FF FF FF FF 
   1175      1378.920 DT 0CFF6600 Rx 8  00 00 8F 8C 01 00 00 FF 
   1176      1381.268 DT 0CFF6213 Rx 8  D2 7F DA 7F 00 AF 2F 55 
   1177      1385.354 DT 18F0090B Rx 8  FF FF FF 60 7D 48 7D 7D 
   1178      1385.639 DT 18F0010B Rx 8  C0 FF 3F FF FF 01 0B FC 
   1179      1385.925 DT 18FE4F0B Rx 8  F4 3F FF FF FF FF FF FF 
   1180      1386.209 DT 0CFF270B Rx 8  00 00 00 00 00 00 5C 89 
   1181      1386.496 DT 18FEF10B Rx 8  3F 00 00 CF FF FF 1F EF 
   1182      1386.780 DT 0CFF200B Rx 8  F0 00 32 FF FA 00 00 7A 
   1183      1387.254 DT 0CFF2100 Rx 8  00 00 32 00 32 00 00 40 
   1184      1387.557 DT 18FF2200 Rx 8  FC 00 00 00 00 32 00 32 
   1185      1391.363 DT 0CFF6213 Rx 8  D1 7F F8 7F 00 AF 3F C4 
   1186      1395.355 DT 18F0090B Rx 8  FF FF FF 60 7D 48 7D 7D 
   1187      1395.640 DT 0CFF200B Rx 8  F0 00 32 FF FA 00 00 0B 
   1188      1397.222 DT 0CFF2100 Rx 8  00 00 32 00 32 00 00 51 
   1189      1397.524 DT 18FF2200 Rx 8  FC 00 00 00 00 32 00 32 
   1190      1398.382 DT 0CF00400 Rx 8  FF FF FF 00 00 FF F6 6F 
   1191      1398.689 DT 0CFF6600 Rx 8  00 00 8F 8C 01 00 00 FF 
   1192      1401.272 DT 0CFF6213 Rx 8  D1 7F F8 7F 00 AF 4F AF 
   1193      1401.564 DT 18FF6913 Rx 8  01 7D FF 7C FC 7F FF FF 
   1194      1405.357 DT 18F0090B Rx 8  FF FF FF 60 7D 10 7D 7D 
   1195      1405.648 DT 0CFF270B Rx 8  00 00 00 00 00 00 6C 7F 
   1196      1405.934 DT 0CFF200B Rx 8  F0 00 32 FF FA 00 00 1C 
   1197      1407.219 DT 0CFF2100 Rx 8  00 00 32 00 32 00 00 62 
   1198      1407.527 DT 18FF2200 Rx 8  FC 00 00 00 00 32 00 32 
   1199      1408.933 DT 18FEF100 Rx 8  FF FF FF 0C FF 00 F0 FF 
   1200      1409.240 DT 18FEF200 Rx 8  00 00 00 00 99 14 38 FF 
   1201      1409.549 DT 18FF6D00 Rx 8  31 FF 31 FF FF FF FF FF 
   1202      1411.303 DT 0CFF6213 Rx 8  D2 7F F8 7F 00 AF 5F 94 
   1203      1415.542 DT 18F0090B Rx 8  FF FF FF 60 7D 10 7D 7D 
   1204      1415.828 DT 0CFF200B Rx 8  F0 00 32 FF FA 00 00 2D 
   1205      1417.216 DT 0CFF2100 Rx 8  00 00 32 00 32 00 00 73 
   1206      1417.524 DT 18FF2200 Rx 8  FC 00 00 00 00 32 00 32 
   1207      1418.341 DT 0CF00400 Rx 8  FF FF FF 00 00 FF F6 6F 
   1208      1418.643 DT 0CFF6600 Rx 8  00 00 8F 8C 01 00 00 FF 
   1209      1421.283 DT 0CFF6213 Rx 8  D1 7F F8 7F 00 AF 6F 0B 
   1210      1425.358 DT 18F0090B Rx 8  FF FF FF 60 7D 10 7D 7D 
   1211      1425.649 DT 0CFF270B Rx 8  00 00 00 00 00 00 7C 2D 
   1212      1425.929 DT 0CFF200B Rx 8  F0 00 32 FF FA 00 00 3E 
   1213      1427.226 DT 0CFF2100 Rx 8  00 00 32 00 32 00 00 04 
   1214      1427.534 DT 18FF2200 Rx 8  FC 00 00 00 00 32 00 32 
   1215      1428.419 DT 18FEF127 Rx 8  F7 FF FF 0F FF FF 3F C7 
   1216      1428.739 DT 0C090027 Rx 8  7D FF FF FF FF FF FF FF 
   1217      1429.047 DT 10F0ED27 Rx 8  FC FF FF FF FF FF 9F AA 
   1218      1431.279 DT 0CFF6213 Rx 8  D1 7F F3 7F 00 AF 7F CD 
   1219      1432.663 DT 10FF6541 Rx 8  FF FF FF CF FF C3 FF FF 
   1220      1432.965 DT 10FF6C41 Rx 8  00 FF FF FF FF FF FF FF 
   1221      1433.267 DT 18F00141 Rx 8  FF FF 3C FF FF FF FF FF 
   1222      1435.312 DT 18F0090B Rx 8  FF FF FF 60 7D 10 7D 7D 
   1223      1435.598 DT 0CFF200B Rx 8  F0 00 32 FF FA 00 00 5F 
   1224      1437.220 DT 0CFF2100 Rx 8  00 00 32 00 32 00 00 15 
   1225      1437.529 DT 18FF2200 Rx 8  FC 00 00 00 00 32 00 32 
   1226      1438.386 DT 0CF00400 Rx 8  FF FF FF 00 00 FF F6 6F 
   1227      1438.676 DT 0CFF8187 Rx 8  FF F3 FF FF FF FF FF FF 
   1228      1438.967 DT 0CFF6600 Rx 8  00 00 8F 8C 01 00 00 FF 
   1229      1439.253 DT 18FEF186 Rx 8  FF FF FF F3 CC FF 8F B0 
   1230      1439.556 DT 0CFF8186 Rx 8  F3 FC FF FF FF FF FF FF 
   1231      1439.859 DT 10FF6586 Rx 8  FC FF FF FF FF FF FF FF 
   1232      1441.286 DT 0CFF6213 Rx 8  D1 7F F3 7F 00 AF 8F 49 
   1233      1445.435 DT 18F0090B Rx 8  FF FF FF 60 7D 48 7D 7D 
   1234      1445.720 DT 0CFF270B Rx 8  00 00 00 00 00 00 8C A9 
   1235      1446.005 DT 0CFF200B Rx 8  F0 00 32 FF FA 00 00 40 
   1236      1447.222 DT 0CFF2100 Rx 8  00 00 32 00 32 00 00 26 
   1237      1447.525 DT 18FF2200 Rx 8  FC 00 00 00 00 32 00 32 
   1238      1451.283 DT 0CFF6213 Rx 8  D2 7F 01 80 00 AF 9F B3 
   1239      1455.352 DT 18F0090B Rx 8  FF FF FF 60 7D 48 7D 7D 
   1240      1455.637 DT 0CFF200B Rx 8  F0 00 32 FF FA 00 00 51 
   1241      1457.219 DT 0CFF2100 Rx 8  00 00 32 00 32 00 00 37 
   1242      1457.528 DT 18FF2200 Rx 8  FC 00 00 00 00 32 00 32 
   1243      1458.339 DT 0CF00400 Rx 8  FF FF FF 00 00 FF F6 6F 
   1244      1458.648 DT 0CFF6600 Rx 8  00 00 8F 8C 01 00 00 FF 
   1245      1461.297 DT 0CFF6213 Rx 8  D2 7F F8 7F 00 AF AF 10 
   1246      1465.348 DT 18F0090B Rx 8  FF FF FF 60 7D 7F 7D 7D 
   1247      1465.634 DT 0CFF270B Rx 8  00 00 00 00 00 00 9C FB 
   1248      1465.919 DT 0CFF200B Rx 8  F0 00 32 FF FA 00 00 62 
   1249      1467.226 DT 0CFF2100 Rx 8  00 00 32 00 32 00 00 58 
   1250      1467.529 DT 18FF2200 Rx 8  FC 00 00 00 00 32 00 32 
   1251      1471.276 DT 0CFF6213 Rx 8  D2 7F 15 80 00 AF BF 53 
   1252      1475.345 DT 18F0090B Rx 8  FF FF FF 60 7D 7F 7D 7D 
   1253      1475.624 DT 0CFF200B Rx 8  F0 00 32 FF FA 00 00 73 
   1254      1477.224 DT 0CFF2100 Rx 8  00 00 32 00 32 00 00 69 
   1255      1477.527 DT 18FF2200 Rx 8  FC 00 00 00 00 32 00 32 
   1256      1478.384 DT 0CF00400 Rx 8  FF FF FF 00 00 FF F6 6F 
   1257      1478.675 DT 18FF8627 Rx 8  F3 FF FF FF FF FF FF FF 
   1258      1478.965 DT 0CFF6600 Rx 8  00 00 8F 8C 01 00 00 FF 
   1259      1481.313 DT 0CFF6213 Rx 8  D2 7F 28 80 00 AF CF 42 
   1260      1485.429 DT 18F0090B Rx 8  FF FF FF 60 7D 7F 7D 7D 
   1261      1485.713 DT 18F0010B Rx 8  C0 FF 3F FF FF 01 0B FC 
   1262      1485.999 DT 18FE4F0B Rx 8  F4 3F FF FF FF FF FF FF 
   1263      1486.283 DT 0CFF270B Rx 8  00 00 00 00 00 00 AC 0D 
   1264      1486.570 DT 18FEF10B Rx 8  3F 00 00 CF FF FF 2F DF 
   1265      1486.855 DT 0CFF200B Rx 8  F0 00 32 FF FA 00 00 04 
   1266      1487.277 DT 0CFF2100 Rx 8  00 00 32 00 32 00 00 7A 
   1267      1487.592 DT 18FF2200 Rx 8  FC 00 00 00 00 32 00 32 
   1268      1491.288 DT 0CFF6213 Rx 8  D2 7F FD 7F 00 AF DF 6A 
   1269      1495.362 DT 18F0090B Rx 8  FF FF FF 60 7D 7F 7D 7D 
   1270      1495.647 DT 0CFF200B Rx 8  F0 00 32 FF FA 00 00 15 
   1271      1497.224 DT 0CFF2100 Rx 8  00 00 32 00 32 00 00 0B 
   1272      1497.532 DT 18FF2200 Rx 8  FC 00 00 00 00 32 00 32 
   1273      1498.337 DT 0CF00400 Rx 8  FF FF FF 00 00 FF F6 6F 
   1274      1498.646 DT 0CFF6600 Rx 8  00 00 8F 8C 01 00 00 FF 
   1275      1501.314 DT 0CFF6213 Rx 8  D2 7F FD 7F 00 AF EF 9C 
   1276      1501.594 DT 18FF6913 Rx 8  02 7D F9 7C 91 7F FF FF 
   1277      1505.312 DT 18F0090B Rx 8  FF FF FF 60 7D 48 7D 7D 
   1278      1505.597 DT 0CFF270B Rx 8  00 00 00 00 00 00 BC 5F 
   1279      1505.883 DT 0CFF200B Rx 8  F0 00 32 FF FA 00 00 26 
   1280      1507.225 DT 0CFF2100 Rx 8  00 00 32 00 32 00 00 1C 
   1281      1507.529 DT 18FF2200 Rx 8  FC 00 00 00 00 32 00 32 
   1282      1509.116 DT 18FEF100 Rx 8  FF FF FF 0C FF 00 F0 FF 
   1283      1509.407 DT 10FF6500 Rx 8  FF FF FF FF 3F FC FF FF 
   1284      1509.698 DT 18FEF200 Rx 8  00 00 00 00 99 14 38 FF 
   1285      1510.007 DT 18FF6D00 Rx 8  31 FF 31 FF FF FF FF FF 
   1286      1511.274 DT 0CFF6213 Rx 8  D2 7F EE 7F 00 AF FF 22 
   1287      1515.549 DT 18F0090B Rx 8  FF FF FF 60 7D 48 7D 7D 
   1288      1515.829 DT 0CFF200B Rx 8  F0 00 32 FF FA 00 00 47 
   1289      1517.217 DT 0CFF2100 Rx 8  00 00 32 00 32 00 00 2D 
   1290      1517.525 DT 18FF2200 Rx 8  FC 00 00 00 00 32 00 32 
   1291      1518.382 DT 0CF00400 Rx 8  FF FF FF 00 00 FF F6 6F 
   1292      1518.690 DT 0CFF6600 Rx 8  00 00 8F 8C 01 00 00 FF 
   1293      1521.261 DT 0CFF6213 Rx 8  D2 7F FD 7F 00 AF 0F 4A 
   1294      1525.348 DT 18F0090B Rx 8  FF FF FF 60 7D 10 7D 7D 
   1295      1525.639 DT 0CFF270B Rx 8  00 00 00 00 00 00 CC 34 
   1296      1525.918 DT 0CFF200B Rx 8  F0 00 32 FF FA 00 00 58 
   1297      1527.226 DT 0CFF2100 Rx 8  00 00 32 00 32 00 00 3E 
   1298      1527.535 DT 18FF2200 Rx 8  FC 00 00 00 00 32 00 32 
   1299      1528.415 DT 18FEF127 Rx 8  F7 FF FF 0F FF FF 4F B7 
   1300      1528.734 DT 0C090027 Rx 8  7D FF FF FF FF FF FF FF 
   1301      1531.271 DT 0CFF6213 Rx 8  D2 7F F3 7F 00 AF 1F 9D 
   1302      1532.671 DT 18F00141 Rx 8  FF FF 3C FF FF FF FF FF 
   1303      1533.870 DT 10FF6527 Rx 8  1F 03 FC F0 FF FF FF FF 
   1304      1535.356 DT 18F0090B Rx 8  FF FF FF 60 7D 10 7D 7D 
   1305      1535.641 DT 0CFF200B Rx 8  F0 00 32 FF FA 00 00 69 
   1306      1537.217 DT 0CFF2100 Rx 8  00 00 32 00 32 00 00 4F 
   1307      1537.521 DT 18FF2200 Rx 8  FC 00 00 00 00 32 00 32 
   1308      1538.343 DT 0CF00400 Rx 8  FF FF FF 00 00 FF F6 6F 
   1309      1538.628 DT 18FEF186 Rx 8  FF FF FF F3 CC FF 9F A0 
   1310      1538.919 DT 0CFF6600 Rx 8  00 00 8F 8C 01 00 00 FF 
   1311      1539.210 DT 0CFF8186 Rx 8  F3 FC FF FF FF FF FF FF 
   1312      1539.491 DT 10FF6487 Rx 8  F0 FF FF FF FF C0 FF FF 
   1313      1539.798 DT 0CFF8187 Rx 8  FF F3 FF FF FF FF FF FF 
   1314      1541.277 DT 0CFF6213 Rx 8  D2 7F FD 7F 00 AF 2F EE 
   1315      1545.346 DT 18F0090B Rx 8  FF FF FF 60 7D 10 7D 7D 
   1316      1545.637 DT 0CFF270B Rx 8  00 00 00 00 00 00 DC 66 
   1317      1545.916 DT 0CFF200B Rx 8  F0 00 32 FF FA 00 00 7A 
   1318      1547.224 DT 0CFF2100 Rx 8  00 00 32 00 32 00 00 40 
   1319      1547.532 DT 18FF2200 Rx 8  FC 00 00 00 00 32 00 32 
   1320      1551.269 DT 0CFF6213 Rx 8  D2 7F 0B 80 00 AF 3F DA 
   1321      1553.903 DT 18D0FF17 Rx 8  18 FF FF FF FF FF FF FF 
   1322      1554.263 DT 18FEC117 Rx 8  FF FF FF FF F8 E0 03 00 
   1323      1554.600 DT 18FEF717 Rx 8  FF FF FF FF F5 00 FF FF 
   1324      1554.948 DT 18FEF517 Rx 8  FF FF FF E0 24 FF FF FF 
   1325      1555.320 DT 18FF7117 Rx 8  FF 00 F8 FF 29 A4 02 00 
   1326      1555.605 DT 18F0090B Rx 8  FF FF FF 60 7D 10 7D 7D 
   1327      1555.891 DT 0CFF200B Rx 8  F0 00 32 FF FA 00 00 0B 
   1328      1556.175 DT 18FECA17 Rx 8  FF FF 00 00 00 00 FF FF 
   1329      1557.243 DT 0CFF2100 Rx 8  00 00 32 00 32 00 00 51 
   1330      1557.553 DT 18FF2200 Rx 8  FC 00 00 00 00 32 00 32 
   1331      1558.500 DT 0CF00400 Rx 8  FF FF FF 00 00 FF F6 6F 
   1332      1558.809 DT 0CFF6600 Rx 8  00 00 8F 8C 01 00 00 FF 
   1333      1561.260 DT 0CFF6213 Rx 8  D2 7F F3 7F 00 AF 4F 52 
   1334      1565.346 DT 18F0090B Rx 8  FF FF FF 60 7D 10 7D 7D 
   1335      1565.637 DT 0CFF270B Rx 8  00 00 00 00 00 00 EC 90 
   1336      1565.916 DT 0CFF200B Rx 8  F0 00 32 FF FA 00 00 1C 
   1337      1567.236 DT 0CFF2100 Rx 8  00 00 32 00 32 00 00 62 
   1338      1567.544 DT 18FF2200 Rx 8  FC 00 00 00 00 32 00 32 
   1339      1567.944 DT 18FEEE00 Rx 8  44 FF FF FF FF FF FF FF 
   1340      1568.240 DT 18FECA00 Rx 8  40 FF 00 00 00 00 FF FF 
   1341      1568.531 DT 18FEFC00 Rx 8  FF FA FF FF FF FF FF FF 
   1342      1568.845 DT 18FEF700 Rx 8  FF FF FF FF F6 00 FF FF 
   1343      1569.154 DT 18FF2E00 Rx 8  38 FE FF FF FF FF FF FF 
   1344      1569.457 DT 18FEC100 Rx 8  A0 F1 42 00 00 00 00 00 
   1345      1571.279 DT 0CFF6213 Rx 8  D2 7F FD 7F 00 AF 5F 85 
   1346      1575.313 DT 18F0090B Rx 8  FF FF FF 60 7D 10 7D 7D 
   1347      1575.599 DT 0CFF200B Rx 8  F0 00 32 FF FA 00 00 2D 
   1348      1577.227 DT 0CFF2100 Rx 8  00 00 32 00 32 00 00 73 
   1349      1577.535 DT 18FF2200 Rx 8  FC 00 00 00 00 32 00 32 
   1350      1578.347 DT 0CF00400 Rx 8  FF FF FF 00 00 FF F6 6F 
   1351      1578.638 DT 18FF8627 Rx 8  F3 FF FF FF FF FF FF FF 
   1352      1578.929 DT 0CFF6600 Rx 8  00 00 8F 8C 01 00 00 FF 
   1353      1581.292 DT 0CFF6213 Rx 8  D2 7F E9 7F 00 AF 6F 37 
   1354      1585.418 DT 18F0090B Rx 8  FF FF FF 60 7D 48 7D 7D 
   1355      1585.703 DT 18F0010B Rx 8  C0 FF 3F FF FF 01 0B FC 
   1356      1585.989 DT 18FE4F0B Rx 8  F4 3F FF FF FF FF FF FF 
   1357      1586.273 DT 0CFF270B Rx 8  00 00 00 00 00 00 FC C2 
   1358      1586.560 DT 18FEF10B Rx 8  3F 00 00 CF FF FF 3F CF 
   1359      1586.845 DT 0CFF200B Rx 8  F0 00 32 FF FA 00 00 3E 
   1360      1587.279 DT 0CFF2100 Rx 8  00 00 32 00 32 00 00 04 
   1361      1587.593 DT 18FF2200 Rx 8  FC 00 00 00 00 32 00 32 
   1362      1591.267 DT 0CFF6213 Rx 8  D2 7F DF 7F 00 AF 7F 8B 
   1363      1595.346 DT 18F0090B Rx 8  FF FF FF 60 7D 48 7D 7D 
   1364      1595.632 DT 0CFF200B Rx 8  F0 00 32 FF FA 00 00 5F 
   1365      1597.225 DT 0CFF2100 Rx 8  00 00 32 00 32 00 00 15 
   1366      1597.529 DT 18FF2200 Rx 8  FC 00 00 00 00 32 00 32 
   1367      1598.385 DT 0CF00400 Rx 8  FF FF FF 00 00 FF F6 6F 
   1368      1598.694 DT 0CFF6600 Rx 8  00 00 8F 8C 01 00 00 FF 
   1369      1601.328 DT 0CFF6213 Rx 8  D2 7F 10 80 00 AF 8F B4 
   1370      1601.612 DT 18FF6913 Rx 8  02 7D 00 7D 0F 80 FF FF 
   1371      1605.343 DT 18F0090B Rx 8  FF FF FF 60 7D 48 7D 7D 
   1372      1605.629 DT 0CFF270B Rx 8  00 00 00 00 00 00 0C 46 
   1373      1605.913 DT 0CFF200B Rx 8  F0 00 32 FF FA 00 00 40 
   1374      1607.221 DT 0CFF2100 Rx 8  00 00 32 00 32 00 00 26 
   1375      1607.531 DT 18FF2200 Rx 8  FC 00 00 00 00 32 00 32 
   1376      1608.923 DT 18FEF100 Rx 8  FF FF FF 0C FF 00 F0 FF 
   1377      1609.232 DT 18FEF200 Rx 8  00 00 00 00 99 14 38 FF 
   1378      1609.540 DT 18FF6D00 Rx 8  31 FF 31 FF FF FF FF FF 
   1379      1611.197 DT 0CFF6213 Rx 8  D2 7F 0B 80 00 AF 9F 91 
   1380      1615.391 DT 18F0090B Rx 8  FF FF FF 60 7D 48 7D 7D 
   1381      1615.670 DT 0CFF200B Rx 8  F0 00 32 FF FA 00 00 51 
   1382      1617.223 DT 0CFF2100 Rx 8  00 00 32 00 32 00 00 37 
   1383      1617.526 DT 18FF2200 Rx 8  FC 00 00 00 00 32 00 32 
   1384      1618.343 DT 0CF00400 Rx 8  FF FF FF 00 00 FF F6 6F 
   1385      1618.646 DT 0CFF6600 Rx 8  00 00 8F 8C 01 00 00 FF 
   1386      1621.319 DT 0CFF6213 Rx 8  D2 7F F8 7F 00 AF AF 10 
   1387      1625.416 DT 18F0090B Rx 8  FF FF FF 60 7D 48 7D 7D 
   1388      1625.702 DT 0CFF270B Rx 8  00 00 00 00 00 00 1C 14 
   1389      1625.987 DT 0CFF200B Rx 8  F0 00 32 FF FA 00 00 62 
   1390      1627.226 DT 0CFF2100 Rx 8  00 00 32 00 32 00 00 58 
   1391      1627.529 DT 18FF2200 Rx 8  FC 00 00 00 00 32 00 32 
   1392      1628.410 DT 18FEF127 Rx 8  F7 FF FF 0F FF FF 5F A7 
   1393      1628.735 DT 0C090027 Rx 8  7D FF FF FF FF FF FF FF 
   1394      1631.277 DT 0CFF6213 Rx 8  D2 7F FD 7F 00 AF BF 53 
   1395      1632.677 DT 10FF6541 Rx 8  FF FF FF CF FF C3 FF FF 
   1396      1632.984 DT 10FF6C41 Rx 8  00 FF FF FF FF FF FF FF 
   1397      1633.286 DT 1CFF6A41 Rx 8  FF FF FF FF FF FF C0 FF 
   1398      1633.596 DT 18F00141 Rx 8  FF FF 3C FF FF FF FF FF 
   1399      1635.332 DT 18F0090B Rx 8  FF FF FF 60 7D 48 7D 7D 
   1400      1635.618 DT 0CFF200B Rx 8  F0 00 32 FF FA 00 00 73 
   1401      1637.223 DT 0CFF2100 Rx 8  00 00 32 00 32 00 00 69 
   1402      1637.531 DT 18FF2200 Rx 8  FC 00 00 00 00 32 00 32 
   1403      1638.366 DT 18FEF186 Rx 8  FF FF FF F3 CC FF AF 90 
   1404      1638.650 DT 0CF00400 Rx 8  FF FF FF 00 00 FF F6 6F 
   1405      1638.941 DT 0CFF8186 Rx 8  F3 FC FF FF FF FF FF FF 
   1406      1639.232 DT 0CFF6600 Rx 8  00 00 8F 8C 01 00 00 FF 
   1407      1639.523 DT 0CFF8187 Rx 8  FF F3 FF FF FF FF FF FF 
   1408      1639.814 DT 10FF6586 Rx 8  FC FF FF FF FF FF FF FF 
   1409      1641.340 DT 0CFF6213 Rx 8  D2 7F F3 7F 00 AF CF BD 
   1410      1645.293 DT 18F0090B Rx 8  FF FF FF 60 7D 48 7D 7D 
   1411      1645.585 DT 0CFF270B Rx 8  00 00 00 00 00 00 2C E2 
   1412      1645.869 DT 0CFF200B Rx 8  F0 00 32 FF FA 00 00 04 
   1413      1647.230 DT 0CFF2100 Rx 8  00 00 32 00 32 00 00 7A 
   1414      1647.538 DT 18FF2200 Rx 8  FC 00 00 00 00 32 00 32 
   1415      1651.314 DT 0CFF6213 Rx 8  D2 7F 06 80 00 AF DF 86 
   1416      1655.427 DT 18F0090B Rx 8  FF FF FF 60 7D 48 7D 7D 
   1417      1655.707 DT 0CFF200B Rx 8  F0 00 32 FF FA 00 00 15 
   1418      1657.225 DT 0CFF2100 Rx 8  00 00 32 00 32 00 00 0B 
   1419      1657.535 DT 18FF2200 Rx 8  FC 00 00 00 00 32 00 32 
   1420      1658.345 DT 0CF00400 Rx 8  FF FF FF 00 00 FF F6 6F 
   1421      1658.648 DT 0CFF6600 Rx 8  00 00 8F 8C 01 00 00 FF 
   1422      1661.350 DT 0CFF6213 Rx 8  D2 7F F3 7F 00 AF EF 19 
   1423      1665.339 DT 18F0090B Rx 8  FF FF FF 60 7D 48 7D 7D 
   1424      1665.630 DT 0CFF270B Rx 8  00 00 00 00 00 00 3C B0 
   1425      1665.909 DT 0CFF200B Rx 8  F0 00 32 FF FA 00 00 26 
   1426      1667.229 DT 0CFF2100 Rx 8  00 00 32 00 32 00 00 1C 
   1427      1667.532 DT 18FF2200 Rx 8  FC 00 00 00 00 32 00 32 
   1428      1671.314 DT 0CFF6213 Rx 8  D2 7F FD 7F 00 AF FF CE 
   1429      1675.330 DT 18F0090B Rx 8  FF FF FF 60 7D 48 7D 7D 
   1430      1675.616 DT 0CFF200B Rx 8  F0 00 32 FF FA 00 00 47 
   1431      1677.226 DT 0CFF2100 Rx 8  00 00 32 00 32 00 00 2D 
   1432      1677.536 DT 18FF2200 Rx 8  FC 00 00 00 00 32 00 32 
   1433      1678.387 DT 0CF00400 Rx 8  FF FF FF 00 00 FF F6 6F 
   1434      1678.678 DT 1CFF6A27 Rx 8  3F 9C FF F3 FF FF FF FF 
   1435      1678.969 DT 0CFF6600 Rx 8  00 00 8F 8C 01 00 00 FF 
   1436      1679.249 DT 10F0ED27 Rx 8  FC FF FF FF FF FF AF BA 
   1437      1679.563 DT 18FF8627 Rx 8  F3 FF FF FF FF FF FF FF 
   1438      1681.340 DT 0CFF6213 Rx 8  D2 7F 06 80 00 AF 0F A6 
   1439      1685.340 DT 18F0090B Rx 8  FF FF FF 60 7D 48 7D 7D 
   1440      1685.626 DT 18F0010B Rx 8  C0 FF 3F FF FF 01 0B FC 
   1441      1685.910 DT 18FE4F0B Rx 8  F4 3F FF FF FF FF FF FF 
   1442      1686.196 DT 0CFF270B Rx 8  00 00 00 00 00 00 4C DB 
   1443      1686.488 DT 18FEF10B Rx 8  3F 00 00 CF FF FF 4F BF 
   1444      1686.772 DT 18FEF70B Rx 8  FF FF FF FF F4 00 F4 00 
   1445      1687.058 DT 0CFF200B Rx 8  F0 00 32 FF FA 00 00 58 
   1446      1687.350 DT 0CFF2100 Rx 8  00 00 32 00 32 00 00 3E 
   1447      1687.669 DT 18FF2200 Rx 8  FC 00 00 00 00 32 00 32 
   1448      1691.320 DT 0CFF6213 Rx 8  D2 7F FD 7F 00 AF 1F 18 
   1449      1695.438 DT 18F0090B Rx 8  FF FF FF 60 7D 48 7D 7D 
   1450      1695.723 DT 0CFF200B Rx 8  F0 00 32 FF FA 00 00 69 
   1451      1697.226 DT 0CFF2100 Rx 8  00 00 32 00 32 00 00 4F 
   1452      1697.529 DT 18FF2200 Rx 8  FC 00 00 00 00 32 00 32 
   1453      1698.346 DT 0CF00400 Rx 8  FF FF FF 00 00 FF F6 6F 
   1454      1698.653 DT 0CFF6600 Rx 8  00 00 8F 8C 01 00 00 FF 
   1455      1699.099 DT 18FECA0B Rx 8  00 FF 00 00 00 00 FF FF 
   1456      1701.334 DT 0CFF6213 Rx 8  D2 7F FD 7F 00 AF 2F EE 
   1457      1701.618 DT 18FF6913 Rx 8  02 7D FF 7C F9 7F FF FF 
   1458      1705.333 DT 18F0090B Rx 8  FF FF FF 60 7D 48 7D 7D 
   1459      1705.617 DT 0CFF270B Rx 8  00 00 00 00 00 00 5C 89 
   1460      1705.903 DT 0CFF200B Rx 8  F0 00 32 FF FA 00 00 7A 
   1461      1707.227 DT 0CFF2100 Rx 8  00 00 32 00 32 00 00 40 
   1462      1707.530 DT 18FF2200 Rx 8  FC 00 00 00 00 32 00 32 
   1463      1709.119 DT 18FEF100 Rx 8  FF FF FF 0C FF 00 F0 FF 
   1464      1709.411 DT 10FF6500 Rx 8  FF FF FF FF 3F FC FF FF 
   1465      1709.702 DT 18FEF200 Rx 8  00 00 00 00 99 14 38 FF 
   1466      1710.004 DT 18FF6D00 Rx 8  31 FF 31 FF FF FF FF FF 
   1467      1711.306 DT 0CFF6213 Rx 8  D2 7F E9 7F 00 AF 3F F8 
   1468      1715.535 DT 18F0090B Rx 8  FF FF FF 60 7D 48 7D 7D 
   1469      1715.819 DT 0CFF200B Rx 8  F0 00 32 FF FA 00 00 0B 
   1470      1717.225 DT 0CFF2100 Rx 8  00 00 32 00 32 00 00 51 
   1471      1717.528 DT 18FF2200 Rx 8  FC 00 00 00 00 32 00 32 
   1472      1718.391 DT 0CF00400 Rx 8  FF FF FF 00 00 FF F6 6F 
   1473      1718.693 DT 0CFF6600 Rx 8  00 00 8F 8C 01 00 00 FF 
   1474      1721.350 DT 0CFF6213 Rx 8  D2 7F 0B 80 00 AF 4F B1 
   1475      1725.322 DT 18F0090B Rx 8  FF FF FF 60 7D 48 7D 7D 
   1476      1725.613 DT 0CFF270B Rx 8  00 00 00 00 00 00 6C 7F 
   1477      1725.898 DT 0CFF200B Rx 8  F0 00 32 FF FA 00 00 1C 
   1478      1727.224 DT 0CFF2100 Rx 8  00 00 32 00 32 00 00 62 
   1479      1727.527 DT 18FF2200 Rx 8  FC 00 00 00 00 32 00 32 
   1480      1728.406 DT 18FEF127 Rx 8  F7 FF FF 0F FF FF 6F 97 
   1481      1728.726 DT 0C090027 Rx 8  7D FF FF FF FF FF FF FF 
   1482      1731.249 DT 0CFF6213 Rx 8  D2 7F FD 7F 00 AF 5F 85 
   1483      1732.672 DT 18F00141 Rx 8  FF FF 3C FF FF FF FF FF 
   1484      1733.861 DT 10FF6527 Rx 8  1F 03 FC F0 FF FF FF FF 
   1485      1735.265 DT 18F0090B Rx 8  FF FF FF 60 7D 48 7D 7D 
   1486      1735.545 DT 0CFF200B Rx 8  F0 00 32 FF FA 00 00 2D 
   1487      1737.225 DT 0CFF2100 Rx 8  00 00 32 00 32 00 00 73 
   1488      1737.533 DT 18FF2200 Rx 8  FC 00 00 00 00 32 00 32 
   1489      1738.345 DT 0CF00400 Rx 8  FF FF FF 00 00 FF F6 6F 
   1490      1738.641 DT 0CFF8187 Rx 8  FF F3 FF FF FF FF FF FF 
   1491      1738.927 DT 0CFF6600 Rx 8  00 00 8F 8C 01 00 00 FF 
   1492      1739.211 DT 18FEF186 Rx 8  FF FF FF F3 CC FF BF 80 
   1493      1739.515 DT 0CFF8186 Rx 8  F3 FC FF FF FF FF FF FF 
   1494      1741.251 DT 0CFF6213 Rx 8  D2 7F FD 7F 00 AF 6F 73 
   1495      1745.383 DT 18F0090B Rx 8  FF FF FF 60 7D 48 7D 7D 
   1496      1745.674 DT 0CFF270B Rx 8  00 00 00 00 00 00 7C 2D 
   1497      1745.954 DT 0CFF200B Rx 8  F0 00 32 FF FA 00 00 3E 
   1498      1747.228 DT 0CFF2100 Rx 8  00 00 32 00 32 00 00 04 
   1499      1747.536 DT 18FF2200 Rx 8  FC 00 00 00 00 32 00 32 
   1500      1751.261 DT 0CFF6213 Rx 8  D2 7F FD 7F 00 AF 7F 21 
   1501      1752.696 DT 19FF1741 Rx 8  FF FF FF FF FF FF FF FF 
   1502      1755.089 DT 18D0FF17 Rx 8  19 FF FF FF FF FF FF FF 
   1503      1755.370 DT 18F0090B Rx 8  FF FF FF 60 7D 48 7D 7D 
   1504      1755.654 DT 0CFF200B Rx 8  F0 00 32 FF FA 00 00 5F 
   1505      1757.231 DT 0CFF2100 Rx 8  00 00 32 00 32 00 00 15 
   1506      1757.539 DT 18FF2200 Rx 8  FC 00 00 00 00 32 00 32 
   1507      1758.397 DT 0CF00400 Rx 8  FF FF FF 00 00 FF F6 6F 
   1508      1758.699 DT 0CFF6600 Rx 8  00 00 8F 8C 01 00 00 FF 
   1509      1761.230 DT 0CFF6213 Rx 8  D2 7F 01 80 00 AF 8F E1 
   1510      1762.361 DT 18FECA13 Rx 8  00 FF 00 00 00 00 FF FF 
   1511      1765.321 DT 18F0090B Rx 8  FF FF FF 60 7D 48 7D 7D 
   1512      1765.612 DT 0CFF270B Rx 8  00 00 00 00 00 00 8C A9 
   1513      1765.892 DT 0CFF200B Rx 8  F0 00 32 FF FA 00 00 40 
   1514      1767.238 DT 0CFF2100 Rx 8  00 00 32 00 32 00 00 26 
   1515      1767.541 DT 18FF2200 Rx 8  FC 00 00 00 00 32 00 32 
   1516      1771.255 DT 0CFF6213 Rx 8  D2 7F F8 7F 00 AF 9F E6 
   1517      1775.324 DT 18F0090B Rx 8  FF FF FF 60 7D 48 7D 7D 
   1518      1775.603 DT 0CFF200B Rx 8  F0 00 32 FF FA 00 00 51 
   1519      1777.226 DT 0CFF2100 Rx 8  00 00 32 00 32 00 00 37 
   1520      1777.529 DT 18FF2200 Rx 8  FC 00 00 00 00 32 00 32 
   1521      1778.346 DT 0CF00400 Rx 8  FF FF FF 00 00 FF F6 6F 
   1522      1778.637 DT 18FF8627 Rx 8  F3 FF FF FF FF FF FF FF 
   1523      1778.928 DT 0CFF6600 Rx 8  00 00 8F 8C 01 00 00 FF 
   1524      1781.242 DT 0CFF6213 Rx 8  D2 7F 0B 80 00 AF AF 67 
   1525      1785.412 DT 18F0090B Rx 8  FF FF FF 60 7D 48 7D 7D 
   1526      1785.698 DT 18F0010B Rx 8  C0 FF 3F FF FF 01 0B FC 
   1527      1785.978 DT 18FE4F0B Rx 8  F4 3F FF FF FF FF FF FF 
   1528      1786.269 DT 0CFF270B Rx 8  00 00 00 00 00 00 9C FB 
