;$FILEVERSION=1.1
;$STARTTIME=45471.6716547222
;
;   Start time: 6/28/2024 16:07:10.968.0
;   Generated by PCAN-View v4.3.4.615
;
;   Message Number
;   |         Time Offset (ms)
;   |         |        Type
;   |         |        |        ID (hex)
;   |         |        |        |     Data Length
;   |         |        |        |     |   Data Bytes (hex) ...
;   |         |        |        |     |   |
;---+--   ----+----  --+--  ----+---  +  -+ -- -- -- -- -- -- --
     1)         0.3  Rx         06F7  8  00 00 00 00 00 00 00 00 
     2)         2.9  Rx         01F9  8  20 00 14 E6 00 00 00 00 
     3)         3.2  Rx         0231  8  D3 90 00 D3 D2 C2 4C 9E 
     4)         3.4  Rx         0233  8  8B 79 00 18 D6 00 00 00 
     5)         3.6  Rx         023D  8  23 00 00 D6 00 25 00 8B 
     6)         3.9  Rx         023E  8  02 60 FF 25 00 D6 00 A1 
     7)         4.1  Rx         0251  8  10 00 00 04 00 EF 42 00 
     8)         4.4  Rx         0253  8  03 5E FF 00 00 00 8E 02 
     9)         4.6  Rx         0551  8  81 85 00 A0 00 02 80 FF 
    10)         4.7  Rx         0794  3  01 C1 01 
    11)         5.2  Rx         02A5  7  00 00 00 20 00 00 00 
    12)         6.0  Rx         0280  8  03 00 00 00 00 00 1C 40 
    13)         6.3  Rx         02DE  8  0F 00 00 00 53 3F 07 F8 
    14)         6.5  Rx         02D1  7  00 00 00 01 31 D1 01 
    15)         9.2  Rx         0002  5  1F 0E 00 07 34 
    16)        10.3  Rx         06F7  8  00 00 00 00 00 00 00 01 
    17)        13.1  Rx         01F9  8  20 00 14 E6 00 00 00 00 
    18)        13.3  Rx         0231  8  D3 A0 00 D3 D2 C2 4C 9E 
    19)        13.5  Rx         0233  8  8B 79 00 18 D6 00 00 00 
    20)        13.8  Rx         023D  8  43 00 00 D6 00 23 00 8B 
    21)        14.0  Rx         023E  8  02 60 FF 23 00 D6 00 92 
    22)        14.3  Rx         0551  8  81 85 00 A0 00 02 80 FF 
    23)        14.5  Rx         0251  8  10 00 00 04 00 2F 43 00 
    24)        14.7  Rx         0253  8  00 5E FF 00 00 00 8D 02 
    25)        15.0  Rx         0580  8  00 78 40 00 00 00 00 00 
    26)        15.2  Rx         02A5  7  00 00 00 20 00 00 00 
    27)        15.4  Rx         0794  3  01 C1 02 
    28)        16.0  Rx         02DE  8  0F 00 01 00 53 67 07 F8 
    29)        16.3  Rx         02D1  7  00 00 00 02 31 D1 01 
    30)        17.8  Rx         0215  6  FF F0 FF 00 FF FF 
    31)        18.0  Rx         0216  1  40 
    32)        18.4  Rx         0284  8  00 00 00 00 00 00 70 F6 
    33)        18.6  Rx         0285  8  00 00 00 00 00 00 70 F7 
    34)        18.8  Rx         029E  8  D3 00 00 00 00 F2 00 65 
    35)        19.1  Rx         0002  5  1F 0E 00 07 25 
    36)        19.2  Rx         02A0  5  AC 7F F9 7F FF 
    37)        20.3  Rx         06F7  8  00 00 00 00 00 00 00 02 
    38)        23.3  Rx         01F9  8  20 00 14 E6 00 00 00 00 
    39)        23.5  Rx         0231  8  D3 B0 00 D3 D2 C2 4C 9E 
    40)        23.8  Rx         0233  8  8B 79 00 18 D6 00 00 00 
    41)        24.0  Rx         023D  8  63 00 00 D6 00 25 00 8B 
    42)        24.3  Rx         023E  8  02 60 FF 25 00 D6 00 93 
    43)        24.5  Rx         0551  8  81 85 00 A0 00 02 80 FF 
    44)        24.6  Rx         0794  3  01 C1 03 
    45)        25.2  Rx         02A5  7  00 00 00 20 00 00 00 
    46)        25.5  Rx         0251  8  10 00 00 04 00 6F 10 52 
    47)        25.7  Rx         0253  8  01 5E FF 00 00 00 8D 02 
    48)        26.2  Rx         0280  8  03 00 00 00 00 00 1C 40 
    49)        26.5  Rx         02DE  8  0F 00 02 00 53 8F 07 F8 
    50)        26.7  Rx         02D1  7  00 00 00 03 31 D1 01 
    51)        28.0  Rx         035D  8  C0 03 00 00 00 00 00 00 
    52)        28.2  Rx         060D  8  08 06 00 00 00 00 20 00 
    53)        29.0  Rx         0002  5  1F 0E 00 07 16 
    54)        30.4  Rx         06F7  8  00 00 00 00 00 00 00 03 
    55)        33.6  Rx         01F9  8  20 00 14 E6 00 00 00 00 
    56)        33.9  Rx         0231  8  D3 80 00 D3 D2 C2 4C 9E 
    57)        34.1  Rx         0233  8  8B 79 00 18 D6 00 00 00 
    58)        34.3  Rx         023D  8  03 00 00 D6 00 24 00 8B 
    59)        34.6  Rx         023E  8  02 60 FF 24 00 D6 00 90 
    60)        34.8  Rx         0551  8  81 85 00 A0 00 02 80 FF 
    61)        35.0  Rx         0794  3  01 C1 00 
    62)        35.3  Rx         02A5  7  00 00 00 20 00 00 00 
    63)        36.0  Rx         02DE  8  0F 00 03 00 53 B7 07 F8 
    64)        36.3  Rx         02D1  7  00 00 00 00 31 D1 01 
    65)        36.5  Rx         0251  8  10 00 00 04 00 AF 11 48 
    66)        36.7  Rx         0253  8  02 5E FF 00 00 00 8E 02 
    67)        37.8  Rx         0215  6  FF F0 FF 00 FF FF 
    68)        38.1  Rx         0385  7  84 00 00 00 00 00 00 
    69)        38.1  Rx         0216  1  40 
    70)        38.4  Rx         0284  8  00 00 00 00 00 00 71 F7 
    71)        38.6  Rx         0285  8  00 00 00 00 00 00 71 F8 
    72)        38.8  Rx         0002  5  1F 0E 00 07 07 
    73)        39.1  Rx         029E  8  D3 00 00 00 00 F2 01 66 
    74)        39.2  Rx         02A0  5  AD 7F FA 7F FF 
    75)        39.5  Rx         0354  8  00 00 00 00 00 00 04 00 
    76)        40.3  Rx         06F7  8  00 00 00 00 00 00 00 00 
    77)        43.5  Rx         0251  8  10 00 00 04 00 EF 12 30 
    78)        43.7  Rx         0253  8  03 5E FF 00 00 00 8D 02 
    79)        44.0  Rx         01F9  8  20 00 14 E6 00 00 00 00 
    80)        44.2  Rx         0231  8  D3 90 00 D3 D2 C2 4C 9E 
    81)        44.4  Rx         0233  8  8B 79 00 18 D6 00 00 00 
    82)        44.7  Rx         023D  8  23 00 00 D6 00 24 00 8B 
    83)        44.9  Rx         023E  8  02 60 FF 24 00 D6 00 91 
    84)        45.2  Rx         0551  8  81 85 00 A0 00 02 80 FF 
    85)        45.4  Rx         02A5  7  00 00 00 20 00 00 00 
    86)        45.5  Rx         0794  3  01 C1 01 
    87)        46.1  Rx         0280  8  03 00 00 00 00 00 1C 40 
    88)        46.3  Rx         02DE  8  0F 00 00 00 53 DF 07 F8 
    89)        46.5  Rx         02D1  7  00 00 00 01 31 D1 01 
    90)        48.8  Rx         0002  5  1F 0E 00 07 F8 
    91)        50.4  Rx         06F7  8  00 00 00 00 00 00 00 01 
    92)        54.0  Rx         01F9  8  20 00 14 E6 00 00 00 00 
    93)        54.2  Rx         0231  8  D3 A0 00 D3 D2 C2 4C 9E 
    94)        54.4  Rx         0233  8  8B 79 00 18 D6 00 00 00 
    95)        54.7  Rx         023D  8  43 00 00 D6 00 24 00 8B 
    96)        54.9  Rx         023E  8  02 60 FF 24 00 D6 00 A2 
    97)        55.2  Rx         0251  8  10 00 00 04 00 2F 13 35 
    98)        55.4  Rx         0253  8  00 5E FF 00 00 00 8E 02 
    99)        55.6  Rx         02A5  7  00 00 00 20 00 00 00 
   100)        55.8  Rx         0551  8  81 85 00 A0 00 02 80 FF 
   101)        56.1  Rx         02DE  8  0F 00 01 00 54 07 07 F8 
   102)        56.3  Rx         02D1  7  00 00 00 02 31 D1 01 
   103)        56.5  Rx         0794  3  01 C1 02 
   104)        57.8  Rx         0215  6  FF F0 FF 00 FF FF 
   105)        58.1  Rx         0216  1  40 
   106)        58.4  Rx         0284  8  00 00 00 00 00 00 72 F8 
   107)        58.6  Rx         0285  8  00 00 00 00 00 00 72 F9 
   108)        58.8  Rx         0002  5  1F 0E 00 07 E9 
   109)        59.1  Rx         029E  8  D3 00 00 00 00 F3 02 68 
   110)        59.3  Rx         02A0  5  AF 7F F8 7F FF 
   111)        59.4  Rx         0625  6  32 00 FF 1D 00 00 
   112)        60.4  Rx         06F7  8  00 00 00 00 00 00 00 02 
   113)        64.4  Rx         01F9  8  20 00 14 E6 00 00 00 00 
   114)        64.6  Rx         0231  8  D3 B0 00 D3 D2 C2 4C 9E 
   115)        64.9  Rx         0233  8  8B 79 00 18 D6 00 00 00 
   116)        65.1  Rx         023D  8  63 00 00 D6 00 24 00 8B 
   117)        65.4  Rx         023E  8  02 60 FF 24 00 D6 00 93 
   118)        65.6  Rx         0251  8  10 00 00 04 00 6F 14 31 
   119)        65.8  Rx         0253  8  01 5E FF 00 00 00 8E 02 
   120)        66.1  Rx         02A5  7  00 00 00 20 00 00 00 
   121)        66.3  Rx         0551  8  81 85 00 A0 00 02 80 FF 
   122)        66.5  Rx         0280  8  03 00 00 00 00 00 1C 40 
   123)        66.8  Rx         02DE  8  0F 00 02 00 54 07 07 F8 
   124)        67.0  Rx         02D1  7  00 00 00 03 31 D1 01 
   125)        67.2  Rx         0794  3  01 C1 03 
   126)        68.7  Rx         0002  5  1F 0E 00 07 DA 
   127)        70.4  Rx         06F7  8  00 00 00 00 00 00 00 03 
   128)        74.5  Rx         01F9  8  20 00 14 E6 00 00 00 00 
   129)        74.7  Rx         0231  8  D3 80 00 D3 D2 C2 4C 9E 
   130)        74.9  Rx         0233  8  8B 79 00 18 D6 00 00 00 
   131)        75.1  Rx         023D  8  03 00 00 D6 00 24 00 8B 
   132)        75.4  Rx         023E  8  02 60 FF 24 00 D6 00 A0 
   133)        75.6  Rx         0251  8  10 00 00 04 00 AF 15 37 
   134)        75.9  Rx         0253  8  02 5E FF 00 00 00 8E 02 
   135)        76.1  Rx         02A5  7  00 00 00 20 00 00 00 
   136)        76.3  Rx         02DE  8  0F 00 03 00 54 57 07 F8 
   137)        76.6  Rx         02D1  7  00 00 00 00 31 D0 01 
   138)        76.8  Rx         0551  8  81 85 00 A0 00 02 80 FF 
   139)        77.0  Rx         0794  3  01 C1 00 
   140)        77.9  Rx         0358  8  01 00 00 00 02 00 00 00 
   141)        78.1  Rx         0215  6  FF F0 FF 00 FF FF 
   142)        78.4  Rx         0284  8  00 00 00 00 00 00 73 F9 
   143)        78.6  Rx         0002  5  1F 0E 00 07 CB 
   144)        78.7  Rx         0216  1  40 
   145)        78.9  Rx         0285  8  00 00 00 00 00 00 73 FA 
   146)        79.2  Rx         029E  8  D3 00 00 00 00 F2 03 68 
   147)        79.4  Rx         02A0  5  AD 7F F8 7F FF 
   148)        79.6  Rx         0354  8  00 00 00 00 00 00 04 00 
   149)        80.5  Rx         06F7  8  00 00 00 00 00 00 00 00 
   150)        84.9  Rx         01F9  8  20 00 14 E6 00 00 00 00 
   151)        85.1  Rx         0231  8  D3 90 00 D3 D2 C2 4C 9E 
   152)        85.3  Rx         0233  8  8B 79 00 18 D6 00 00 00 
   153)        85.5  Rx         023D  8  23 00 00 D6 00 23 00 8B 
   154)        85.8  Rx         023E  8  02 60 FF 23 00 D6 00 A1 
   155)        86.0  Rx         0251  8  10 00 00 04 00 EF 16 DE 
   156)        86.3  Rx         0253  8  03 5E FF 00 00 00 8D 02 
   157)        86.5  Rx         0280  8  03 00 00 00 00 00 1B 40 
   158)        86.7  Rx         02A5  7  00 00 00 20 00 00 00 
   159)        87.0  Rx         02DE  8  0F 00 00 00 54 7F 07 F8 
   160)        87.2  Rx         02D1  7  00 00 00 01 31 D0 01 
   161)        87.5  Rx         0551  8  81 85 00 A0 00 02 80 FF 
   162)        87.6  Rx         0794  3  01 C1 01 
   163)        88.6  Rx         0002  5  1F 0E 00 07 BC 
   164)        90.5  Rx         06F7  8  00 00 00 00 00 00 00 01 
   165)        91.4  Rx     00770000  8  00 00 00 00 00 00 00 00 
   166)        91.7  Rx     00770001  8  00 00 00 00 00 11 11 05 
   167)        92.0  Rx     00770006  8  00 00 00 00 00 00 00 00 
   168)        95.1  Rx         01F9  8  20 00 14 E6 00 00 00 00 
   169)        95.3  Rx         0231  8  D3 A0 00 D3 D2 C2 4C 9E 
   170)        95.6  Rx         0233  8  8B 79 00 18 D6 00 00 00 
   171)        95.8  Rx         023D  8  43 00 00 D6 00 23 00 8B 
   172)        96.0  Rx         023E  8  02 60 FF 23 00 D6 00 92 
   173)        96.3  Rx         0251  8  10 00 00 04 00 2F 17 87 
   174)        96.5  Rx         0253  8  00 5E FF 00 00 00 8E 02 
   175)        96.7  Rx         02A5  7  00 00 00 20 00 00 00 
   176)        97.0  Rx         02DE  8  0F 00 01 00 54 A7 07 F8 
   177)        97.2  Rx         02D1  7  00 00 00 02 31 D0 01 
   178)        97.4  Rx         0551  8  81 85 00 A0 00 02 80 FF 
   179)        97.7  Rx         05C5  8  40 00 00 00 00 0C 00 00 
   180)        97.9  Rx         0794  3  01 C1 02 
   181)        98.0  Rx         0215  6  FF F0 FF 00 FF FF 
   182)        98.4  Rx         0284  8  00 00 00 00 00 00 74 FA 
   183)        98.6  Rx         0002  5  1F 0E 00 07 AD 
   184)        98.7  Rx         0216  1  40 
   185)        99.0  Rx         0285  8  00 00 00 00 00 00 74 FB 
   186)        99.2  Rx         029E  8  D3 00 00 00 00 F2 00 65 
   187)        99.4  Rx         02A0  5  AD 7F FA 7F FF 
   188)       100.5  Rx         06F7  8  00 00 00 00 00 00 00 02 
   189)       105.2  Rx         01F9  8  20 00 14 CD 00 00 00 00 
   190)       105.5  Rx         0231  8  D3 B0 00 D3 D2 C2 4C 9E 
   191)       105.7  Rx         0233  8  8B 79 00 18 D5 00 00 00 
   192)       105.9  Rx         023D  8  63 00 00 D5 00 23 00 8B 
   193)       106.2  Rx         023E  8  02 60 FF 23 00 D6 00 A3 
   194)       106.4  Rx         0251  8  10 00 00 04 00 6F 40 00 
   195)       106.7  Rx         0253  8  01 5E FF 00 00 00 91 02 
   196)       106.9  Rx         0280  8  03 00 00 00 00 00 1B 40 
   197)       107.1  Rx         02A5  7  00 00 00 20 00 00 00 
   198)       107.4  Rx         02DE  8  0F 00 02 00 54 CF 07 F8 
   199)       107.6  Rx         02D1  7  00 00 00 03 31 D0 01 
   200)       107.9  Rx         0551  8  81 85 00 A0 00 02 80 FF 
   201)       108.0  Rx         0794  3  01 C1 03 
   202)       108.4  Rx         0002  5  1F 0E 00 07 9E 
   203)       110.5  Rx         06F7  8  00 00 00 00 00 00 00 03 
   204)       115.4  Rx         0251  8  10 00 00 04 00 AF 41 00 
   205)       115.6  Rx         01F9  8  20 00 14 CD 00 00 00 00 
   206)       115.9  Rx         0231  8  D3 80 00 D3 D2 C2 4C 9E 
   207)       116.1  Rx         0233  8  8B 79 00 18 D5 00 00 00 
   208)       116.4  Rx         023D  8  03 00 00 D5 00 23 00 8B 
   209)       116.6  Rx         023E  8  02 60 FF 23 00 D6 00 90 
   210)       116.8  Rx         0253  8  02 5E FF 00 00 00 90 02 
   211)       117.1  Rx         02A5  7  00 00 00 20 00 00 00 
   212)       117.3  Rx         02DE  8  0F 00 03 00 54 F7 07 F8 
   213)       117.5  Rx         02D1  7  00 00 00 00 31 D0 01 
   214)       117.8  Rx         0551  8  81 85 00 A0 00 02 80 FF 
   215)       118.0  Rx         0215  6  FF F0 FF 00 FF FF 
   216)       118.2  Rx         0580  8  00 78 40 00 00 00 00 00 
   217)       118.4  Rx         0002  5  1F 0E 00 07 8F 
   218)       118.5  Rx         0216  1  40 
   219)       118.8  Rx         0284  8  00 00 00 00 00 00 75 FB 
   220)       119.0  Rx         0285  8  00 00 00 00 00 00 75 FC 
   221)       119.2  Rx         029E  8  D3 00 00 00 00 F4 01 68 
   222)       119.4  Rx         02A0  5  B0 7F F8 7F FF 
   223)       119.7  Rx         0354  8  00 00 00 00 00 00 04 00 
   224)       119.8  Rx         0794  3  01 C1 00 
   225)       120.5  Rx         06F7  8  00 00 00 00 00 00 00 00 
   226)       125.5  Rx         02A5  7  00 00 00 20 00 00 00 
   227)       125.8  Rx         01F9  8  20 00 14 CD 00 00 00 00 
   228)       126.1  Rx         0231  8  D3 90 00 D3 D2 C2 4C 9E 
   229)       126.3  Rx         0233  8  8B 79 00 18 D5 00 00 00 
   230)       126.6  Rx         023D  8  23 00 00 D5 00 25 00 8B 
   231)       126.8  Rx         023E  8  02 60 FF 25 00 D6 00 91 
   232)       127.0  Rx         0251  8  10 00 00 04 00 EF 42 00 
   233)       127.3  Rx         0253  8  03 5E FF 00 00 00 90 02 
   234)       127.5  Rx         0280  8  03 00 00 00 00 00 1B 40 
   235)       127.7  Rx         02DE  8  0F 00 00 00 55 1F 07 F8 
   236)       128.0  Rx         02D1  7  00 00 00 01 31 D0 01 
   237)       128.3  Rx         035D  8  C0 03 00 00 00 00 00 00 
   238)       128.4  Rx         0002  5  1F 0E 00 07 70 
   239)       128.7  Rx         0551  8  81 85 00 A0 00 02 80 FF 
   240)       128.9  Rx         060D  8  08 06 00 00 00 00 20 00 
   241)       129.1  Rx         0794  3  01 C1 01 
   242)       130.5  Rx         06F7  8  00 00 00 00 00 00 00 01 
   243)       135.5  Rx         02A5  7  00 00 00 20 00 00 00 
   244)       135.9  Rx         01F9  8  20 00 14 CD 00 00 00 00 
   245)       136.1  Rx         0231  8  D3 A0 00 D3 D2 C2 4C 9E 
   246)       136.4  Rx         0233  8  8B 79 00 18 D5 00 00 00 
   247)       136.6  Rx         023D  8  43 00 00 D5 00 23 00 8B 
   248)       136.8  Rx         023E  8  02 60 FF 23 00 D6 00 92 
   249)       137.1  Rx         0251  8  10 00 00 04 00 2F 43 00 
   250)       137.4  Rx         0253  8  00 5E FF 00 00 00 90 02 
   251)       137.6  Rx         02DE  8  0F 00 01 00 55 47 07 F8 
   252)       137.8  Rx         02D1  7  00 00 00 02 31 D0 01 
   253)       138.0  Rx         0215  6  FF F0 FF 00 FF FF 
   254)       138.2  Rx         0002  5  1F 0E 00 07 61 
   255)       138.3  Rx         0216  1  40 
   256)       138.5  Rx         0284  8  00 00 00 00 00 00 76 FC 
   257)       138.8  Rx         0285  8  00 00 00 00 00 00 76 FD 
   258)       139.0  Rx         029E  8  D3 00 00 00 00 F2 02 67 
   259)       139.2  Rx         02A0  5  AC 7F F8 7F FF 
   260)       139.5  Rx         0385  7  84 00 00 00 00 00 00 
   261)       139.7  Rx         0551  8  81 85 00 A0 00 02 80 FF 
   262)       139.9  Rx         0794  3  01 C1 02 
   263)       140.6  Rx         06F7  8  00 00 00 00 00 00 00 02 
   264)       143.0  Rx         0251  8  10 00 00 04 00 6F 10 52 
   265)       143.2  Rx         0253  8  01 5E FF 00 00 00 90 02 
   266)       145.5  Rx         02A5  7  00 00 00 20 00 00 00 
   267)       146.1  Rx         0280  8  03 00 00 00 00 00 1B 40 
   268)       146.4  Rx         01F9  8  20 00 14 CD 00 00 00 00 
   269)       146.6  Rx         0231  8  D3 B0 00 D3 D2 C2 4C 9E 
   270)       146.8  Rx         0233  8  8B 79 00 18 D5 00 00 00 
   271)       147.0  Rx         023D  8  63 00 00 D5 00 25 00 8B 
   272)       147.3  Rx         023E  8  02 60 FF 25 00 D6 00 A3 
   273)       147.5  Rx         02DE  8  0F 00 02 00 55 6F 07 F8 
   274)       147.8  Rx         02D1  7  00 00 00 03 31 D0 01 
   275)       148.0  Rx         0551  8  81 85 00 A0 00 02 80 FF 
   276)       148.2  Rx         0002  5  1F 0E 00 07 52 
   277)       148.3  Rx         0794  3  01 C1 03 
   278)       150.6  Rx         06F7  8  00 00 00 00 00 00 00 03 
   279)       152.7  Rx         0251  8  10 00 00 04 00 AF 11 48 
   280)       153.0  Rx         0253  8  02 5E FF 00 00 00 8D 02 
   281)       155.5  Rx         02A5  7  00 00 00 20 00 00 00 
   282)       156.1  Rx         02DE  8  0F 00 03 00 55 97 07 F8 
   283)       156.4  Rx         02D1  7  00 00 00 00 31 D0 01 
   284)       156.6  Rx         01F9  8  20 00 14 CD 00 00 00 00 
   285)       156.8  Rx         0231  8  D3 80 00 D3 D2 C2 4C 9E 
   286)       157.0  Rx         0233  8  8B 79 00 18 D5 00 00 00 
   287)       157.3  Rx         023D  8  03 00 00 D5 00 25 00 8B 
   288)       157.5  Rx         023E  8  02 60 FF 25 00 D6 00 A0 
   289)       157.8  Rx         0551  8  81 85 00 A0 00 02 80 FF 
   290)       158.0  Rx         0002  5  1F 0E 00 07 43 
   291)       158.2  Rx         0215  6  FF F0 FF 00 FF FF 
   292)       158.4  Rx         0284  8  00 00 00 00 00 00 77 FD 
   293)       158.5  Rx         0216  1  40 
   294)       158.8  Rx         0285  8  00 00 00 00 00 00 77 FE 
   295)       159.0  Rx         029E  8  D3 00 00 00 00 F3 03 69 
   296)       159.2  Rx         02A0  5  AE 7F F9 7F FF 
   297)       159.5  Rx         0354  8  00 00 00 00 00 00 04 00 
   298)       159.7  Rx         0625  6  32 00 FF 1D 00 00 
   299)       159.8  Rx         0794  3  01 C1 00 
   300)       160.6  Rx         06F7  8  00 00 00 00 00 00 00 00 
   301)       163.8  Rx         0251  8  10 00 00 04 00 EF 12 30 
   302)       164.0  Rx         0253  8  03 5E FF 00 00 00 8D 02 
   303)       165.5  Rx         02A5  7  00 00 00 20 00 00 00 
   304)       166.1  Rx         0280  8  03 00 00 00 00 00 1B 40 
   305)       166.4  Rx         02DE  8  0F 00 00 00 55 BF 07 F8 
   306)       166.6  Rx         02D1  7  00 00 00 01 31 D0 01 
   307)       166.9  Rx         01F9  8  20 00 14 CD 00 00 00 00 
   308)       167.1  Rx         0231  8  D3 90 00 D3 D2 C2 4C 9E 
   309)       167.3  Rx         0233  8  8B 78 00 18 D5 00 00 00 
   310)       167.5  Rx         023D  8  23 00 00 D5 00 23 00 8B 
   311)       167.7  Rx         0002  5  1F 0E 00 07 34 
   312)       168.0  Rx         023E  8  02 60 FF 23 00 D6 00 A1 
   313)       168.2  Rx         0551  8  81 85 00 A0 00 02 80 FF 
   314)       168.4  Rx         0794  3  01 C1 01 
   315)       170.6  Rx         06F7  8  00 00 00 00 00 00 00 01 
   316)       174.4  Rx         0251  8  10 00 00 04 00 2F 13 35 
   317)       174.6  Rx         0253  8  00 5E FF 00 00 00 8B 02 
   318)       175.5  Rx         02A5  7  00 00 00 20 00 00 00 
   319)       176.1  Rx         02DE  8  0F 00 01 00 55 E6 07 F8 
   320)       176.3  Rx         02D1  7  00 00 00 02 31 D0 01 
   321)       176.8  Rx         01F9  8  20 00 14 CD 00 00 00 00 
   322)       177.1  Rx         0231  8  D3 A0 00 D3 D2 C2 4C 9E 
   323)       177.3  Rx         0233  8  8B 79 00 18 D5 00 00 00 
   324)       177.6  Rx         023D  8  43 00 00 D5 00 23 00 8B 
   325)       177.7  Rx         0002  5  1F 0E 00 07 25 
   326)       178.0  Rx         023E  8  02 60 FF 23 00 D6 00 A2 
   327)       178.2  Rx         0215  6  FF F0 FF 00 FF FF 
   328)       178.5  Rx         0284  8  00 00 00 00 00 00 78 FE 
   329)       178.6  Rx         0216  1  40 
   330)       178.8  Rx         0285  8  00 00 00 00 00 00 78 FF 
   331)       179.0  Rx         029E  8  D3 00 00 00 00 F3 00 66 
   332)       179.2  Rx         02A0  5  AF 7F F8 7F FF 
   333)       179.5  Rx         0358  8  01 00 00 00 02 00 00 00 
   334)       179.7  Rx         0551  8  81 85 00 A0 00 02 80 FF 
   335)       179.9  Rx         0794  3  01 C1 02 
   336)       180.7  Rx         06F7  8  00 00 00 00 00 00 00 02 
   337)       185.4  Rx         0251  8  10 00 00 04 00 6F 14 31 
   338)       185.7  Rx         0253  8  01 5E FF 00 00 00 8B 02 
   339)       185.9  Rx         02A5  7  00 00 00 20 00 00 00 
   340)       186.2  Rx         0280  8  03 00 00 00 00 00 1A 40 
   341)       186.5  Rx         02DE  8  0F 00 02 00 56 0E 07 F8 
   342)       186.7  Rx         02D1  7  00 00 00 03 31 D0 01 
   343)       187.4  Rx         01F9  8  20 00 14 CD 00 00 00 00 
   344)       187.6  Rx         0002  5  1F 0E 00 07 16 
   345)       187.8  Rx         0231  8  D3 B0 00 D3 D2 C2 4C 9E 
   346)       188.1  Rx         0233  8  8B 79 00 18 D5 00 00 00 
   347)       188.3  Rx         023D  8  63 00 00 D5 00 23 00 8B 
   348)       188.5  Rx         023E  8  02 60 FF 23 00 D6 00 A3 
   349)       188.7  Rx         0551  8  81 86 00 A0 00 02 80 FF 
   350)       188.9  Rx         0794  3  01 C1 03 
   351)       190.7  Rx         06F7  8  00 00 00 00 00 00 00 03 
   352)       191.4  Rx     00770000  8  00 00 00 00 00 00 00 00 
   353)       191.7  Rx     00770001  8  00 00 00 00 00 11 11 05 
   354)       192.0  Rx     00770006  8  00 00 00 00 00 00 00 00 
   355)       192.3  Rx     00770005  8  66 00 20 10 01 00 00 00 
   356)       192.6  Rx     00770003  8  F0 22 00 14 AF 00 63 00 
   357)       192.8  Rx     00770004  8  00 00 00 00 00 00 00 00 
   358)       193.2  Rx     00770004  8  00 00 00 00 00 00 00 00 
   359)       195.6  Rx         02A5  7  00 00 00 20 00 00 00 
   360)       196.1  Rx         02DE  8  0F 00 03 00 56 36 07 F8 
   361)       196.4  Rx         02D1  7  00 00 00 00 31 D0 01 
   362)       196.6  Rx         0251  8  10 00 00 04 00 AF 15 37 
   363)       196.9  Rx         0253  8  02 5E FF 00 00 00 8D 02 
   364)       197.1  Rx         05C5  8  40 00 00 00 00 0C 00 00 
   365)       197.3  Rx         01F9  8  20 00 14 B4 00 00 00 00 
   366)       197.6  Rx         0231  8  D3 80 00 D3 D2 C2 4C 9E 
   367)       197.8  Rx         0002  5  1F 0E 00 07 07 
   368)       198.0  Rx         0233  8  8B 78 00 18 D4 00 00 00 
   369)       198.2  Rx         0215  6  FF F0 FF 00 FF FF 
   370)       198.5  Rx         023D  8  03 00 00 D4 00 23 00 8B 
   371)       198.6  Rx         0216  1  40 
   372)       198.8  Rx         023E  8  02 60 FF 23 00 D6 00 A0 
   373)       199.1  Rx         0284  8  00 00 00 00 00 00 79 FF 
   374)       199.3  Rx         0285  8  00 00 00 00 00 00 79 00 
   375)       199.5  Rx         029E  8  D3 00 00 00 00 F3 01 67 
   376)       199.7  Rx         02A0  5  AD 7F F8 7F FF 
   377)       200.0  Rx         0354  8  00 00 00 00 00 00 04 00 
   378)       200.2  Rx         0551  8  81 86 00 A0 00 02 80 FF 
   379)       200.4  Rx         0794  3  01 C1 00 
   380)       200.7  Rx         06F7  8  00 00 00 00 00 00 00 00 
   381)       205.6  Rx         02A5  7  00 00 00 20 00 00 00 
   382)       206.2  Rx         0280  8  03 00 00 00 00 00 1A 40 
   383)       206.4  Rx         02DE  8  0F 00 00 00 56 5D 07 F8 
   384)       206.6  Rx         02D1  7  00 00 00 01 31 D0 01 
   385)       207.4  Rx         0002  5  1F 0E 00 07 F8 
   386)       207.7  Rx         0251  8  10 00 00 04 00 EF 16 DE 
   387)       207.9  Rx         01F9  8  20 00 14 B4 00 00 00 00 
   388)       208.1  Rx         0231  8  D3 90 00 D3 D2 C2 4C 9E 
   389)       208.3  Rx         0233  8  8B 78 00 18 D4 00 00 00 
   390)       208.6  Rx         023D  8  23 00 00 D4 00 23 00 8B 
   391)       208.8  Rx         023E  8  02 60 FF 23 00 D6 00 A1 
   392)       209.1  Rx         0253  8  03 5E FF 00 00 00 8B 02 
   393)       209.3  Rx         0551  8  81 86 00 A0 00 02 80 FF 
   394)       209.4  Rx         0794  3  01 C1 01 
   395)       210.7  Rx         06F7  8  00 00 00 00 00 00 00 01 
   396)       213.4  Rx         0251  8  10 00 00 04 00 2F 17 87 
   397)       213.6  Rx         0253  8  00 5E FF 00 00 00 89 02 
   398)       215.6  Rx         02A5  7  00 00 00 20 00 00 00 
   399)       216.2  Rx         02DE  8  0F 00 01 00 56 84 07 F8 
   400)       216.4  Rx         02D1  7  00 00 00 02 31 D0 01 
   401)       217.4  Rx         0002  5  1F 0E 00 07 E9 
   402)       217.9  Rx         01F9  8  20 00 14 B4 00 00 00 00 
   403)       218.1  Rx         0215  6  FF F0 FF 00 FF FF 
   404)       218.3  Rx         0231  8  D3 A0 00 D3 D2 C2 4C 9E 
   405)       218.5  Rx         0216  1  40 
   406)       218.7  Rx         0233  8  8B 78 00 18 D4 00 00 00 
   407)       218.9  Rx         023D  8  43 00 00 D4 00 23 00 8B 
   408)       219.2  Rx         023E  8  02 60 FF 23 00 D6 00 92 
   409)       219.4  Rx         0284  8  00 00 00 00 00 00 7A 00 
   410)       219.7  Rx         0285  8  00 00 00 00 00 00 7A 01 
   411)       219.9  Rx         029E  8  D3 00 00 00 00 F3 02 68 
   412)       220.1  Rx         02A0  5  AD 7F FA 7F FF 
   413)       220.3  Rx         0551  8  81 86 00 A0 00 02 80 FF 
   414)       220.6  Rx         0580  8  00 78 40 00 00 00 00 00 
   415)       220.8  Rx         06F7  8  00 00 00 00 00 00 00 02 
   416)       221.0  Rx         0794  3  01 C1 02 
   417)       224.1  Rx         0251  8  10 00 00 04 00 6F 40 00 
   418)       224.3  Rx         0253  8  01 5E FF 00 00 00 89 02 
   419)       225.6  Rx         02A5  7  00 00 00 20 00 00 00 
   420)       226.2  Rx         0280  8  03 00 00 00 00 00 1A 40 
   421)       226.4  Rx         02DE  8  0F 00 02 00 56 AB 07 F8 
   422)       226.6  Rx         02D1  7  00 00 00 03 31 D0 01 
   423)       227.3  Rx         0002  5  1F 0E 00 07 DA 
   424)       227.6  Rx         035D  8  C0 03 00 00 00 00 00 00 
   425)       227.9  Rx         060D  8  08 06 00 00 00 00 20 00 
   426)       228.1  Rx         01F9  8  20 00 14 B4 00 00 00 00 
   427)       228.4  Rx         0231  8  D3 B0 00 D3 D2 C2 4C 9E 
   428)       228.6  Rx         0233  8  8B 78 00 18 D4 00 00 00 
   429)       228.9  Rx         023D  8  63 00 00 D4 00 23 00 8B 
   430)       229.1  Rx         023E  8  02 60 FF 23 00 D6 00 93 
   431)       229.3  Rx         0551  8  81 86 00 A0 00 02 80 FF 
   432)       229.5  Rx         0794  3  01 C1 03 
   433)       230.8  Rx         06F7  8  00 00 00 00 00 00 00 03 
   434)       233.9  Rx         0251  8  10 00 00 04 00 AF 41 00 
   435)       234.1  Rx         0253  8  02 5E FF 00 00 00 89 02 
   436)       235.7  Rx         02A5  7  00 00 00 20 00 00 00 
   437)       236.2  Rx         02DE  8  0F 00 03 00 56 D2 07 F8 
   438)       236.4  Rx         02D1  7  00 00 00 00 31 D0 01 
   439)       237.3  Rx         0002  5  1F 0E 00 07 CB 
   440)       237.6  Rx         0385  7  84 00 00 00 00 00 00 
   441)       237.9  Rx         0215  6  FF F0 FF 00 FF FF 
   442)       238.2  Rx         0216  1  40 
   443)       238.4  Rx         01F9  8  20 00 14 B4 00 00 00 00 
   444)       238.6  Rx         0231  8  D3 80 00 D3 D2 C2 4C 9E 
   445)       238.9  Rx         0233  8  8B 78 00 18 D4 00 00 00 
   446)       239.1  Rx         023D  8  03 00 00 D4 00 26 00 8B 
   447)       239.4  Rx         023E  8  02 60 FF 26 00 D6 00 90 
   448)       239.6  Rx         0284  8  00 00 00 00 00 00 7B 01 
   449)       239.8  Rx         0285  8  00 00 00 00 00 00 7B 02 
   450)       240.1  Rx         029E  8  D3 00 00 00 00 F4 03 6A 
   451)       240.3  Rx         02A0  5  AF 7F F8 7F FF 
   452)       240.5  Rx         0354  8  00 00 00 00 00 00 04 00 
   453)       240.8  Rx         0551  8  81 86 00 A0 00 02 80 FF 
   454)       241.0  Rx         06F7  8  00 00 00 00 00 00 00 00 
   455)       241.1  Rx         0794  3  01 C1 00 
   456)       244.3  Rx         0251  8  10 00 00 04 00 EF 42 00 
   457)       244.5  Rx         0253  8  03 5E FF 00 00 00 8D 02 
   458)       245.7  Rx         02A5  7  00 00 00 20 00 00 00 
   459)       246.2  Rx         0280  8  03 00 00 00 00 00 1A 40 
   460)       246.4  Rx         02DE  8  0F 00 00 00 56 F9 07 F8 
   461)       246.6  Rx         02D1  7  00 00 00 01 31 D0 01 
   462)       247.1  Rx         0002  5  1F 0E 00 07 BC 
   463)       248.6  Rx         01F9  8  20 00 14 B4 00 00 00 00 
   464)       248.9  Rx         0231  8  D3 90 00 D3 D2 C2 4C 9E 
   465)       249.1  Rx         0233  8  8B 78 00 18 D4 00 00 00 
   466)       249.4  Rx         023D  8  23 00 00 D4 00 26 00 8B 
   467)       249.6  Rx         023E  8  02 60 FF 26 00 D6 00 91 
   468)       249.8  Rx         0551  8  81 86 00 A0 00 02 80 FF 
   469)       250.0  Rx         0794  3  01 C1 01 
   470)       250.8  Rx         06F7  8  00 00 00 00 00 00 00 01 
   471)       255.4  Rx         0251  8  10 00 00 04 00 2F 43 00 
   472)       255.7  Rx         0253  8  00 5E FF 00 00 00 89 02 
   473)       255.9  Rx         02A5  7  00 00 00 20 00 00 00 
   474)       256.3  Rx         02DE  8  0F 00 01 00 57 20 07 F8 
   475)       256.5  Rx         02D1  7  00 00 00 02 31 D0 01 
   476)       257.1  Rx         0002  5  1F 0E 00 07 AD 
   477)       257.9  Rx         0215  6  FF F0 FF 00 FF FF 
   478)       258.2  Rx         0216  1  40 
   479)       258.5  Rx         0284  8  00 00 00 00 00 00 7C 02 
   480)       258.7  Rx         0285  8  00 00 00 00 00 00 7C 03 
   481)       258.9  Rx         01F9  8  20 00 14 82 00 00 00 00 
   482)       259.2  Rx         0231  8  D3 A0 00 D3 D2 C2 4C 9E 
   483)       259.4  Rx         0233  8  8B 77 00 18 D2 00 00 00 
   484)       259.6  Rx         023D  8  43 00 00 D2 00 26 00 8B 
   485)       259.9  Rx         023E  8  02 60 FF 26 00 D6 00 A2 
   486)       260.1  Rx         029E  8  D3 00 00 00 00 F3 00 66 
   487)       260.3  Rx         02A0  5  AE 7F F8 7F FE 
   488)       260.5  Rx         0551  8  81 86 00 A0 00 02 80 FF 
   489)       260.7  Rx         0625  6  32 00 FF 1D 00 00 
   490)       261.0  Rx         06F7  8  00 00 00 00 00 00 00 02 
   491)       261.1  Rx         0794  3  01 C1 02 
   492)       265.7  Rx         02A5  7  00 00 00 20 00 00 00 
   493)       266.2  Rx         0280  8  03 00 00 00 00 00 1A 40 
   494)       266.5  Rx         0251  8  10 00 00 04 00 6F 10 52 
   495)       266.7  Rx         0253  8  01 5E FF 00 00 00 89 02 
   496)       266.9  Rx         02DE  8  0F 00 02 00 57 47 07 F8 
   497)       267.1  Rx         0002  5  1F 0E 00 07 9E 
   498)       267.3  Rx         02D1  7  00 00 00 03 31 D0 01 
   499)       269.1  Rx         01F9  8  20 00 14 82 00 00 00 00 
   500)       269.3  Rx         0231  8  D3 B0 00 D3 D2 C2 4C 9E 
   501)       269.6  Rx         0233  8  8B 77 00 18 D2 00 00 00 
   502)       269.8  Rx         023D  8  63 00 00 D2 00 27 00 8B 
   503)       270.1  Rx         023E  8  02 60 FF 27 00 D6 00 A3 
   504)       270.3  Rx         0551  8  81 86 00 A0 00 02 80 FF 
   505)       270.5  Rx         0794  3  01 C1 03 
   506)       270.9  Rx         06F7  8  00 00 00 00 00 00 00 03 
   507)       275.8  Rx         02A5  7  00 00 00 20 00 00 00 
   508)       276.2  Rx         02DE  8  0F 00 03 00 57 6E 07 F8 
   509)       276.4  Rx         02D1  7  00 00 00 00 31 CF 01 
   510)       277.0  Rx         0002  5  1F 0E 00 07 8F 
   511)       277.5  Rx         0251  8  10 00 00 04 00 AF 11 48 
   512)       277.8  Rx         0253  8  02 5E FF 00 00 00 88 02 
   513)       278.0  Rx         0215  6  FF F0 FF 00 FF FF 
   514)       278.3  Rx         0358  8  01 00 00 00 02 00 00 00 
   515)       278.3  Rx         0216  1  40 
   516)       278.6  Rx         0284  8  00 00 00 00 00 00 7D 03 
   517)       278.9  Rx         0285  8  00 00 00 00 00 00 7D 04 
   518)       279.1  Rx         029E  8  D3 00 00 00 00 F3 01 67 
   519)       279.3  Rx         01F9  8  20 00 14 82 00 00 00 00 
   520)       279.6  Rx         0231  8  D3 80 00 D3 D2 C2 4C 9E 
   521)       279.8  Rx         0233  8  8B 77 00 18 D2 00 00 00 
   522)       280.0  Rx         023D  8  03 00 00 D2 00 28 00 8B 
   523)       280.3  Rx         023E  8  02 60 FF 28 00 D6 00 A0 
   524)       280.5  Rx         02A0  5  AD 7F FA 7F FE 
   525)       280.7  Rx         0354  8  00 00 00 00 00 00 04 00 
   526)       281.0  Rx         0551  8  81 86 00 A0 00 02 80 FF 
   527)       281.2  Rx         06F7  8  00 00 00 00 00 00 00 00 
   528)       281.4  Rx         0794  3  01 C1 00 
   529)       283.6  Rx         0251  8  10 00 00 04 00 EF 12 30 
   530)       283.8  Rx         0253  8  03 5E FF 00 00 00 88 02 
   531)       285.8  Rx         02A5  7  00 00 00 20 00 00 00 
   532)       286.2  Rx         0280  8  03 00 00 00 00 00 1B 40 
   533)       286.4  Rx         02DE  8  0F 00 00 00 57 95 07 F8 
   534)       286.6  Rx         02D1  7  00 00 00 01 31 CF 01 
   535)       286.9  Rx         0002  5  1F 0E 00 07 70 
   536)       289.7  Rx         01F9  8  20 00 14 9B 00 00 00 00 
   537)       289.9  Rx         0231  8  D3 90 00 D3 D2 C2 4C 9E 
   538)       290.2  Rx         0233  8  8B 78 00 18 D3 00 00 00 
   539)       290.4  Rx         023D  8  23 00 00 D3 00 28 00 8B 
   540)       290.6  Rx         023E  8  02 60 FF 28 00 D6 00 A1 
   541)       290.9  Rx         0551  8  81 86 00 A0 00 02 80 FF 
   542)       291.1  Rx         06F7  8  00 00 00 00 00 00 00 01 
   543)       291.4  Rx     00770000  8  00 00 00 00 00 00 00 00 
   544)       291.7  Rx     00770001  8  00 00 00 00 00 11 11 05 
   545)       292.0  Rx     00770006  8  00 00 00 00 00 00 00 00 
   546)       292.2  Rx         0794  3  01 C1 01 
   547)       294.2  Rx         0251  8  10 00 00 04 00 2F 13 35 
   548)       294.5  Rx         0253  8  00 5E FF 00 00 00 85 02 
   549)       295.8  Rx         02A5  7  00 00 00 20 00 00 00 
   550)       296.2  Rx         02DE  8  0F 00 01 00 57 BC 07 F8 
   551)       296.4  Rx         02D1  7  00 00 00 02 31 CF 01 
   552)       296.7  Rx         05C5  8  40 00 00 00 00 0C 00 00 
   553)       296.9  Rx         0002  5  1F 0E 00 07 61 
   554)       298.0  Rx         0215  6  FF F0 FF 00 FF FF 
   555)       298.2  Rx         0216  1  40 
   556)       298.5  Rx         0284  8  00 00 00 00 00 00 7E 04 
   557)       298.7  Rx         0285  8  00 00 00 00 00 00 7E 05 
   558)       298.9  Rx         029E  8  D3 00 00 00 00 F4 02 69 
   559)       299.1  Rx         02A0  5  AF 7F F8 7F FF 
   560)       299.8  Rx         01F9  8  20 00 14 9B 00 00 00 00 
   561)       300.0  Rx         0231  8  D3 A0 00 D3 D2 C2 4C 9E 
   562)       300.3  Rx         0233  8  8B 78 00 18 D3 00 00 00 
   563)       300.5  Rx         023D  8  43 00 00 D3 00 26 00 8B 
   564)       300.7  Rx         023E  8  02 60 FF 26 00 D6 00 A2 
   565)       301.0  Rx         0551  8  81 86 00 A0 00 02 80 FF 
   566)       301.2  Rx         06F7  8  00 00 00 00 00 00 00 02 
   567)       301.4  Rx         0794  3  01 C1 02 
   568)       305.2  Rx         0251  8  10 00 00 04 00 6F 14 31 
   569)       305.5  Rx         0253  8  01 5E FF 00 00 00 85 02 
   570)       305.8  Rx         02A5  7  00 00 00 20 00 00 00 
   571)       306.2  Rx         0280  8  03 00 00 00 00 00 1B 40 
   572)       306.5  Rx         02DE  8  0F 00 02 00 57 E3 07 F8 
   573)       306.6  Rx         0002  5  1F 0E 00 07 52 
   574)       306.9  Rx         02D1  7  00 00 00 03 31 CF 01 
   575)       310.1  Rx         01F9  8  20 00 14 9B 00 00 00 00 
   576)       310.3  Rx         0231  8  D3 B0 00 D3 D2 C2 4C 9E 
   577)       310.6  Rx         0233  8  8B 78 00 18 D3 00 00 00 
   578)       310.8  Rx         023D  8  63 00 00 D3 00 27 00 8B 
   579)       311.0  Rx         023E  8  02 60 FF 27 00 D6 00 A3 
   580)       311.3  Rx         0551  8  81 86 00 A0 00 02 80 FF 
   581)       311.5  Rx         06F7  8  00 00 00 00 00 00 00 03 
   582)       311.7  Rx         0794  3  01 C1 03 
   583)       315.8  Rx         02A5  7  00 00 00 20 00 00 00 
   584)       316.2  Rx         02DE  8  0F 00 03 00 58 0A 07 F8 
   585)       316.4  Rx         02D1  7  00 00 00 00 31 CF 01 
   586)       316.7  Rx         0002  5  1F 0E 00 07 43 
   587)       318.0  Rx         0215  6  FF F0 FF 00 FF FF 
   588)       318.3  Rx         0284  8  00 00 00 00 00 00 7F 05 
   589)       318.5  Rx         0216  1  40 
   590)       318.7  Rx         0285  8  00 00 00 00 00 00 7F 06 
   591)       318.9  Rx         029E  8  D3 00 00 00 00 F2 03 68 
   592)       319.2  Rx         02A0  5  AD 7F F9 7F FF 
   593)       319.4  Rx         0354  8  00 00 00 00 00 00 04 00 
   594)       320.3  Rx         01F9  8  20 00 14 B4 00 00 00 00 
   595)       320.5  Rx         0231  8  D3 80 00 D3 D2 C2 4C 9E 
   596)       320.7  Rx         0233  8  8B 79 00 18 D4 00 00 00 
   597)       321.0  Rx         023D  8  03 00 00 D4 00 27 00 8B 
   598)       321.2  Rx         023E  8  02 60 FF 27 00 D6 00 90 
   599)       321.4  Rx         0551  8  81 86 00 A0 00 02 80 FF 
   600)       321.6  Rx         0580  8  00 78 40 00 00 00 00 00 
   601)       321.9  Rx         06F7  8  00 00 00 00 00 00 00 00 
   602)       322.1  Rx         0794  3  01 C1 00 
   603)       325.8  Rx         02A5  7  00 00 00 20 00 00 00 
   604)       326.3  Rx         0280  8  03 00 00 00 00 00 1B 40 
   605)       326.5  Rx         02DE  8  0F 00 00 00 58 32 07 F8 
   606)       326.7  Rx         0002  5  1F 0E 00 07 34 
   607)       326.9  Rx         02D1  7  00 00 00 01 31 CF 01 
   608)       327.2  Rx         0251  8  10 00 00 04 00 AF 15 37 
   609)       327.4  Rx         0253  8  02 5E FF 00 00 00 86 02 
   610)       327.7  Rx         035D  8  C0 03 00 00 00 00 00 00 
   611)       327.9  Rx         060D  8  08 06 00 00 00 00 20 00 
   612)       329.0  Rx         0251  8  10 00 00 04 00 EF 16 DE 
   613)       329.2  Rx         0253  8  03 5E FF 00 00 00 85 02 
   614)       330.5  Rx         01F9  8  20 00 14 B4 00 00 00 00 
   615)       330.7  Rx         0231  8  D3 90 00 D3 D2 C2 4C 9E 
   616)       331.0  Rx         0233  8  8B 79 00 18 D4 00 00 00 
   617)       331.3  Rx         023D  8  23 00 00 D4 00 26 00 8B 
   618)       331.5  Rx         023E  8  02 60 FF 26 00 D6 00 91 
   619)       331.7  Rx         0551  8  81 86 00 A0 00 02 80 FF 
   620)       332.0  Rx         06F7  8  00 00 00 00 00 00 00 01 
   621)       332.1  Rx         0794  3  01 C1 01 
   622)       335.1  Rx         0251  8  10 00 00 04 00 2F 17 87 
   623)       335.4  Rx         0253  8  00 5E FF 00 00 00 86 02 
   624)       335.9  Rx         02A5  7  00 00 00 20 00 00 00 
   625)       336.3  Rx         02DE  8  0F 00 01 00 58 5A 07 F8 
   626)       336.5  Rx         02D1  7  00 00 00 02 31 CF 01 
   627)       336.6  Rx         0002  5  1F 0E 00 07 25 
   628)       337.6  Rx         0385  7  84 00 00 00 00 00 00 
   629)       338.0  Rx         0215  6  FF F0 FF 00 FF FF 
   630)       338.3  Rx         0284  8  00 00 00 00 00 00 80 06 
   631)       338.5  Rx         0216  1  40 
   632)       338.7  Rx         0285  8  00 00 00 00 00 00 80 07 
   633)       339.0  Rx         029E  8  D3 00 00 00 00 F3 00 66 
   634)       339.1  Rx         02A0  5  AD 7F FA 7F FE 
   635)       340.7  Rx         01F9  8  20 00 14 B4 00 00 00 00 
   636)       341.0  Rx         0231  8  D3 A0 00 D3 D2 C2 4C 9E 
   637)       341.2  Rx         0233  8  8B 79 00 18 D4 00 00 00 
   638)       341.5  Rx         023D  8  43 00 00 D4 00 26 00 8B 
   639)       341.7  Rx         023E  8  02 60 FF 26 00 D6 00 92 
   640)       341.9  Rx         0551  8  81 86 00 A0 00 02 80 FF 
   641)       342.1  Rx         06F7  8  00 00 00 00 00 00 00 02 
   642)       342.3  Rx         0794  3  01 C1 02 
   643)       345.9  Rx         02A5  7  00 00 00 20 00 00 00 
   644)       346.1  Rx         0251  8  10 00 00 04 00 6F 40 00 
   645)       346.3  Rx         0002  5  1F 0E 00 07 16 
   646)       346.6  Rx         0253  8  01 5E FF 00 00 00 85 02 
   647)       346.8  Rx         0280  8  03 00 00 00 00 00 1B 40 
   648)       347.0  Rx         02DE  8  0F 00 02 00 58 82 07 F8 
   649)       347.3  Rx         02D1  7  00 00 00 03 31 CF 01 
   650)       351.0  Rx         06F7  8  00 00 00 00 00 00 00 03 
   651)       351.2  Rx         01F9  8  20 00 14 CD 00 00 00 00 
   652)       351.5  Rx         0231  8  D3 B0 00 D3 D2 C2 4C 9E 
   653)       351.7  Rx         0233  8  8B 79 00 18 D5 00 00 00 
   654)       352.0  Rx         023D  8  63 00 00 D5 00 28 00 8B 
   655)       352.2  Rx         023E  8  02 60 FF 28 00 D6 00 93 
   656)       352.4  Rx         0551  8  81 86 00 A0 00 02 80 FF 
   657)       352.5  Rx         0794  3  01 C1 03 
   658)       355.9  Rx         02A5  7  00 00 00 20 00 00 00 
   659)       356.1  Rx         0002  5  1F 0E 00 07 07 
   660)       356.4  Rx         02DE  8  0F 00 03 00 58 82 07 F8 
   661)       356.6  Rx         02D1  7  00 00 00 00 31 CF 01 
   662)       356.8  Rx         0251  8  10 00 00 04 00 AF 41 00 
   663)       357.1  Rx         0253  8  02 5E FF 00 00 00 83 02 
   664)       358.0  Rx         0215  6  FF F0 FF 00 FF FF 
   665)       358.3  Rx         0284  8  00 00 00 00 00 00 81 07 
   666)       358.5  Rx         0216  1  40 
   667)       358.7  Rx         0285  8  00 00 00 00 00 00 81 08 
   668)       358.9  Rx         029E  8  D3 00 00 00 00 F4 01 68 
   669)       359.1  Rx         02A0  5  AF 7F F9 7F FF 
   670)       359.4  Rx         0354  8  00 00 00 00 00 00 04 00 
   671)       359.6  Rx         0625  6  32 00 FF 1D 00 00 
   672)       361.0  Rx         06F7  8  00 00 00 00 00 00 00 00 
   673)       361.4  Rx         01F9  8  20 00 14 CD 00 00 00 00 
   674)       361.6  Rx         0231  8  D3 80 00 D3 D2 C2 4C 9E 
   675)       361.8  Rx         0233  8  8B 79 00 18 D5 00 00 00 
   676)       362.1  Rx         023D  8  03 00 00 D5 00 28 00 8B 
   677)       362.3  Rx         023E  8  02 60 FF 28 00 D6 00 A0 
   678)       362.5  Rx         0551  8  81 86 00 A0 00 02 80 FF 
   679)       362.7  Rx         0794  3  01 C1 00 
   680)       363.1  Rx         0251  8  10 00 00 04 00 EF 42 00 
   681)       363.3  Rx         0253  8  03 5E FF 00 00 00 85 02 
   682)       365.9  Rx         02A5  7  00 00 00 20 00 00 00 
   683)       366.1  Rx         0002  5  1F 0E 00 07 F8 
   684)       366.4  Rx         0280  8  03 00 00 00 00 00 1B 40 
   685)       366.6  Rx         02DE  8  0F 00 00 00 58 AA 07 F8 
   686)       366.9  Rx         02D1  7  00 00 00 01 31 CF 01 
   687)       371.0  Rx         06F7  8  00 00 00 00 00 00 00 01 
   688)       371.5  Rx         01F9  8  20 00 14 CD 00 00 00 00 
   689)       371.8  Rx         0231  8  D3 90 00 D3 D2 C2 4C 9E 
   690)       372.0  Rx         0233  8  8B 79 00 18 D5 00 00 00 
   691)       372.2  Rx         023D  8  23 00 00 D5 00 28 00 8B 
   692)       372.4  Rx         023E  8  02 60 FF 28 00 D6 00 A1 
   693)       372.7  Rx         0551  8  81 86 00 A0 00 02 80 FF 
   694)       372.9  Rx         0794  3  01 C1 01 
   695)       373.5  Rx         0251  8  10 00 00 04 00 2F 43 00 
   696)       373.8  Rx         0253  8  00 5E FF 00 00 00 85 02 
   697)       376.0  Rx         02A5  7  00 00 00 20 00 00 00 
   698)       376.1  Rx         0002  5  1F 0E 00 07 E9 
   699)       376.4  Rx         02DE  8  0F 00 01 00 58 FA 07 F8 
   700)       376.6  Rx         02D1  7  00 00 00 02 31 D1 01 
   701)       377.3  Rx         0358  8  01 00 00 00 02 00 00 00 
   702)       378.2  Rx         0215  6  FF F0 FF 00 FF FF 
   703)       378.4  Rx         0284  8  00 00 00 00 00 00 82 08 
   704)       378.5  Rx         0216  1  40 
   705)       378.8  Rx         0285  8  00 00 00 00 00 00 82 09 
   706)       379.0  Rx         029E  8  D3 00 00 00 00 F2 02 67 
   707)       379.2  Rx         02A0  5  AD 7F F8 7F FF 
   708)       381.0  Rx         06F7  8  00 00 00 00 00 00 00 02 
   709)       381.7  Rx         01F9  8  20 00 14 CD 00 00 00 00 
   710)       381.9  Rx         0231  8  D3 A0 00 D3 D2 C2 4C 9E 
   711)       382.2  Rx         0233  8  8B 79 00 18 D5 00 00 00 
   712)       382.4  Rx         023D  8  43 00 00 D5 00 26 00 8B 
   713)       382.6  Rx         023E  8  02 60 FF 26 00 D6 00 A2 
   714)       382.9  Rx         0551  8  81 86 00 A0 00 02 80 FF 
   715)       383.1  Rx         0794  3  01 C1 02 
   716)       383.8  Rx         0251  8  10 00 00 04 00 6F 10 52 
   717)       384.0  Rx         0253  8  01 5E FF 00 00 00 89 02 
   718)       386.0  Rx         02A5  7  00 00 00 20 00 00 00 
   719)       386.2  Rx         0002  5  1F 0E 00 07 DA 
   720)       386.4  Rx         0280  8  03 00 00 00 00 00 1B 40 
   721)       386.7  Rx         02DE  8  0F 00 02 00 58 FA 07 F8 
   722)       386.9  Rx         02D1  7  00 00 00 03 31 D1 01 
   723)       391.1  Rx         06F7  8  00 00 00 00 00 00 00 03 
   724)       391.4  Rx     00770000  8  00 00 00 00 00 00 00 00 
   725)       391.7  Rx     00770001  8  00 00 00 00 00 11 11 05 
   726)       392.0  Rx     00770006  8  00 00 00 00 00 00 00 00 
   727)       392.3  Rx         01F9  8  20 00 14 CD 00 00 00 00 
   728)       392.5  Rx         0231  8  D3 B0 00 D3 D2 C2 4C 9E 
   729)       392.8  Rx         0233  8  8B 79 00 18 D5 00 00 00 
   730)       393.0  Rx         023D  8  63 00 00 D5 00 26 00 8B 
   731)       393.3  Rx         023E  8  02 60 FF 26 00 D6 00 A3 
   732)       393.5  Rx         0551  8  81 86 00 A0 00 02 80 FF 
   733)       393.6  Rx         0794  3  01 C1 03 
   734)       394.4  Rx         0251  8  10 00 00 04 00 AF 11 48 
   735)       394.7  Rx         0253  8  02 5E FF 00 00 00 89 02 
   736)       395.8  Rx         0002  5  1F 0E 00 07 CB 
   737)       396.0  Rx         02A5  7  00 00 00 20 00 00 00 
   738)       396.3  Rx         02DE  8  0F 00 03 00 59 4A 07 F8 
   739)       396.5  Rx         02D1  7  00 00 00 00 31 D1 01 
   740)       396.8  Rx         05C5  8  40 00 00 00 00 0C 00 00 
   741)       398.0  Rx         0215  6  FF F0 FF 00 FF FF 
   742)       398.3  Rx         0284  8  00 00 00 00 00 00 83 09 
   743)       398.4  Rx         0216  1  40 
   744)       398.7  Rx         0285  8  00 00 00 00 00 00 83 0A 
   745)       398.9  Rx         029E  8  D3 00 00 00 00 F3 03 69 
   746)       399.1  Rx         02A0  5  AE 7F FB 7F FE 
   747)       399.4  Rx         0354  8  00 00 00 00 00 00 04 00 
   748)       401.1  Rx         06F7  8  00 00 00 00 00 00 00 00 
   749)       402.3  Rx         01F9  8  20 00 14 E6 00 00 00 00 
   750)       402.5  Rx         0231  8  D3 80 00 D3 D2 C2 4C 9E 
   751)       402.7  Rx         0233  8  8B 7A 00 18 D6 00 00 00 
   752)       403.0  Rx         023D  8  03 00 00 D6 00 26 00 8B 
   753)       403.2  Rx         023E  8  02 60 FF 26 00 D6 00 A0 
   754)       403.4  Rx         0551  8  81 86 00 A0 00 02 80 FF 
   755)       403.6  Rx         0794  3  01 C1 00 
   756)       405.4  Rx         0251  8  10 00 00 04 00 EF 12 30 
   757)       405.7  Rx         0253  8  03 5E FF 00 00 00 89 02 
   758)       405.8  Rx         0002  5  1F 0E 00 07 BC 
   759)       406.1  Rx         02A5  7  00 00 00 20 00 00 00 
   760)       406.3  Rx         0280  8  03 00 00 00 00 00 1B 40 
   761)       406.6  Rx         02DE  8  0F 00 00 00 59 72 07 F8 
   762)       406.8  Rx         02D1  7  00 00 00 01 31 D1 01 
   763)       411.1  Rx         06F7  8  00 00 00 00 00 00 00 01 
   764)       412.5  Rx         01F9  8  20 00 14 E6 00 00 00 00 
   765)       412.7  Rx         0231  8  D3 90 00 D3 D2 C2 4C 9E 
   766)       412.9  Rx         0233  8  8B 7A 00 18 D6 00 00 00 
   767)       413.2  Rx         023D  8  23 00 00 D6 00 25 00 8B 
   768)       413.4  Rx         023E  8  02 60 FF 25 00 D6 00 A1 
   769)       413.7  Rx         0551  8  81 87 00 A0 00 02 80 FF 
   770)       413.8  Rx         0794  3  01 C1 01 
   771)       415.7  Rx         0002  5  1F 0E 00 07 AD 
   772)       416.0  Rx         02A5  7  00 00 00 20 00 00 00 
   773)       416.3  Rx         02DE  8  0F 00 01 00 59 9A 07 F8 
   774)       416.5  Rx         0251  8  10 00 00 04 00 2F 13 35 
   775)       416.8  Rx         0253  8  00 5E FF 00 00 00 8B 02 
   776)       417.0  Rx         02D1  7  00 00 00 02 31 D1 01 
   777)       418.0  Rx         0215  6  FF F0 FF 00 FF FF 
   778)       418.3  Rx         0284  8  00 00 00 00 00 00 84 0A 
   779)       418.4  Rx         0216  1  40 
   780)       418.7  Rx         0285  8  00 00 00 00 00 00 84 0B 
   781)       418.9  Rx         029E  8  D3 00 00 00 00 F3 00 66 
   782)       419.1  Rx         02A0  5  AF 7F F8 7F FF 
   783)       421.1  Rx         06F7  8  00 00 00 00 00 00 00 02 
   784)       422.8  Rx         0251  8  10 00 00 04 00 6F 14 31 
   785)       423.0  Rx         01F9  8  20 00 14 E6 00 00 00 00 
   786)       423.2  Rx         0231  8  D3 A0 00 D3 D2 C2 4C 9E 
   787)       423.5  Rx         0233  8  8B 7A 00 18 D6 00 00 00 
   788)       423.7  Rx         023D  8  43 00 00 D6 00 25 00 8B 
   789)       424.0  Rx         023E  8  02 60 FF 25 00 D6 00 92 
   790)       424.2  Rx         0253  8  01 5E FF 00 00 00 89 02 
   791)       424.4  Rx         0551  8  81 87 00 A0 00 02 80 FF 
   792)       424.7  Rx         0580  8  00 79 40 00 00 00 00 00 
   793)       424.8  Rx         0794  3  01 C1 02 
   794)       425.7  Rx         0002  5  1F 0E 00 07 9E 
   795)       426.1  Rx         02A5  7  00 00 00 20 00 00 00 
   796)       426.3  Rx         0280  8  03 00 00 00 00 00 1B 40 
   797)       426.5  Rx         02DE  8  0F 00 02 00 59 C2 07 F8 
   798)       426.7  Rx         02D1  7  00 00 00 03 31 D1 01 
   799)       427.2  Rx         035D  8  C0 03 00 00 00 00 00 00 
   800)       427.5  Rx         060D  8  08 06 00 00 00 00 20 00 
   801)       431.1  Rx         06F7  8  00 00 00 00 00 00 00 03 
   802)       433.1  Rx         01F9  8  20 00 14 CD 00 00 00 00 
   803)       433.3  Rx         0231  8  D3 B0 00 D3 D2 C2 4C 9E 
   804)       433.5  Rx         0233  8  8B 79 00 18 D5 00 00 00 
   805)       433.7  Rx         023D  8  63 00 00 D5 00 27 00 8B 
   806)       434.0  Rx         023E  8  02 60 FF 27 00 D6 00 93 
   807)       434.2  Rx         0251  8  10 00 00 04 00 AF 15 37 
   808)       434.4  Rx         0253  8  02 5E FF 00 00 00 8B 02 
   809)       434.7  Rx         0551  8  81 87 00 A0 00 02 80 FF 
   810)       434.8  Rx         0794  3  01 C1 03 
   811)       435.5  Rx         0002  5  1F 0E 00 07 8F 
   812)       436.1  Rx         02A5  7  00 00 00 20 00 00 00 
   813)       436.3  Rx         02DE  8  0F 00 03 00 59 C2 07 F8 
   814)       436.5  Rx         02D1  7  00 00 00 00 31 D1 01 
   815)       437.2  Rx         0385  7  84 00 00 00 00 00 00 
   816)       438.0  Rx         0215  6  FF F0 FF 00 FF FF 
   817)       438.3  Rx         0284  8  00 00 00 00 00 00 85 0B 
   818)       438.4  Rx         0216  1  40 
   819)       438.7  Rx         0285  8  00 00 00 00 00 00 85 0C 
   820)       438.9  Rx         029E  8  D3 00 00 00 00 F3 01 67 
   821)       439.1  Rx         02A0  5  AE 7F F8 7F FF 
   822)       439.4  Rx         0354  8  00 00 00 00 00 00 04 00 
   823)       441.2  Rx         06F7  8  00 00 00 00 00 00 00 00 
   824)       441.4  Rx     00770005  8  66 00 20 10 01 00 00 00 
   825)       441.7  Rx     00770003  8  F0 22 00 14 AF 00 63 00 
   826)       442.0  Rx     00770004  8  00 00 00 00 00 00 00 00 
   827)       442.4  Rx     00770004  8  00 00 00 00 00 00 00 00 
   828)       443.2  Rx         01F9  8  20 00 14 CD 00 00 00 00 
   829)       443.4  Rx         0231  8  D3 80 00 D3 D2 C2 4C 9E 
   830)       443.6  Rx         0233  8  8B 79 00 18 D5 00 00 00 
   831)       443.8  Rx         023D  8  03 00 00 D5 00 26 00 8B 
   832)       444.1  Rx         023E  8  02 60 FF 26 00 D6 00 90 
   833)       444.3  Rx         0251  8  10 00 00 04 00 EF 16 DE 
   834)       444.6  Rx         0253  8  03 5E FF 00 00 00 88 02 
   835)       444.8  Rx         0551  8  81 87 00 A0 00 02 80 FF 
   836)       444.9  Rx         0794  3  01 C1 00 
   837)       445.5  Rx         0002  5  1F 0E 00 07 70 
   838)       446.1  Rx         02A5  7  00 00 00 20 00 00 00 
   839)       446.3  Rx         0280  8  03 00 00 00 00 00 1B 40 
   840)       446.6  Rx         02DE  8  0F 00 00 00 59 EA 07 F8 
   841)       446.8  Rx         02D1  7  00 00 00 01 31 D1 01 
   842)       451.2  Rx         06F7  8  00 00 00 00 00 00 00 01 
   843)       453.4  Rx         0251  8  10 00 00 04 00 2F 17 87 
   844)       453.7  Rx         01F9  8  20 00 14 CD 00 00 00 00 
   845)       453.9  Rx         0231  8  D3 90 00 D3 D2 C2 4C 9E 
   846)       454.1  Rx         0233  8  8B 79 00 18 D5 00 00 00 
   847)       454.4  Rx         023D  8  23 00 00 D5 00 26 00 8B 
   848)       454.6  Rx         023E  8  02 60 FF 26 00 D6 00 91 
   849)       454.9  Rx         0253  8  00 5E FF 00 00 00 89 02 
   850)       455.1  Rx         0551  8  81 87 00 A0 00 02 80 FF 
   851)       455.2  Rx         0794  3  01 C1 01 
   852)       455.4  Rx         0002  5  1F 0E 00 07 61 
   853)       456.1  Rx         02A5  7  00 00 00 20 00 00 00 
   854)       456.3  Rx         02DE  8  0F 00 01 00 5A 3A 07 F8 
   855)       456.6  Rx         02D1  7  00 00 00 02 31 D1 01 
   856)       458.1  Rx         0215  6  FF F0 FF 00 FF FF 
   857)       458.3  Rx         0284  8  00 00 00 00 00 00 86 0C 
   858)       458.4  Rx         0216  1  40 
   859)       458.7  Rx         0285  8  00 00 00 00 00 00 86 0D 
   860)       458.9  Rx         029E  8  D3 00 00 00 00 F2 02 67 
   861)       459.1  Rx         02A0  5  AD 7F FB 7F FF 
   862)       459.3  Rx         0625  6  32 00 FF 1D 00 00 
   863)       461.2  Rx         06F7  8  00 00 00 00 00 00 00 02 
   864)       463.7  Rx         01F9  8  20 00 14 CD 00 00 00 00 
   865)       464.0  Rx         0231  8  D3 A0 00 D3 D2 C2 4C 9E 
   866)       464.2  Rx         0233  8  8B 79 00 18 D5 00 00 00 
   867)       464.4  Rx         023D  8  43 00 00 D5 00 26 00 8B 
   868)       464.7  Rx         023E  8  02 60 FF 26 00 D6 00 A2 
   869)       464.9  Rx         0251  8  10 00 00 04 00 6F 40 00 
   870)       465.1  Rx         0253  8  01 5E FF 00 00 00 89 02 
   871)       465.3  Rx         0551  8  81 87 00 A0 00 02 80 FF 
   872)       465.6  Rx         0002  5  1F 0E 00 07 52 
   873)       465.7  Rx         0794  3  01 C1 02 
   874)       466.1  Rx         02A5  7  00 00 00 20 00 00 00 
   875)       466.4  Rx         0280  8  03 00 00 00 00 00 1B 40 
   876)       466.6  Rx         02DE  8  0F 00 02 00 5A 3A 07 F8 
   877)       466.8  Rx         02D1  7  00 00 00 03 31 D1 01 
   878)       471.2  Rx         06F7  8  00 00 00 00 00 00 00 03 
   879)       473.9  Rx         01F9  8  20 00 14 CD 00 00 00 00 
   880)       474.2  Rx         0231  8  D3 B0 00 D3 D2 C2 4C 9E 
   881)       474.4  Rx         0233  8  8B 79 00 18 D5 00 00 00 
   882)       474.7  Rx         023D  8  63 00 00 D5 00 26 00 8B 
   883)       474.9  Rx         023E  8  02 60 FF 26 00 D6 00 A3 
   884)       475.1  Rx         0251  8  10 00 00 04 00 AF 41 00 
   885)       475.3  Rx         0002  5  1F 0E 00 07 43 
   886)       475.5  Rx         0253  8  02 5E FF 00 00 00 8B 02 
   887)       475.8  Rx         0551  8  81 87 00 A0 00 02 80 FF 
   888)       475.9  Rx         0794  3  01 C1 03 
   889)       476.1  Rx         02A5  7  00 00 00 20 00 00 00 
   890)       476.4  Rx         02DE  8  0F 00 03 00 5A 8A 07 F8 
   891)       476.6  Rx         02D1  7  00 00 00 00 31 D0 01 
   892)       477.3  Rx         0358  8  01 00 00 00 02 00 00 00 
   893)       478.2  Rx         0215  6  FF F0 FF 00 FF FF 
   894)       478.5  Rx         0284  8  00 00 00 00 00 00 87 0D 
   895)       478.6  Rx         0216  1  40 
   896)       478.8  Rx         0285  8  00 00 00 00 00 00 87 0E 
   897)       479.1  Rx         029E  8  D3 00 00 00 00 F4 03 6A 
   898)       479.3  Rx         02A0  5  B0 7F F8 7F FF 
   899)       479.5  Rx         0354  8  00 00 00 00 00 00 04 00 
   900)       481.3  Rx         06F7  8  00 00 00 00 00 00 00 00 
   901)       484.3  Rx         01F9  8  20 00 14 CD 00 00 00 00 
   902)       484.5  Rx         0231  8  D3 80 00 D3 D2 C2 4C 9E 
   903)       484.7  Rx         0233  8  8B 79 00 18 D5 00 00 00 
   904)       484.9  Rx         023D  8  03 00 00 D5 00 26 00 8B 
   905)       485.2  Rx         023E  8  02 60 FF 26 00 D6 00 A0 
   906)       485.4  Rx         0002  5  1F 0E 00 07 34 
   907)       485.6  Rx         0251  8  10 00 00 04 00 EF 42 00 
   908)       485.9  Rx         0253  8  03 5E FF 00 00 00 8B 02 
   909)       486.1  Rx         0551  8  81 87 00 A0 00 02 80 FF 
   910)       486.3  Rx         02A5  7  00 00 00 20 00 00 00 
   911)       486.6  Rx         0280  8  03 00 00 00 00 00 1B 40 
   912)       486.8  Rx         02DE  8  0F 00 00 00 5A 8A 07 F8 
   913)       487.1  Rx         02D1  7  00 00 00 01 31 D0 01 
   914)       487.2  Rx         0794  3  01 C1 00 
   915)       491.3  Rx         06F7  8  00 00 00 00 00 00 00 01 
   916)       491.5  Rx     00770000  8  00 00 00 00 00 00 00 00 
   917)       491.8  Rx     00770001  8  00 00 00 00 00 11 11 05 
   918)       492.1  Rx     00770006  8  00 00 00 00 00 00 00 00 
   919)       494.6  Rx         01F9  8  20 00 14 B4 00 00 00 00 
   920)       494.8  Rx         0231  8  D3 90 00 D3 D2 C2 4C 9E 
   921)       495.0  Rx         0233  8  8B 78 00 18 D4 00 00 00 
   922)       495.2  Rx         0002  5  1F 0E 00 07 25 
   923)       495.4  Rx         023D  8  23 00 00 D4 00 25 00 8B 
   924)       495.7  Rx         023E  8  02 60 FF 25 00 D6 00 A1 
   925)       495.9  Rx         0251  8  10 00 00 04 00 2F 43 00 
   926)       496.2  Rx         0253  8  00 5E FF 00 00 00 88 02 
   927)       496.4  Rx         02A5  7  00 00 00 20 00 00 00 
   928)       496.6  Rx         0551  8  81 87 00 A0 00 02 80 FF 
   929)       496.8  Rx         02DE  8  0F 00 01 00 5A B2 07 F8 
   930)       497.1  Rx         02D1  7  00 00 00 02 31 D0 01 
   931)       497.3  Rx         05C5  8  40 00 00 00 00 0C 00 00 
   932)       497.5  Rx         0794  3  01 C1 01 
   933)       498.1  Rx         0215  6  FF F0 FF 00 FF FF 
   934)       498.3  Rx         0284  8  00 00 00 00 00 00 88 0E 
   935)       498.4  Rx         0216  1  40 
   936)       498.7  Rx         0285  8  00 00 00 00 00 00 88 0F 
   937)       499.0  Rx         029E  8  D3 00 00 00 00 F2 00 65 
   938)       499.1  Rx         02A0  5  AD 7F F9 7F FF 
   939)       501.3  Rx         06F7  8  00 00 00 00 00 00 00 02 
   940)       504.7  Rx         01F9  8  20 00 14 B4 00 00 00 00 
   941)       504.9  Rx         0231  8  D3 A0 00 D3 D2 C2 4C 9E 
   942)       505.1  Rx         0233  8  8B 78 00 18 D4 00 00 00 
   943)       505.3  Rx         0002  5  1F 0E 00 07 16 
   944)       505.5  Rx         023D  8  43 00 00 D4 00 23 00 8B 
   945)       505.8  Rx         023E  8  02 60 FF 23 00 D6 00 A2 
   946)       506.0  Rx         0251  8  10 00 00 04 00 6F 10 52 
   947)       506.3  Rx         0253  8  01 5E FF 00 00 00 8B 02 
   948)       506.5  Rx         0280  8  03 00 00 00 00 00 1B 40 
   949)       506.7  Rx         02A5  7  00 00 00 20 00 00 00 
   950)       507.0  Rx         02DE  8  0F 00 02 00 5A D9 07 F8 
   951)       507.2  Rx         02D1  7  00 00 00 03 31 D0 01 
   952)       507.5  Rx         0551  8  81 87 00 A0 00 02 80 FF 
   953)       507.6  Rx         0794  3  01 C1 02 
   954)       511.3  Rx         06F7  8  00 00 00 00 00 00 00 03 
   955)       514.9  Rx         0002  5  1F 0E 00 07 07 
   956)       515.2  Rx         01F9  8  20 00 14 B4 00 00 00 00 
   957)       515.4  Rx         0231  8  D3 B0 00 D3 D2 C2 4C 9E 
   958)       515.6  Rx         0233  8  8B 78 00 18 D4 00 00 00 
   959)       515.8  Rx         023D  8  63 00 00 D4 00 23 00 8B 
   960)       516.1  Rx         023E  8  02 60 FF 23 00 D6 00 93 
   961)       516.3  Rx         0251  8  10 00 00 04 00 AF 11 48 
   962)       516.6  Rx         0253  8  02 5E FF 00 00 00 8B 02 
   963)       516.8  Rx         02A5  7  00 00 00 20 00 00 00 
   964)       517.0  Rx         02DE  8  0F 00 03 00 5B 00 07 F8 
   965)       517.3  Rx         02D1  7  00 00 00 00 31 D0 01 
   966)       517.5  Rx         0551  8  81 87 00 A0 00 02 80 FF 
   967)       517.7  Rx         0794  3  01 C1 03 
   968)       518.3  Rx         0215  6  FF F0 FF 00 FF FF 
   969)       518.5  Rx         0284  8  00 00 00 00 00 00 89 0F 
   970)       518.6  Rx         0216  1  40 
   971)       518.9  Rx         0285  8  00 00 00 00 00 00 89 10 
   972)       519.1  Rx         029E  8  D3 00 00 00 00 F3 01 67 
   973)       519.3  Rx         02A0  5  AD 7F FA 7F FF 
   974)       519.6  Rx         0354  8  00 00 00 00 00 00 04 00 
   975)       521.4  Rx         06F7  8  00 00 00 00 00 00 00 00 
   976)       524.9  Rx         0002  5  1F 0E 00 07 F8 
   977)       525.2  Rx         01F9  8  20 00 14 CD 00 00 00 00 
   978)       525.4  Rx         0231  8  D3 80 00 D3 D2 C2 4C 9E 
   979)       525.7  Rx         0233  8  8B 79 00 18 D5 00 00 00 
   980)       525.9  Rx         023D  8  03 00 00 D5 00 23 00 8B 
   981)       526.1  Rx         023E  8  02 60 FF 23 00 D6 00 90 
   982)       526.3  Rx         0251  8  10 00 00 04 00 EF 12 30 
   983)       526.6  Rx         0253  8  03 5E FF 00 00 00 8B 02 
   984)       526.8  Rx         0280  8  03 00 00 00 00 00 1B 40 
   985)       527.0  Rx         02A5  7  00 00 00 20 00 00 00 
   986)       527.3  Rx         02DE  8  0F 00 00 00 5B 27 07 F8 
   987)       527.5  Rx         02D1  7  00 00 00 01 31 D0 01 
   988)       527.8  Rx         035D  8  C0 03 00 00 00 00 00 00 
   989)       528.0  Rx         0551  8  81 87 00 A0 00 02 80 FF 
   990)       528.2  Rx         0580  8  00 7A 40 00 00 00 00 00 
   991)       528.5  Rx         060D  8  08 06 00 00 00 00 20 00 
   992)       528.7  Rx         0794  3  01 C1 00 
   993)       531.4  Rx         06F7  8  00 00 00 00 00 00 00 01 
   994)       534.8  Rx         0002  5  1F 0E 00 07 E9 
   995)       535.4  Rx         01F9  8  20 00 14 CD 00 00 00 00 
   996)       535.6  Rx         0231  8  D3 90 00 D3 D2 C2 4C 9E 
   997)       535.9  Rx         0233  8  8B 79 00 18 D5 00 00 00 
   998)       536.1  Rx         023D  8  23 00 00 D5 00 23 00 8B 
   999)       536.4  Rx         023E  8  02 60 FF 23 00 D6 00 91 
  1000)       536.6  Rx         0251  8  10 00 00 04 00 2F 13 35 
  1001)       536.8  Rx         0253  8  00 5E FF 00 00 00 8D 02 
  1002)       537.0  Rx         02A5  7  00 00 00 20 00 00 00 
  1003)       537.3  Rx         02DE  8  0F 00 01 00 5B 4F 07 F8 
  1004)       537.5  Rx         02D1  7  00 00 00 02 31 D0 01 
  1005)       537.7  Rx         0385  7  84 00 00 00 00 00 00 
  1006)       538.0  Rx         0551  8  81 87 00 A0 00 02 80 FF 
  1007)       538.2  Rx         0215  6  FF F0 FF 00 FF FF 
  1008)       538.4  Rx         0284  8  00 00 00 00 00 00 8A 10 
  1009)       538.6  Rx         0216  1  40 
  1010)       538.8  Rx         0285  8  00 00 00 00 00 00 8A 11 
  1011)       539.0  Rx         029E  8  D3 00 00 00 00 F4 02 69 
  1012)       539.2  Rx         02A0  5  AF 7F F9 7F FE 
  1013)       539.4  Rx         0794  3  01 C1 01 
  1014)       541.4  Rx         06F7  8  00 00 00 00 00 00 00 02 
  1015)       544.5  Rx         0002  5  1F 0E 00 07 DA 
  1016)       545.7  Rx         01F9  8  20 00 14 CD 00 00 00 00 
  1017)       546.0  Rx         0231  8  D3 A0 00 D3 D2 C2 4C 9E 
  1018)       546.2  Rx         0233  8  8B 79 00 18 D5 00 00 00 
  1019)       546.4  Rx         023D  8  43 00 00 D5 00 25 00 8B 
  1020)       546.7  Rx         023E  8  02 60 FF 25 00 D6 00 92 
  1021)       546.9  Rx         0251  8  10 00 00 04 00 6F 14 31 
  1022)       547.2  Rx         0253  8  01 5E FF 00 00 00 8D 02 
  1023)       547.4  Rx         0280  8  03 00 00 00 00 00 1B 40 
  1024)       547.6  Rx         02A5  7  00 00 00 20 00 00 00 
  1025)       547.8  Rx         02DE  8  0F 00 02 00 5B 77 07 F8 
  1026)       548.1  Rx         02D1  7  00 00 00 03 31 D0 01 
  1027)       548.3  Rx         0551  8  81 87 00 A0 00 02 80 FF 
  1028)       548.5  Rx         0794  3  01 C1 02 
  1029)       551.4  Rx         06F7  8  00 00 00 00 00 00 00 03 
  1030)       554.6  Rx         0002  5  1F 0E 00 07 CB 
  1031)       555.9  Rx         01F9  8  20 00 14 E6 00 00 00 00 
  1032)       556.1  Rx         0231  8  D3 B0 00 D3 D2 C2 4C 9E 
  1033)       556.4  Rx         0233  8  8B 79 00 18 D6 00 00 00 
  1034)       556.6  Rx         023D  8  63 00 00 D6 00 25 00 8B 
  1035)       556.8  Rx         023E  8  02 60 FF 25 00 D6 00 93 
  1036)       557.1  Rx         0251  8  10 00 00 04 00 AF 15 37 
  1037)       557.4  Rx         0253  8  02 5E FF 00 00 00 8E 02 
  1038)       557.6  Rx         02A5  7  00 00 00 20 00 00 00 
  1039)       557.8  Rx         02DE  8  0F 00 03 00 5B 9F 07 F8 
  1040)       558.0  Rx         02D1  7  00 00 00 00 31 D0 01 
  1041)       558.2  Rx         0215  6  FF F0 FF 00 FF FF 
  1042)       558.5  Rx         0284  8  00 00 00 00 00 00 8B 11 
  1043)       558.6  Rx         0216  1  40 
  1044)       558.8  Rx         0285  8  00 00 00 00 00 00 8B 12 
  1045)       559.1  Rx         029E  8  D3 00 00 00 00 F2 03 68 
  1046)       559.3  Rx         02A0  5  AC 7F F8 7F FF 
  1047)       559.5  Rx         0354  8  00 00 00 00 00 00 04 00 
  1048)       559.7  Rx         0551  8  81 87 00 A0 00 02 80 FF 
  1049)       559.9  Rx         0625  6  32 00 FF 1D 00 00 
  1050)       560.1  Rx         0794  3  01 C1 03 
  1051)       561.4  Rx         06F7  8  00 00 00 00 00 00 00 00 
  1052)       562.2  Rx         0251  8  10 00 00 04 00 EF 16 DE 
  1053)       564.4  Rx         0002  5  1F 0E 00 07 BC 
  1054)       566.1  Rx         01F9  8  20 00 14 E6 00 00 00 00 
  1055)       566.3  Rx         0231  8  D3 80 00 D3 D2 C2 4C 9E 
  1056)       566.6  Rx         0233  8  8B 79 00 18 D6 00 00 00 
  1057)       566.8  Rx         023D  8  03 00 00 D6 00 25 00 8B 
  1058)       567.0  Rx         023E  8  02 60 FF 25 00 D6 00 A0 
  1059)       567.3  Rx         0253  8  03 5E FF 00 00 00 8D 02 
  1060)       567.5  Rx         0280  8  03 00 00 00 00 00 1B 40 
  1061)       567.8  Rx         02A5  7  00 00 00 20 00 00 00 
  1062)       568.0  Rx         02DE  8  0F 00 00 00 5B C7 07 F8 
  1063)       568.2  Rx         02D1  7  00 00 00 01 31 D0 01 
  1064)       568.4  Rx         0551  8  81 87 00 A0 00 02 80 FF 
  1065)       568.6  Rx         0794  3  01 C1 00 
  1066)       571.4  Rx         06F7  8  00 00 00 00 00 00 00 01 
  1067)       574.4  Rx         0002  5  1F 0E 00 07 AD 
  1068)       576.4  Rx         0251  8  10 00 00 04 00 2F 17 87 
  1069)       576.6  Rx         01F9  8  20 00 14 E6 00 00 00 00 
  1070)       576.9  Rx         0231  8  D3 90 00 D3 D2 C2 4C 9E 
  1071)       577.1  Rx         0233  8  8B 79 00 18 D6 00 00 00 
  1072)       577.3  Rx         023D  8  23 00 00 D6 00 25 00 8B 
  1073)       577.5  Rx         023E  8  02 60 FF 25 00 D6 00 91 
  1074)       577.8  Rx         0253  8  00 5E FF 00 00 00 8E 02 
  1075)       578.0  Rx         02A5  7  00 00 00 20 00 00 00 
  1076)       578.2  Rx         0215  6  FF F0 FF 00 FF FF 
  1077)       578.5  Rx         0284  8  00 00 00 00 00 00 8C 12 
  1078)       578.6  Rx         0216  1  40 
  1079)       578.9  Rx         0285  8  00 00 00 00 00 00 8C 13 
  1080)       579.1  Rx         029E  8  D3 00 00 00 00 F3 00 66 
  1081)       579.3  Rx         02A0  5  AE 7F FA 7F FF 
  1082)       579.5  Rx         02DE  8  0F 00 01 00 5B C7 07 F8 
  1083)       579.7  Rx         02D1  7  00 00 00 02 31 D0 01 
  1084)       580.0  Rx         0358  8  01 00 00 00 02 00 00 00 
  1085)       580.2  Rx         0551  8  81 87 00 A0 00 02 80 FF 
  1086)       580.4  Rx         0794  3  01 C1 01 
  1087)       581.5  Rx         06F7  8  00 00 00 00 00 00 00 02 
  1088)       584.2  Rx         0002  5  1F 0E 00 07 9E 
  1089)       586.4  Rx         02A5  7  00 00 00 20 00 00 00 
  1090)       586.6  Rx         01F9  8  20 00 14 E6 00 00 00 00 
  1091)       586.9  Rx         0231  8  D3 A0 00 D3 D2 C2 4C 9E 
  1092)       587.1  Rx         0233  8  8B 79 00 18 D6 00 00 00 
  1093)       587.3  Rx         023D  8  43 00 00 D6 00 25 00 8B 
  1094)       587.6  Rx         023E  8  02 60 FF 25 00 D6 00 A2 
  1095)       587.8  Rx         0251  8  10 00 00 04 00 6F 40 00 
  1096)       588.0  Rx         0253  8  01 5E FF 00 00 00 8D 02 
  1097)       588.3  Rx         0280  8  03 00 00 00 00 00 1B 40 
  1098)       588.5  Rx         02DE  8  0F 00 02 00 5C 17 07 F8 
  1099)       588.8  Rx         02D1  7  00 00 00 03 31 D0 01 
  1100)       589.0  Rx         0551  8  81 87 00 A0 00 02 80 FF 
  1101)       589.1  Rx         0794  3  01 C1 02 
  1102)       591.4  Rx     00770000  8  00 00 00 00 00 00 00 00 
  1103)       591.7  Rx     00770001  8  00 00 00 00 01 11 11 05 
  1104)       592.0  Rx     00770006  8  00 00 00 00 00 00 00 00 
  1105)       592.2  Rx         06F7  8  00 00 00 00 00 00 00 03 
  1106)       593.6  Rx         0251  8  10 00 00 04 00 AF 41 00 
  1107)       593.8  Rx         0253  8  02 5E FF 00 00 00 8D 02 
  1108)       594.3  Rx         0002  5  1F 0E 00 07 8F 
  1109)       596.4  Rx         02A5  7  00 00 00 20 00 00 00 
  1110)       596.7  Rx         02DE  8  0F 00 03 00 5C 3F 07 F8 
  1111)       596.9  Rx         02D1  7  00 00 00 00 31 D0 01 
  1112)       597.1  Rx         01F9  8  20 00 14 E6 00 00 00 00 
  1113)       597.4  Rx         0231  8  D3 B0 00 D3 D2 C2 4C 9E 
  1114)       597.6  Rx         0233  8  8B 79 00 18 D6 00 00 00 
  1115)       597.8  Rx         023D  8  63 00 00 D6 00 23 00 8B 
  1116)       598.1  Rx         023E  8  02 60 FF 23 00 D6 00 A3 
  1117)       598.3  Rx         0551  8  81 87 00 A0 00 02 80 FF 
  1118)       598.5  Rx         0215  6  FF F0 FF 00 FF FF 
  1119)       598.7  Rx         0284  8  00 00 00 00 00 00 8D 13 
  1120)       598.9  Rx         0216  1  40 
  1121)       599.1  Rx         0285  8  00 00 00 00 00 00 8D 14 
  1122)       599.3  Rx         029E  8  D3 00 00 00 00 F4 01 68 
  1123)       599.5  Rx         02A0  5  AF 7F F9 7F FF 
  1124)       599.8  Rx         0354  8  00 00 00 00 00 00 04 00 
  1125)       600.0  Rx         05C5  8  40 00 00 00 00 0C 00 00 
  1126)       600.2  Rx         0794  3  01 C1 03 
  1127)       601.5  Rx         06F7  8  00 00 00 00 00 00 00 00 
  1128)       604.1  Rx         0002  5  1F 0E 00 07 70 
  1129)       604.6  Rx         0251  8  10 00 00 04 00 EF 42 00 
  1130)       604.8  Rx         0253  8  03 5E FF 00 00 00 8D 02 
  1131)       606.4  Rx         0280  8  03 00 00 00 00 00 1B 40 
  1132)       606.7  Rx         02A5  7  00 00 00 20 00 00 00 
  1133)       606.9  Rx         02DE  8  0F 00 00 00 5C 67 07 F8 
  1134)       607.1  Rx         02D1  7  00 00 00 01 31 D0 01 
  1135)       607.3  Rx         01F9  8  20 00 14 E6 00 00 00 00 
  1136)       607.6  Rx         0231  8  D3 80 00 D3 D2 C2 4C 9E 
  1137)       607.8  Rx         0233  8  8B 79 00 18 D6 00 00 00 
  1138)       608.1  Rx         023D  8  03 00 00 D6 00 23 00 8B 
  1139)       608.3  Rx         023E  8  02 60 FF 23 00 D6 00 A0 
  1140)       608.5  Rx         0551  8  81 87 00 A0 00 02 80 FF 
  1141)       608.7  Rx         0794  3  01 C1 00 
  1142)       611.5  Rx         06F7  8  00 00 00 00 00 00 00 01 
  1143)       614.1  Rx         0002  5  1F 0E 00 07 61 
  1144)       615.4  Rx         0251  8  10 00 00 04 00 2F 43 00 
  1145)       615.7  Rx         0253  8  00 5E FF 00 00 00 8E 02 
  1146)       616.4  Rx         02A5  7  00 00 00 20 00 00 00 
  1147)       616.7  Rx         02DE  8  0F 00 01 00 5C 8F 07 F8 
  1148)       616.9  Rx         02D1  7  00 00 00 02 31 D0 01 
  1149)       617.3  Rx         01F9  8  20 00 14 CD 00 00 00 00 
  1150)       617.5  Rx         0231  8  D3 90 00 D3 D2 C2 4C 9E 
  1151)       617.8  Rx         0233  8  8B 79 00 18 D5 00 00 00 
  1152)       618.0  Rx         023D  8  23 00 00 D5 00 23 00 8B 
  1153)       618.3  Rx         023E  8  02 60 FF 23 00 D6 00 A1 
  1154)       618.5  Rx         0215  6  FF F0 FF 00 FF FF 
  1155)       618.7  Rx         0284  8  00 00 00 00 00 00 8E 14 
  1156)       618.8  Rx         0216  1  40 
  1157)       619.1  Rx         0285  8  00 00 00 00 00 00 8E 15 
  1158)       619.3  Rx         029E  8  D3 00 00 00 00 F2 02 67 
  1159)       619.5  Rx         02A0  5  AD 7F F8 7F FF 
  1160)       619.7  Rx         0551  8  81 87 00 A0 00 02 80 FF 
  1161)       619.9  Rx         0794  3  01 C1 01 
  1162)       621.6  Rx         06F7  8  00 00 00 00 00 00 00 02 
  1163)       623.9  Rx         0002  5  1F 0E 00 07 52 
  1164)       626.4  Rx         0251  8  10 00 00 04 00 6F 10 52 
  1165)       626.6  Rx         0253  8  01 5E FF 00 00 00 8D 02 
  1166)       626.9  Rx         0280  8  03 00 00 00 00 00 1B 40 
  1167)       627.1  Rx         02A5  7  00 00 00 20 00 00 00 
  1168)       627.4  Rx         02DE  8  0F 00 02 00 5C B7 07 F8 
  1169)       627.6  Rx         01F9  8  20 00 14 CD 00 00 00 00 
  1170)       627.8  Rx         0231  8  D3 A0 00 D3 D2 C2 4C 9E 
  1171)       628.1  Rx         0233  8  8B 79 00 18 D5 00 00 00 
  1172)       628.3  Rx         023D  8  43 00 00 D5 00 23 00 8B 
  1173)       628.5  Rx         023E  8  02 60 FF 23 00 D6 00 92 
  1174)       628.8  Rx         02D1  7  00 00 00 03 31 D0 01 
  1175)       629.0  Rx         035D  8  C0 03 00 00 00 00 00 00 
  1176)       629.3  Rx         0551  8  81 88 00 A0 00 02 80 FF 
  1177)       629.5  Rx         0580  8  00 78 40 00 00 00 00 00 
  1178)       629.8  Rx         060D  8  08 06 00 00 00 00 20 00 
  1179)       629.9  Rx         0794  3  01 C1 02 
  1180)       631.6  Rx         06F7  8  00 00 00 00 00 00 00 03 
  1181)       633.9  Rx         0002  5  1F 0E 00 07 43 
  1182)       636.5  Rx         02DE  8  0F 00 03 00 5C DF 07 F8 
  1183)       636.7  Rx         02A5  7  00 00 00 20 00 00 00 
  1184)       636.9  Rx         02D1  7  00 00 00 00 31 D0 01 
  1185)       637.1  Rx         0385  7  84 00 00 00 00 00 00 
  1186)       637.6  Rx         0251  8  10 00 00 04 00 AF 11 48 
  1187)       637.8  Rx         0253  8  02 5E FF 00 00 00 8B 02 
  1188)       638.0  Rx         01F9  8  20 00 14 CD 00 00 00 00 
  1189)       638.2  Rx         0215  6  FF F0 FF 00 FF FF 
  1190)       638.5  Rx         0231  8  D3 B0 00 D3 D2 C2 4C 9E 
  1191)       638.6  Rx         0216  1  40 
  1192)       638.8  Rx         0233  8  8B 78 00 18 D5 00 00 00 
  1193)       639.0  Rx         023D  8  63 00 00 D5 00 22 00 8B 
  1194)       639.3  Rx         023E  8  02 60 FF 22 00 D6 00 93 
  1195)       639.6  Rx         0284  8  00 00 00 00 00 00 8F 15 
  1196)       639.8  Rx         0285  8  00 00 00 00 00 00 8F 16 
  1197)       640.0  Rx         029E  8  D3 00 00 00 00 F2 03 68 
  1198)       640.2  Rx         02A0  5  AD 7F FA 7F FF 
  1199)       640.4  Rx         0354  8  00 00 00 00 00 00 04 00 
  1200)       640.7  Rx         0551  8  81 88 00 A0 00 02 80 FF 
  1201)       640.8  Rx         0794  3  01 C1 03 
  1202)       641.6  Rx         06F7  8  00 00 00 00 00 00 00 00 
  1203)       643.7  Rx         0002  5  1F 0E 00 07 34 
  1204)       644.0  Rx         0251  8  10 00 00 04 00 EF 12 30 
  1205)       644.3  Rx         0253  8  03 5E FF 00 00 00 8B 02 
  1206)       646.5  Rx         0280  8  03 00 00 00 00 00 1B 40 
  1207)       646.7  Rx         02A5  7  00 00 00 20 00 00 00 
  1208)       646.9  Rx         02DE  8  0F 00 00 00 5D 06 07 F8 
  1209)       647.1  Rx         02D1  7  00 00 00 01 31 D0 01 
  1210)       648.0  Rx         01F9  8  20 00 14 B4 00 00 00 00 
  1211)       648.2  Rx         0231  8  D3 80 00 D3 D2 C2 4C 9E 
  1212)       648.5  Rx         0233  8  8B 78 00 18 D4 00 00 00 
  1213)       648.7  Rx         023D  8  03 00 00 D4 00 25 00 8B 
  1214)       648.9  Rx         023E  8  02 60 FF 25 00 D6 00 90 
  1215)       649.2  Rx         0551  8  81 88 00 A0 00 02 80 FF 
  1216)       649.3  Rx         0794  3  01 C1 00 
  1217)       651.6  Rx         06F7  8  00 00 00 00 00 00 00 01 
  1218)       653.8  Rx         0251  8  10 00 00 04 00 2F 13 35 
  1219)       654.0  Rx         0002  5  1F 0E 00 07 25 
  1220)       654.2  Rx         0253  8  00 5E FF 00 00 00 8B 02 
  1221)       656.5  Rx         02DE  8  0F 00 01 00 5D 2D 07 F8 
  1222)       656.7  Rx         02A5  7  00 00 00 20 00 00 00 
  1223)       656.9  Rx         02D1  7  00 00 00 02 31 D0 01 
  1224)       658.2  Rx         0215  6  FF F0 FF 00 FF FF 
  1225)       658.5  Rx         01F9  8  20 00 14 B4 00 00 00 00 
  1226)       658.6  Rx         0216  1  40 
  1227)       658.8  Rx         0231  8  D3 90 00 D3 D2 C2 4C 9E 
  1228)       659.1  Rx         0233  8  8B 78 00 18 D4 00 00 00 
  1229)       659.3  Rx         023D  8  23 00 00 D4 00 25 00 8B 
  1230)       659.5  Rx         023E  8  02 60 FF 25 00 D6 00 91 
  1231)       659.8  Rx         0284  8  00 00 00 00 00 00 90 16 
  1232)       660.0  Rx         0285  8  00 00 00 00 00 00 90 17 
  1233)       660.3  Rx         029E  8  D3 00 00 00 00 F4 00 67 
  1234)       660.5  Rx         02A0  5  B0 7F F9 7F FF 
  1235)       660.7  Rx         0551  8  81 88 00 A0 00 02 80 FF 
  1236)       660.9  Rx         0625  6  32 00 FF 1D 00 00 
  1237)       661.1  Rx         0794  3  01 C1 01 
  1238)       661.6  Rx         06F7  8  00 00 00 00 00 00 00 02 
  1239)       663.6  Rx         0002  5  1F 0E 00 07 16 
  1240)       664.3  Rx         0251  8  10 00 00 04 00 6F 14 31 
  1241)       664.6  Rx         0253  8  01 5E FF 00 00 00 8E 02 
  1242)       666.5  Rx         0280  8  03 00 00 00 00 00 1B 40 
  1243)       666.7  Rx         02A5  7  00 00 00 20 00 00 00 
  1244)       666.9  Rx         02DE  8  0F 00 02 00 5D 54 07 F8 
  1245)       667.2  Rx         02D1  7  00 00 00 03 31 D0 01 
  1246)       668.5  Rx         01F9  8  20 00 14 B4 00 00 00 00 
  1247)       668.8  Rx         0231  8  D3 A0 00 D3 D2 C2 4C 9E 
  1248)       669.0  Rx         0233  8  8B 78 00 18 D4 00 00 00 
  1249)       669.3  Rx         023D  8  43 00 00 D4 00 25 00 8B 
  1250)       669.5  Rx         023E  8  02 60 FF 25 00 D6 00 A2 
  1251)       669.7  Rx         0551  8  81 88 00 A0 00 02 80 FF 
  1252)       669.9  Rx         0794  3  01 C1 02 
  1253)       671.6  Rx         06F7  8  00 00 00 00 00 00 00 03 
  1254)       673.6  Rx         0002  5  1F 0E 00 07 07 
  1255)       675.4  Rx         0251  8  10 00 00 04 00 AF 15 37 
  1256)       675.8  Rx         0253  8  02 5E FF 00 00 00 8D 02 
  1257)       676.5  Rx         02DE  8  0F 00 03 00 5D 7B 07 F8 
  1258)       676.7  Rx         02A5  7  00 00 00 20 00 00 00 
  1259)       676.9  Rx         02D1  7  00 00 00 00 31 D0 01 
  1260)       677.2  Rx         0358  8  01 00 00 00 02 00 00 00 
  1261)       678.3  Rx         0284  8  00 00 00 00 00 00 91 17 
  1262)       678.5  Rx         0215  6  FF F0 FF 00 FF FF 
  1263)       678.7  Rx         0285  8  00 00 00 00 00 00 91 18 
  1264)       679.0  Rx         01F9  8  20 00 14 CD 00 00 00 00 
  1265)       679.1  Rx         0216  1  40 
  1266)       679.3  Rx         0231  8  D3 B0 00 D3 D2 C2 4C 9E 
  1267)       679.6  Rx         0233  8  8B 79 00 18 D5 00 00 00 
  1268)       679.8  Rx         023D  8  63 00 00 D5 00 25 00 8B 
  1269)       680.1  Rx         023E  8  02 60 FF 25 00 D6 00 A3 
  1270)       680.3  Rx         029E  8  D3 00 00 00 00 F2 01 66 
  1271)       680.5  Rx         02A0  5  AD 7F F8 7F FF 
  1272)       680.7  Rx         0354  8  00 00 00 00 00 00 04 00 
  1273)       681.0  Rx         0551  8  81 88 00 A0 00 02 80 FF 
  1274)       681.1  Rx         0794  3  01 C1 03 
  1275)       681.7  Rx         06F7  8  00 00 00 00 00 00 00 00 
  1276)       683.4  Rx         0002  5  1F 0E 00 07 F8 
  1277)       686.5  Rx         0280  8  03 00 00 00 00 00 1B 40 
  1278)       686.7  Rx         02A5  7  00 00 00 20 00 00 00 
  1279)       687.0  Rx         02DE  8  0F 00 00 00 5D A3 07 F8 
  1280)       687.2  Rx         02D1  7  00 00 00 01 31 D1 01 
  1281)       688.9  Rx         01F9  8  20 00 14 CD 00 00 00 00 
  1282)       689.2  Rx         0231  8  D3 80 00 D3 D2 C2 4C 9E 
  1283)       689.5  Rx         0233  8  8B 78 00 18 D5 00 00 00 
  1284)       689.7  Rx         023D  8  03 00 00 D5 00 25 00 8B 
  1285)       689.9  Rx         023E  8  02 60 FF 25 00 D6 00 A0 
  1286)       690.1  Rx         0551  8  81 88 00 A0 00 02 80 FF 
  1287)       690.3  Rx         0794  3  01 C1 00 
  1288)       691.4  Rx     00770000  8  00 00 00 00 00 00 00 00 
  1289)       691.7  Rx     00770001  8  00 00 00 00 00 11 11 05 
  1290)       692.0  Rx     00770006  8  00 00 00 00 00 00 00 00 
  1291)       692.3  Rx     00770005  8  66 00 20 10 01 00 00 00 
  1292)       692.5  Rx     00770003  8  F0 22 00 14 AF 00 63 00 
  1293)       692.8  Rx     00770004  8  00 00 00 00 00 00 00 00 
  1294)       693.1  Rx     00770004  8  00 00 00 00 00 00 00 00 
  1295)       693.4  Rx         0251  8  10 00 00 04 00 EF 16 DE 
  1296)       693.6  Rx         0002  5  1F 0E 00 07 E9 
  1297)       693.8  Rx         0253  8  03 5E FF 00 00 00 8D 02 
  1298)       694.1  Rx         06F7  8  00 00 00 00 00 00 00 01 
  1299)       694.5  Rx         0251  8  10 00 00 04 00 2F 17 87 
  1300)       694.8  Rx         0253  8  00 5E FF 00 00 00 8E 02 
  1301)       696.5  Rx         02DE  8  0F 00 01 00 5D CA 07 F8 
  1302)       696.7  Rx         02A5  7  00 00 00 20 00 00 00 
  1303)       696.9  Rx         02D1  7  00 00 00 02 31 D1 01 
  1304)       697.2  Rx         05C5  8  40 00 00 00 00 0C 00 00 
  1305)       698.3  Rx         0215  6  FF F0 FF 00 FF FF 
  1306)       698.5  Rx         0284  8  00 00 00 00 00 00 92 18 
  1307)       698.6  Rx         0216  1  40 
  1308)       698.9  Rx         0285  8  00 00 00 00 00 00 92 19 
  1309)       699.1  Rx         029E  8  D3 00 00 00 00 F3 02 68 
  1310)       699.3  Rx         02A0  5  AE 7F FA 7F FF 
  1311)       699.5  Rx         01F9  8  20 00 14 CD 00 00 00 00 
  1312)       699.7  Rx         0231  8  D3 90 00 D3 D2 C2 4C 9E 
  1313)       700.0  Rx         0233  8  8B 79 00 18 D5 00 00 00 
  1314)       700.2  Rx         023D  8  23 00 00 D5 00 23 00 8B 
  1315)       700.5  Rx         023E  8  02 60 FF 23 00 D6 00 A1 
  1316)       700.7  Rx         0551  8  81 88 00 A0 00 02 80 FF 
  1317)       700.8  Rx         0794  3  01 C1 01 
  1318)       701.7  Rx         06F7  8  00 00 00 00 00 00 00 02 
  1319)       703.3  Rx         0002  5  1F 0E 00 07 DA 
  1320)       704.9  Rx         0251  8  10 00 00 04 00 6F 40 00 
  1321)       705.2  Rx         0253  8  01 5E FF 00 00 00 8E 02 
  1322)       706.5  Rx         0280  8  03 00 00 00 00 00 1B 40 
  1323)       706.7  Rx         02A5  7  00 00 00 20 00 00 00 
  1324)       706.9  Rx         02DE  8  0F 00 02 00 5D F2 07 F8 
  1325)       707.2  Rx         02D1  7  00 00 00 03 31 D1 01 
  1326)       709.5  Rx         01F9  8  20 00 14 E6 00 00 00 00 
  1327)       709.7  Rx         0231  8  D3 A0 00 D3 D2 C2 4C 9E 
  1328)       709.9  Rx         0233  8  8B 79 00 18 D6 00 00 00 
  1329)       710.2  Rx         023D  8  43 00 00 D6 00 23 00 8B 
  1330)       710.5  Rx         023E  8  02 60 FF 23 00 D6 00 A2 
  1331)       710.7  Rx         0551  8  81 88 00 A0 00 02 80 FF 
  1332)       710.8  Rx         0794  3  01 C1 02 
  1333)       711.7  Rx         06F7  8  00 00 00 00 00 00 00 03 
  1334)       713.1  Rx         0002  5  1F 0E 00 07 CB 
  1335)       715.2  Rx         0251  8  10 00 00 04 00 AF 41 00 
  1336)       715.4  Rx         0253  8  02 5E FF 00 00 00 8E 02 
  1337)       716.5  Rx         02DE  8  0F 00 03 00 5E 1A 07 F8 
  1338)       716.8  Rx         02A5  7  00 00 00 20 00 00 00 
  1339)       717.0  Rx         02D1  7  00 00 00 00 31 D1 01 
  1340)       718.3  Rx         0215  6  FF F0 FF 00 FF FF 
  1341)       718.5  Rx         0284  8  00 00 00 00 00 00 93 19 
  1342)       718.6  Rx         0216  1  40 
  1343)       718.9  Rx         0285  8  00 00 00 00 00 00 93 1A 
  1344)       719.1  Rx         029E  8  D3 00 00 00 00 F4 03 6A 
  1345)       719.3  Rx         02A0  5  AF 7F F8 7F FE 
  1346)       719.6  Rx         0354  8  00 00 00 00 00 00 04 00 
  1347)       719.8  Rx         01F9  8  20 00 14 E6 00 00 00 00 
  1348)       720.0  Rx         0231  8  D3 B0 00 D3 D2 C2 4C 9E 
  1349)       720.3  Rx         0233  8  8B 79 00 18 D6 00 00 00 
  1350)       720.5  Rx         023D  8  63 00 00 D6 00 23 00 8B 
  1351)       720.7  Rx         023E  8  02 60 FF 23 00 D6 00 A3 
  1352)       720.9  Rx         0551  8  81 88 00 A0 00 02 80 FF 
  1353)       721.1  Rx         0794  3  01 C1 03 
  1354)       721.8  Rx         06F7  8  00 00 00 00 00 00 00 00 
  1355)       723.1  Rx         0002  5  1F 0E 00 07 BC 
  1356)       726.4  Rx         0251  8  10 00 00 04 00 EF 42 00 
  1357)       726.7  Rx         0253  8  03 5E FF 00 00 00 8D 02 
  1358)       726.9  Rx         0280  8  03 00 00 00 00 00 1B 40 
  1359)       727.1  Rx         02A5  7  00 00 00 20 00 00 00 
  1360)       727.4  Rx         02DE  8  0F 00 00 00 5E 42 07 F8 
  1361)       727.6  Rx         02D1  7  00 00 00 01 31 D1 01 
  1362)       727.8  Rx         035D  8  C0 03 00 00 00 00 00 00 
  1363)       728.1  Rx         060D  8  08 06 00 00 00 00 20 00 
  1364)       730.0  Rx         01F9  8  20 00 14 E6 00 00 00 00 
  1365)       730.2  Rx         0231  8  D3 80 00 D3 D2 C2 4C 9E 
  1366)       730.4  Rx         0233  8  8B 7A 00 18 D6 00 00 00 
  1367)       730.7  Rx         023D  8  03 00 00 D6 00 23 00 8B 
  1368)       730.9  Rx         023E  8  02 60 FF 23 00 D6 00 90 
  1369)       731.1  Rx         0551  8  81 88 00 A0 00 02 80 FF 
  1370)       731.4  Rx         0580  8  00 78 40 00 00 00 00 00 
  1371)       731.6  Rx         0794  3  01 C1 00 
  1372)       731.8  Rx         06F7  8  00 00 00 00 00 00 00 01 
  1373)       733.0  Rx         0251  8  10 00 00 04 00 2F 43 00 
  1374)       733.1  Rx         0002  5  1F 0E 00 07 AD 
  1375)       736.6  Rx         02DE  8  0F 00 01 00 5E 6A 07 F8 
  1376)       736.8  Rx         02A5  7  00 00 00 20 00 00 00 
  1377)       737.0  Rx         02D1  7  00 00 00 02 31 D1 01 
  1378)       737.2  Rx         0385  7  84 00 00 00 00 00 00 
  1379)       737.5  Rx         0253  8  00 5E FF 00 00 00 8D 02 
  1380)       738.3  Rx         0284  8  00 00 00 00 00 00 94 1A 
  1381)       738.5  Rx         0215  6  FF F0 FF 00 FF FF 
  1382)       738.8  Rx         0285  8  00 00 00 00 00 00 94 1B 
  1383)       738.9  Rx         0216  1  40 
  1384)       739.1  Rx         029E  8  D3 00 00 00 00 F2 00 65 
  1385)       739.3  Rx         02A0  5  AD 7F F8 7F FF 
  1386)       740.2  Rx         01F9  8  20 00 15 18 00 00 00 00 
  1387)       740.5  Rx         0231  8  D3 90 00 D3 D2 C2 4C 9E 
  1388)       740.7  Rx         0233  8  8B 7A 00 18 D8 00 00 00 
  1389)       741.0  Rx         023D  8  23 00 00 D8 00 25 00 8B 
  1390)       741.2  Rx         023E  8  02 60 FF 25 00 D6 00 91 
  1391)       741.4  Rx         0551  8  81 88 00 A0 00 02 80 FF 
  1392)       741.6  Rx         0794  3  01 C1 01 
  1393)       741.8  Rx         06F7  8  00 00 00 00 00 00 00 02 
  1394)       743.0  Rx         0002  5  1F 0E 00 07 9E 
  1395)       743.9  Rx         0251  8  10 00 00 04 00 6F 10 52 
  1396)       744.2  Rx         0253  8  01 5E FF 00 00 00 8E 02 
  1397)       746.5  Rx         0280  8  03 00 00 00 00 00 1B 40 
  1398)       746.8  Rx         02A5  7  00 00 00 20 00 00 00 
  1399)       747.0  Rx         02DE  8  0F 00 02 00 5E 92 07 F8 
  1400)       747.2  Rx         02D1  7  00 00 00 03 31 D1 01 
  1401)       750.6  Rx         01F9  8  20 00 15 18 00 00 00 00 
  1402)       750.9  Rx         0231  8  D3 A0 00 D3 D2 C2 4C 9E 
  1403)       751.1  Rx         0233  8  8B 7A 00 18 D8 00 00 00 
  1404)       751.3  Rx         023D  8  43 00 00 D8 00 27 00 8B 
  1405)       751.6  Rx         023E  8  02 60 FF 27 00 D6 00 92 
  1406)       751.8  Rx         0551  8  81 88 00 A0 00 02 80 FF 
  1407)       752.1  Rx         06F7  8  00 00 00 00 00 00 00 03 
  1408)       752.2  Rx         0794  3  01 C1 02 
  1409)       752.8  Rx         0002  5  1F 0E 00 07 8F 
  1410)       753.9  Rx         0251  8  10 00 00 04 00 AF 11 48 
  1411)       754.2  Rx         0253  8  02 5E FF 00 00 00 90 02 
  1412)       756.5  Rx         02DE  8  0F 00 03 00 5E BA 07 F8 
  1413)       756.8  Rx         02A5  7  00 00 00 20 00 00 00 
  1414)       757.0  Rx         02D1  7  00 00 00 00 31 D1 01 
  1415)       758.3  Rx         0284  8  00 00 00 00 00 00 95 1B 
  1416)       758.5  Rx         0215  6  FF F0 FF 00 FF FF 
  1417)       758.7  Rx         0285  8  00 00 00 00 00 00 95 1C 
  1418)       758.9  Rx         0216  1  40 
  1419)       759.1  Rx         029E  8  D3 00 00 00 00 F3 01 67 
  1420)       759.3  Rx         02A0  5  AD 7F FA 7F FF 
  1421)       759.6  Rx         0354  8  00 00 00 00 00 00 04 00 
  1422)       759.8  Rx         0625  6  32 00 FF 1D 00 00 
  1423)       760.8  Rx         01F9  8  20 00 15 18 00 00 00 00 
  1424)       761.0  Rx         0231  8  D3 B0 00 D3 D2 C2 4C 9E 
  1425)       761.3  Rx         0233  8  8B 7A 00 18 D8 00 00 00 
  1426)       761.5  Rx         023D  8  63 00 00 D8 00 27 00 8B 
  1427)       761.8  Rx         023E  8  02 60 FF 27 00 D6 00 93 
  1428)       762.0  Rx         0551  8  81 88 00 A0 00 02 80 FF 
  1429)       762.2  Rx         06F7  8  00 00 00 00 00 00 00 00 
  1430)       762.4  Rx         0794  3  01 C1 03 
  1431)       762.8  Rx         0002  5  1F 0E 00 07 70 
  1432)       764.8  Rx         0251  8  10 00 00 04 00 EF 12 30 
  1433)       765.0  Rx         0253  8  03 5E FF 00 00 00 8E 02 
  1434)       766.5  Rx         0280  8  03 00 00 00 00 00 1B 40 
  1435)       766.7  Rx         02A5  7  00 00 00 20 00 00 00 
  1436)       767.0  Rx         02DE  8  0F 00 00 00 5E E2 07 F8 
  1437)       767.2  Rx         02D1  7  00 00 00 01 31 D1 01 
  1438)       770.9  Rx         01F9  8  20 00 14 FF 00 00 00 00 
  1439)       771.1  Rx         0231  8  D3 80 00 D3 D2 C2 4C 9E 
  1440)       771.4  Rx         0233  8  8B 7A 00 18 D7 00 00 00 
  1441)       771.6  Rx         023D  8  03 00 00 D7 00 25 00 8B 
  1442)       771.9  Rx         023E  8  02 60 FF 25 00 D6 00 A0 
  1443)       772.1  Rx         0551  8  81 88 00 A0 00 02 80 FF 
  1444)       772.3  Rx         06F7  8  00 00 00 00 00 00 00 01 
  1445)       772.5  Rx         0794  3  01 C1 00 
  1446)       772.7  Rx         0002  5  1F 0E 00 07 61 
  1447)       775.8  Rx         0251  8  10 00 00 04 00 2F 13 35 
  1448)       776.0  Rx         0253  8  00 5E FF 00 00 00 90 02 
  1449)       776.6  Rx         02DE  8  0F 00 01 00 5E E2 07 F8 
  1450)       776.8  Rx         02A5  7  00 00 00 20 00 00 00 
  1451)       777.0  Rx         02D1  7  00 00 00 02 31 D1 01 
  1452)       777.2  Rx         0358  8  01 00 00 00 02 00 00 00 
  1453)       778.3  Rx         0284  8  00 00 00 00 00 00 96 1C 
  1454)       778.5  Rx         0215  6  FF F0 FF 00 FF FF 
  1455)       778.8  Rx         0285  8  00 00 00 00 00 00 96 1D 
  1456)       778.9  Rx         0216  1  40 
  1457)       779.1  Rx         029E  8  D3 00 00 00 00 F3 02 68 
  1458)       779.3  Rx         02A0  5  AF 7F F9 7F FF 
  1459)       781.4  Rx         01F9  8  20 00 14 FF 00 00 00 00 
  1460)       781.6  Rx         0231  8  D3 90 00 D3 D2 C2 4C 9E 
  1461)       781.8  Rx         0233  8  8B 79 00 18 D7 00 00 00 
  1462)       782.1  Rx         023D  8  23 00 00 D7 00 25 00 8B 
  1463)       782.3  Rx         023E  8  02 60 FF 25 00 D6 00 A1 
  1464)       782.5  Rx         0551  8  81 88 00 A0 00 02 80 FF 
  1465)       782.7  Rx         0002  5  1F 0E 00 07 52 
  1466)       783.0  Rx         06F7  8  00 00 00 00 00 00 00 02 
  1467)       783.1  Rx         0794  3  01 C1 01 
  1468)       785.5  Rx         0251  8  10 00 00 04 00 6F 14 31 
  1469)       785.8  Rx         0253  8  01 5E FF 00 00 00 91 02 
  1470)       786.6  Rx         0280  8  03 00 00 00 00 00 1C 40 
  1471)       786.8  Rx         02A5  7  00 00 00 20 00 00 00 
  1472)       787.1  Rx         02DE  8  0F 00 02 00 5F 32 07 F8 
  1473)       787.3  Rx         02D1  7  00 00 00 03 31 D2 01 
  1474)       791.4  Rx     00770000  8  00 00 00 00 00 00 00 00 
  1475)       791.7  Rx     00770001  8  00 00 00 00 00 11 11 05 
  1476)       792.0  Rx     00770006  8  00 00 00 00 00 00 00 00 
  1477)       792.2  Rx         01F9  8  20 00 14 FF 00 00 00 00 
  1478)       792.4  Rx         0231  8  D3 A0 00 D3 D2 C2 4C 9E 
  1479)       792.6  Rx         0002  5  1F 0E 00 07 43 
  1480)       792.9  Rx         0233  8  8B 7A 00 18 D7 00 00 00 
  1481)       793.1  Rx         023D  8  43 00 00 D7 00 22 00 8B 
  1482)       793.3  Rx         023E  8  02 60 FF 22 00 D6 00 A2 
  1483)       793.6  Rx         0551  8  81 88 00 A0 00 02 80 FF 
  1484)       793.8  Rx         06F7  8  00 00 00 00 00 00 00 03 
  1485)       794.0  Rx         0794  3  01 C1 02 
  1486)       795.4  Rx         0251  8  10 00 00 04 00 AF 15 37 
  1487)       795.6  Rx         0253  8  02 5E FF 00 00 00 90 02 
  1488)       796.6  Rx         02DE  8  0F 00 03 00 5F 5A 07 F8 
  1489)       796.8  Rx         02D1  7  00 00 00 00 31 D2 01 
  1490)       797.0  Rx         02A5  7  00 00 00 20 00 00 00 
  1491)       797.3  Rx         05C5  8  40 00 00 00 00 0C 00 00 
  1492)       798.3  Rx         0284  8  00 00 00 00 00 00 97 1D 
  1493)       798.5  Rx         0215  6  FF F0 FF 00 FF FF 
  1494)       798.8  Rx         0285  8  00 00 00 00 00 00 97 1E 
  1495)       798.9  Rx         0216  1  40 
  1496)       799.1  Rx         029E  8  D3 00 00 00 00 F3 03 69 
  1497)       799.3  Rx         02A0  5  AD 7F F8 7F FF 
  1498)       799.5  Rx         0354  8  00 00 00 00 00 00 04 00 
  1499)       801.8  Rx         01F9  8  20 00 14 FF 00 00 00 00 
  1500)       802.0  Rx         0231  8  D3 B0 00 D3 D2 C2 4C 9E 
  1501)       802.3  Rx         0233  8  8B 79 00 18 D7 00 00 00 
  1502)       802.5  Rx         023D  8  63 00 00 D7 00 22 00 8B 
  1503)       802.7  Rx         0002  5  1F 0E 00 07 34 
  1504)       802.9  Rx         023E  8  02 60 FF 22 00 D6 00 A3 
  1505)       803.1  Rx         0551  8  81 88 00 A0 00 02 80 FF 
  1506)       803.4  Rx         06F7  8  00 00 00 00 00 00 00 00 
  1507)       803.6  Rx         0794  3  01 C1 03 
  1508)       806.4  Rx         0251  8  10 00 00 04 00 EF 16 DE 
  1509)       806.6  Rx         0253  8  03 5E FF 00 00 00 91 02 
  1510)       806.8  Rx         0280  8  03 00 00 00 00 00 1C 40 
  1511)       807.1  Rx         02A5  7  00 00 00 20 00 00 00 
  1512)       807.3  Rx         02DE  8  0F 00 00 00 5F 82 07 F8 
  1513)       807.5  Rx         02D1  7  00 00 00 01 31 D2 01 
  1514)       812.0  Rx         06F7  8  00 00 00 00 00 00 00 01 
  1515)       812.2  Rx         01F9  8  20 00 14 FF 00 00 00 00 
  1516)       812.4  Rx         0002  5  1F 0E 00 07 25 
  1517)       812.6  Rx         0231  8  D3 80 00 D3 D2 C2 4C 9E 
  1518)       812.8  Rx         0233  8  8B 79 00 18 D7 00 00 00 
  1519)       813.1  Rx         023D  8  03 00 00 D7 00 22 00 8B 
  1520)       813.3  Rx         023E  8  02 60 FF 22 00 D6 00 A0 
  1521)       813.6  Rx         0251  8  10 00 00 04 00 2F 17 87 
  1522)       813.8  Rx         0253  8  00 5E FF 00 00 00 91 02 
  1523)       814.0  Rx         0551  8  81 88 00 A0 00 02 80 FF 
  1524)       814.2  Rx         0794  3  01 C1 00 
  1525)       816.7  Rx         02DE  8  0F 00 01 00 5F 82 07 F8 
  1526)       816.9  Rx         02A5  7  00 00 00 20 00 00 00 
  1527)       817.1  Rx         02D1  7  00 00 00 02 31 D2 01 
  1528)       818.3  Rx         0284  8  00 00 00 00 00 00 98 1E 
  1529)       818.5  Rx         0215  6  FF F0 FF 00 FF FF 
  1530)       818.8  Rx         0285  8  00 00 00 00 00 00 98 1F 
  1531)       818.9  Rx         0216  1  40 
  1532)       819.1  Rx         029E  8  D3 00 00 00 00 F2 00 65 
  1533)       819.3  Rx         02A0  5  AD 7F FA 7F FF 
  1534)       822.0  Rx         06F7  8  00 00 00 00 00 00 00 02 
  1535)       822.2  Rx         01F9  8  20 00 14 FF 00 00 00 00 
  1536)       822.4  Rx         0002  5  1F 0E 00 07 16 
  1537)       822.7  Rx         0231  8  D3 90 00 D3 D2 C2 4C 9E 
  1538)       822.9  Rx         0233  8  8B 7A 00 18 D7 00 00 00 
  1539)       823.2  Rx         023D  8  23 00 00 D7 00 22 00 8B 
  1540)       823.4  Rx         023E  8  02 60 FF 22 00 D6 00 A1 
  1541)       823.6  Rx         0251  8  10 00 00 04 00 6F 40 00 
  1542)       823.8  Rx         0253  8  01 5E FF 00 00 00 91 02 
  1543)       824.1  Rx         0551  8  81 88 00 A0 00 02 80 FF 
  1544)       824.3  Rx         0794  3  01 C1 01 
  1545)       826.6  Rx         035D  8  C0 03 00 00 00 00 00 00 
  1546)       826.8  Rx         0280  8  03 00 00 00 00 00 1C 40 
  1547)       827.1  Rx         02A5  7  00 00 00 20 00 00 00 
  1548)       827.3  Rx         02DE  8  0F 00 02 00 5F D2 07 F8 
  1549)       827.5  Rx         02D1  7  00 00 00 03 31 D2 01 
  1550)       827.7  Rx         060D  8  08 06 00 00 00 00 20 00 
  1551)       832.0  Rx         06F7  8  00 00 00 00 00 00 00 03 
  1552)       832.2  Rx         0002  5  1F 0E 00 07 07 
  1553)       832.4  Rx         01F9  8  20 00 14 FF 00 00 00 00 
  1554)       832.6  Rx         0231  8  D3 A0 00 D3 D2 C2 4C 9E 
  1555)       832.9  Rx         0233  8  8B 79 00 18 D7 00 00 00 
  1556)       833.1  Rx         023D  8  43 00 00 D7 00 22 00 8B 
  1557)       833.4  Rx         023E  8  02 60 FF 22 00 D6 00 92 
  1558)       833.6  Rx         0251  8  10 00 00 04 00 AF 41 00 
  1559)       833.8  Rx         0253  8  02 5E FF 00 00 00 93 02 
  1560)       834.1  Rx         0551  8  81 89 00 A0 00 02 80 FF 
  1561)       834.3  Rx         0580  8  00 7F 40 00 00 00 00 00 
  1562)       834.5  Rx         0794  3  01 C1 02 
  1563)       836.6  Rx         02DE  8  0F 00 03 00 5F FA 07 F8 
  1564)       836.8  Rx         02D1  7  00 00 00 00 31 D2 01 
  1565)       837.1  Rx         02A5  7  00 00 00 20 00 00 00 
  1566)       837.3  Rx         0385  7  84 00 00 00 00 00 00 
  1567)       838.3  Rx         0284  8  00 00 00 00 00 00 99 1F 
  1568)       838.5  Rx         0215  6  FF F0 FF 00 FF FF 
  1569)       838.7  Rx         0285  8  00 00 00 00 00 00 99 20 
