;$FILEVERSION=1.1
;$STARTTIME=45475.4790726042
;
;   Start time: 7/2/2024 11:29:51.873.0
;   Generated by PCAN-View v4.3.4.615
;
;   Message Number
;   |         Time Offset (ms)
;   |         |        Type
;   |         |        |        ID (hex)
;   |         |        |        |     Data Length
;   |         |        |        |     |   Data Bytes (hex) ...
;   |         |        |        |     |   |
;---+--   ----+----  --+--  ----+---  +  -+ -- -- -- -- -- -- --
     1)         1.2  Rx         0280  8  01 26 20 0F 27 00 11 28 
     2)         1.4  Rx         0288  8  8A AC 13 04 00 5E 8E 15 
     3)         1.6  Rx         0380  8  00 6A 00 3A 21 00 00 0E 
     4)         1.9  Rx         05C0  8  C7 68 80 A6 21 01 89 20 
     5)         2.2  Rx         0488  8  C1 28 27 80 FE FF FF B0 
     6)         2.4  Rx         0320  8  24 82 14 01 00 05 00 8F 
     7)         3.4  Rx         0050  4  00 F0 B8 48 
     8)         3.5  Rx         0550  3  C0 C0 00 
     9)         3.8  Rx         0440  8  00 80 00 FE 80 00 B0 00 
    10)         6.5  Rx         01A0  8  00 4B 00 00 00 FE 00 5E 
    11)         6.8  Rx         01AC  8  82 87 00 00 69 01 FC 91 
    12)         7.0  Rx         04A0  8  00 00 00 00 CC FF 00 00 
    13)         7.3  Rx         04A8  8  00 00 F2 10 00 00 70 92 
    14)         7.6  Rx         00C2  8  00 80 00 80 80 7A 00 85 
    15)         7.8  Rx         05A0  8  80 00 00 73 33 00 10 AB 
    16)         8.0  Rx         0540  8  60 00 FF 00 FE 00 00 2F 
    17)         9.4  Rx         038A  4  95 01 94 00 
    18)         9.9  Rx         00D0  6  94 90 0C 08 00 00 
    19)        10.1  Rx         03D0  6  01 82 00 10 9A 00 
    20)        10.4  Rx         0280  8  01 26 20 0F 27 00 11 28 
    21)        10.6  Rx         0288  8  E8 AC 13 04 00 5E 8E 15 
    22)        10.9  Rx         0380  8  00 6A 00 3A 21 00 00 0E 
    23)        11.1  Rx         03D2  7  04 00 00 20 00 06 67 
    24)        11.3  Rx         0488  8  B1 28 27 80 FE FF FF C0 
    25)        13.7  Rx         0440  8  00 80 00 FE 80 00 B8 00 
    26)        14.9  Rx         05E0  8  20 00 00 00 00 00 80 00 
    27)        15.2  Rx         0480  8  C2 20 F0 06 19 00 06 0B 
    28)        15.4  Rx         0284  6  0F 0F 00 00 00 00 
    29)        15.7  Rx         0588  8  1B 86 80 83 00 00 00 00 
    30)        16.2  Rx         056A  8  81 00 08 00 1A 00 02 91 
    31)        16.5  Rx         01A0  8  00 4B 00 00 00 FE 00 5F 
    32)        16.8  Rx         04A0  8  00 00 00 00 CC FF 00 00 
    33)        17.3  Rx         00C2  8  00 80 00 80 80 8A 00 75 
    34)        17.8  Rx         0540  8  70 00 FF 00 FE 00 00 2F 
    35)        19.1  Rx         00D0  6  A4 A0 0C 08 00 00 
    36)        20.2  Rx         0280  8  01 26 13 0F 27 00 11 28 
    37)        20.4  Rx         0288  8  E8 AC 13 04 00 5E 8E 15 
    38)        20.7  Rx         0380  8  00 6A 00 3A 21 00 00 0E 
    39)        21.2  Rx         05C0  8  C8 68 80 A6 21 01 89 2F 
    40)        21.4  Rx         0488  8  A1 28 27 80 FE FF FF D0 
    41)        22.2  Rx         0320  8  24 82 14 01 00 06 00 8F 
    42)        23.7  Rx         0440  8  00 80 00 FE 80 00 C0 00 
    43)        23.9  Rx         0050  4  00 F0 C8 38 
    44)        26.5  Rx         01A0  8  00 4B 00 00 00 FE 00 50 
    45)        26.8  Rx         01AC  8  8D 88 00 00 69 01 FC 91 
    46)        27.1  Rx         04A0  8  00 00 00 00 CC FF 00 00 
    47)        27.3  Rx         04A8  8  0C 80 F0 10 00 00 80 EC 
    48)        27.6  Rx         00C2  8  00 80 00 80 80 9A 00 65 
    49)        27.8  Rx         0540  8  80 00 FF 00 FE 00 00 26 
    50)        28.1  Rx         05A0  8  80 00 00 83 33 00 10 AB 
    51)        29.4  Rx         038A  4  A5 01 A4 00 
    52)        30.0  Rx         00D0  6  B4 B0 0C 08 00 00 
    53)        30.2  Rx         03D0  6  01 82 00 10 9B 00 
    54)        30.4  Rx         0280  8  01 26 13 0F 27 00 11 28 
    55)        30.7  Rx         0288  8  E8 AC 13 04 00 5E 8E 15 
    56)        30.9  Rx         0380  8  00 6A 00 3A 21 00 00 0E 
    57)        31.1  Rx         03D2  7  05 00 00 20 00 06 67 
    58)        31.3  Rx         0488  8  91 28 27 80 FE FF FF E0 
    59)        33.7  Rx         0440  8  00 80 00 FE 80 00 C8 00 
    60)        34.9  Rx         05E0  8  20 00 00 00 00 00 80 00 
    61)        35.3  Rx         0480  8  1C 20 FD 06 19 00 06 D8 
    62)        35.4  Rx         0284  6  00 00 00 00 00 00 
    63)        35.7  Rx         0588  8  1B 86 80 00 00 00 00 00 
    64)        36.2  Rx         056A  8  B1 00 08 00 1A 00 02 A1 
    65)        36.5  Rx         01A0  8  00 4B 00 00 00 FE 00 51 
    66)        36.8  Rx         04A0  8  00 00 00 00 CC FF 00 00 
    67)        37.4  Rx         00C2  8  00 80 00 80 80 AA 00 55 
    68)        37.7  Rx         0540  8  90 00 FF 00 FE 00 00 26 
    69)        39.9  Rx         0570  5  47 20 B5 5B 80 
    70)        40.1  Rx         00D0  6  C4 C0 0C 08 00 00 
    71)        40.3  Rx         0520  8  02 02 00 79 0F 62 33 03 
    72)        41.2  Rx         05C0  8  C9 68 80 A6 21 01 89 2E 
    73)        41.4  Rx         0280  8  01 26 13 0F 27 00 11 28 
    74)        41.6  Rx         0288  8  E8 AC 13 04 00 5E 8E 15 
    75)        41.9  Rx         0380  8  00 6A 00 3A 21 00 00 0E 
    76)        42.3  Rx         0488  8  81 28 27 80 FE FF FF F0 
    77)        42.5  Rx         0320  8  24 82 14 01 00 07 00 8F 
    78)        43.8  Rx         0440  8  00 80 00 FE 80 00 D0 00 
    79)        44.3  Rx         0050  4  00 F0 D8 28 
    80)        44.9  Rx         0390  8  6A 40 50 00 00 00 20 00 
    81)        46.7  Rx         01A0  8  00 4B 00 00 00 FE 00 52 
    82)        46.9  Rx         01AC  8  8A 89 00 00 69 01 FA 91 
    83)        47.2  Rx         04A0  8  00 00 00 00 CC FF 00 00 
    84)        47.4  Rx         00C2  8  00 80 00 80 80 BA 00 45 
    85)        47.7  Rx         04A8  8  0C 80 F2 10 00 00 90 FE 
    86)        47.9  Rx         0540  8  A0 00 FF 00 FE 00 00 26 
    87)        48.2  Rx         05A0  8  80 00 00 93 33 00 10 AB 
    88)        49.9  Rx         05D0  8  C0 04 51 AF 29 48 01 00 
    89)        50.1  Rx         00D0  6  D4 D0 0C 08 00 00 
    90)        50.4  Rx         0280  8  01 26 02 0F 27 00 11 28 
    91)        50.6  Rx         0288  8  2C AC 13 04 00 5E 8E 15 
    92)        50.8  Rx         0380  8  00 6A 00 3A 21 00 00 0E 
    93)        51.0  Rx         038A  4  B5 01 B4 00 
    94)        51.2  Rx         03D0  6  01 82 00 10 9B 00 
    95)        51.4  Rx         03D2  7  06 00 00 20 00 06 67 
    96)        51.6  Rx         0488  8  D8 28 27 80 FE FF 56 00 
    97)        53.8  Rx         0440  8  00 80 00 FE 80 00 D8 00 
    98)        54.3  Rx         0480  8  1C 20 0A 07 19 00 06 2E 
    99)        54.5  Rx         0284  6  01 01 00 00 00 00 
   100)        54.7  Rx         0588  8  1B 86 80 84 00 00 00 00 
   101)        55.0  Rx         05E0  8  20 00 00 00 00 00 80 00 
   102)        55.3  Rx         056A  8  A1 00 08 00 1A 00 02 B1 
   103)        56.5  Rx         01A0  8  00 4B 00 00 00 FE 00 53 
   104)        56.7  Rx         04A0  8  00 00 00 00 CC FF 00 00 
   105)        57.4  Rx         00C2  8  00 80 00 80 80 CA 00 35 
   106)        57.7  Rx         0540  8  B0 00 FF 00 FE 00 00 26 
   107)        59.1  Rx         00D0  6  E4 E0 0C 08 00 00 
   108)        59.9  Rx         05DC  8  77 18 C0 3F 1E 00 30 42 
   109)        60.3  Rx         0280  8  01 26 02 0F 27 00 10 28 
   110)        60.5  Rx         0288  8  2C AC 13 04 00 5E 8E 15 
   111)        60.8  Rx         0380  8  00 6A 00 3A 21 00 00 0E 
   112)        61.2  Rx         05C0  8  CA 68 80 A6 21 01 89 2D 
   113)        61.4  Rx         0488  8  B8 28 27 80 FE FF 26 10 
   114)        62.4  Rx         0320  8  24 82 14 01 00 08 00 8F 
   115)        63.7  Rx         0440  8  00 80 00 FE 80 00 E0 00 
   116)        64.2  Rx         0760  5  16 00 02 21 0C 
   117)        64.9  Rx         0050  4  00 F0 E8 18 
   118)        65.5  Rx         0300  1  B7 
   119)        66.5  Rx         01A0  8  00 4B 00 00 00 FE 00 54 
   120)        66.8  Rx         05C6  8  05 94 19 10 00 00 00 13 
   121)        67.0  Rx         01AC  8  8A 8A 00 00 69 01 F9 91 
   122)        67.2  Rx         04A0  8  00 00 00 00 CC FF 00 00 
   123)        67.5  Rx         00C2  8  00 80 00 80 80 DA 00 25 
   124)        67.7  Rx         04A8  8  0C 80 F0 10 00 00 A0 CC 
   125)        68.0  Rx         0540  8  C0 00 FF 00 FE 00 00 2F 
   126)        68.2  Rx         05A0  8  80 00 00 A3 33 00 10 AB 
   127)        69.5  Rx         038A  4  C5 01 C4 00 
   128)        69.9  Rx         00D0  6  F4 F0 0C 08 00 00 
   129)        70.2  Rx         03D0  6  01 82 00 10 9C 00 
   130)        70.4  Rx         0280  8  01 26 02 0F 27 00 10 28 
   131)        70.7  Rx         0288  8  2C AC 13 04 00 5E 8E 15 
   132)        70.9  Rx         0380  8  00 6A 00 3A 21 00 00 0E 
   133)        71.1  Rx         03D2  7  07 00 00 20 00 06 67 
   134)        71.3  Rx         0488  8  D7 28 27 80 FE FF 79 20 
   135)        71.6  Rx         05D2  8  02 50 31 30 31 33 39 37 
   136)        71.8  Rx         0300  8  22 00 0E 61 0C 11 50 20 
   137)        73.8  Rx         0440  8  00 80 00 FE 80 00 E8 00 
   138)        74.3  Rx         0480  8  1C 20 18 07 19 00 06 3C 
   139)        74.5  Rx         0284  6  02 02 00 00 00 00 
   140)        74.8  Rx         0588  8  1B 88 80 00 00 00 00 00 
   141)        75.0  Rx         05E0  8  20 00 00 00 00 00 80 00 
   142)        75.3  Rx         056A  8  D1 00 08 00 1A 00 02 C1 
   143)        76.5  Rx         01A0  8  00 4B 00 00 00 FE 00 55 
   144)        76.8  Rx         04A0  8  00 00 00 00 CC FF 00 00 
   145)        77.5  Rx         00C2  8  00 80 00 80 80 EA 00 15 
   146)        77.7  Rx         0300  8  23 25 00 00 11 30 20 21 
   147)        78.0  Rx         0540  8  D0 00 FF 00 FE 00 00 2F 
   148)        78.1  Rx         0572  1  07 
   149)        79.9  Rx         00D0  6  04 00 0C 08 00 00 
   150)        80.4  Rx         0280  8  01 26 F9 0E 27 00 10 28 
   151)        80.6  Rx         0288  8  2C AC 13 04 00 5E 8E 15 
   152)        80.8  Rx         0380  8  00 6A 00 3B 21 00 00 0E 
   153)        81.1  Rx         05C0  8  CB 68 80 A6 21 01 89 2C 
   154)        81.4  Rx         0488  8  B5 28 27 80 FE FF 0B 30 
   155)        82.7  Rx         0320  8  24 82 14 01 00 09 00 8F 
   156)        83.6  Rx         0300  3  14 FE FE 
   157)        83.8  Rx         0440  8  00 80 00 FE 80 00 F0 00 
   158)        85.4  Rx         0760  1  B5 
   159)        85.5  Rx         0050  4  00 F0 F8 08 
   160)        86.4  Rx         01A0  8  00 4B 00 00 00 FE 00 56 
   161)        86.7  Rx         01AC  8  88 8B 00 00 69 01 FA 91 
   162)        86.9  Rx         04A0  8  00 00 00 00 CC FF 00 00 
   163)        87.2  Rx         04A8  8  00 00 F2 10 00 00 B0 52 
   164)        87.4  Rx         05A0  8  80 00 00 B3 33 00 10 AB 
   165)        87.7  Rx         00C2  8  00 80 00 80 80 FA 00 05 
   166)        88.0  Rx         0540  8  E0 00 FF 00 FE 00 00 2F 
   167)        89.4  Rx         038A  4  D5 01 D4 00 
   168)        89.9  Rx         00D0  6  14 10 0C 08 00 00 
   169)        90.1  Rx         03D0  6  01 82 00 10 9C 00 
   170)        90.4  Rx         0280  8  01 26 F9 0E 27 00 10 28 
   171)        90.6  Rx         0288  8  64 AC 13 04 00 5E 8E 15 
   172)        90.8  Rx         0380  8  00 6A 00 3B 21 00 00 0E 
   173)        91.0  Rx         03D2  7  08 00 00 20 00 06 67 
   174)        91.3  Rx         0488  8  E8 28 27 80 FE FF 26 40 
   175)        93.8  Rx         0440  8  00 80 00 FE 80 00 F8 00 
   176)        94.9  Rx         05E0  8  20 00 00 00 00 00 80 00 
   177)        95.4  Rx         0480  8  1C 20 25 07 19 00 06 01 
   178)        95.6  Rx         0284  6  03 03 00 00 00 00 
   179)        95.8  Rx         0588  8  1B 88 80 82 00 00 00 00 
   180)        96.4  Rx         056A  8  C1 00 08 00 1A 00 02 D1 
   181)        96.6  Rx         01A0  8  00 4B 00 00 00 FE 00 57 
   182)        96.9  Rx         04A0  8  00 00 00 00 CC FF 00 00 
   183)        97.6  Rx         00C2  8  00 80 00 80 80 0A 00 F5 
   184)        97.8  Rx         0540  8  F0 00 FF 00 FE 00 00 2F 
   185)        99.1  Rx         00D0  6  24 20 0C 08 00 00 
   186)       100.4  Rx         0280  8  01 27 F9 0E 27 00 10 28 
   187)       100.6  Rx         0288  8  64 AC 13 04 00 5E 8E 15 
   188)       100.9  Rx         0380  8  00 6A 00 3B 21 00 00 0E 
   189)       101.1  Rx         05C0  8  CC 68 80 A6 21 01 89 2B 
   190)       101.4  Rx         0488  8  21 28 27 80 FE FF FF 50 
   191)       102.2  Rx         0320  8  24 82 14 01 00 0A 00 8F 
   192)       103.7  Rx         0440  8  00 80 00 FE 80 00 80 00 
   193)       105.7  Rx         0050  4  00 F0 08 F8 
   194)       106.5  Rx         01A0  8  00 4B 00 00 00 FE 00 58 
   195)       106.7  Rx         01AC  8  8E 8C 00 00 69 01 FB 91 
   196)       107.0  Rx         04A0  8  00 00 00 00 CC FF 00 00 
   197)       107.2  Rx         04A8  8  1F 80 F2 10 00 00 C0 BD 
   198)       107.5  Rx         05A0  8  80 00 00 C3 33 00 10 AB 
   199)       107.7  Rx         00C2  8  00 80 00 80 80 1A 00 E5 
   200)       108.0  Rx         0540  8  00 00 FF 00 FE 00 00 26 
   201)       109.5  Rx         038A  4  E5 01 E4 00 
   202)       109.9  Rx         00D0  6  34 30 0C 08 00 00 
   203)       110.2  Rx         03D0  6  01 82 00 10 9C 00 
   204)       110.4  Rx         03D2  7  09 00 00 20 00 07 67 
   205)       111.4  Rx         0280  8  01 24 EC 0E 27 00 10 28 
   206)       111.6  Rx         0288  8  64 AC 13 04 00 5E 8E 14 
   207)       111.9  Rx         0380  8  00 6A 00 3B 21 00 00 0E 
   208)       112.4  Rx         0488  8  11 28 27 80 FE FF FF 60 
   209)       113.8  Rx         0440  8  00 80 00 FE 80 00 88 00 
   210)       114.9  Rx         05E0  8  20 00 00 00 00 00 80 00 
   211)       115.4  Rx         0480  8  54 20 33 07 19 00 06 5F 
   212)       115.6  Rx         0284  6  04 04 00 00 00 00 
   213)       115.9  Rx         0588  8  1B 88 80 83 00 00 00 00 
   214)       116.4  Rx         056A  8  F1 00 08 00 1A 00 02 E1 
   215)       116.7  Rx         01A0  8  00 4B 00 00 00 FE 00 59 
   216)       116.9  Rx         04A0  8  00 00 00 00 CC FF 00 00 
   217)       117.6  Rx         00C2  8  00 80 00 80 80 2A 00 D5 
   218)       117.9  Rx         0540  8  10 00 FF 00 FE 00 00 26 
   219)       119.9  Rx         00D0  6  44 40 0C 08 00 00 
   220)       121.1  Rx         05C0  8  CD 68 80 A6 21 01 89 2A 
   221)       121.4  Rx         0280  8  01 24 EC 0E 27 00 10 28 
   222)       121.6  Rx         0288  8  64 AC 13 04 00 5E 8E 14 
   223)       121.9  Rx         0380  8  00 6A 00 3B 21 00 00 0E 
   224)       122.4  Rx         0488  8  01 28 27 80 FE FF FF 70 
   225)       122.7  Rx         0320  8  24 82 14 01 00 0B 00 8F 
   226)       123.8  Rx         0440  8  00 80 00 FE 80 00 90 00 
   227)       126.2  Rx         0050  4  00 F0 18 E8 
   228)       126.5  Rx         01A0  8  00 4B 00 00 00 FE 00 5A 
   229)       126.7  Rx         01AC  8  88 8D 00 00 69 01 FC 91 
   230)       127.0  Rx         04A0  8  00 00 00 00 CC FF 00 00 
   231)       127.3  Rx         04A8  8  0C 80 F0 10 00 00 D0 BC 
   232)       127.5  Rx         05A0  8  80 00 00 D3 33 00 10 AB 
   233)       127.7  Rx         00C2  8  00 80 00 80 80 3A 00 C5 
   234)       128.0  Rx         0540  8  20 00 FF 00 FE 00 00 26 
   235)       129.0  Rx         0760  1  A3 
   236)       129.5  Rx         038A  4  F5 01 F4 00 
   237)       129.7  Rx         0300  6  A1 0F 8A FF 4A FF 
   238)       129.9  Rx         00D0  6  54 50 0C 08 00 00 
   239)       130.1  Rx         03D0  6  01 82 00 10 9D 00 
   240)       130.4  Rx         03D2  7  0A 00 00 20 00 07 67 
   241)       131.4  Rx         0280  8  01 27 EC 0E 27 00 10 28 
   242)       131.7  Rx         0288  8  8A AC 13 04 00 5E 8E 14 
   243)       131.9  Rx         0380  8  00 6A 00 3B 21 00 00 0E 
   244)       132.5  Rx         0488  8  F1 28 27 80 FE FF FF 80 
   245)       133.8  Rx         0440  8  00 80 00 FE 80 00 98 00 
   246)       134.9  Rx         05E0  8  20 00 00 00 00 00 80 00 
   247)       135.5  Rx         0480  8  54 20 41 07 19 00 06 2D 
   248)       135.7  Rx         0284  6  05 05 00 00 00 00 
   249)       135.9  Rx         0588  8  1B 88 80 00 00 00 00 00 
   250)       136.4  Rx         01A0  8  00 4B 00 00 00 FE 00 5B 
   251)       136.7  Rx         056A  8  E1 00 08 00 1A 00 02 F1 
   252)       136.9  Rx         04A0  8  00 00 00 00 CC FF 00 00 
   253)       137.7  Rx         00C2  8  00 80 00 80 80 4A 00 B5 
   254)       137.9  Rx         0540  8  30 00 FF 00 FE 00 00 26 
   255)       139.1  Rx         00D0  6  64 60 0C 08 00 00 
   256)       139.8  Rx         0570  5  47 20 B5 5B 80 
   257)       140.1  Rx         0420  8  9A 98 A4 00 00 00 FF 00 
   258)       141.1  Rx         05C0  8  CE 68 80 A6 21 01 88 28 
   259)       141.5  Rx         0280  8  01 27 DB 0E 27 00 10 28 
   260)       141.7  Rx         0288  8  8A AC 13 04 00 5E 8E 14 
   261)       141.9  Rx         0380  8  00 6A 00 3C 21 00 00 0E 
   262)       142.5  Rx         0488  8  E1 28 27 80 FE FF FF 90 
   263)       142.7  Rx         0320  8  24 82 14 01 00 0C 00 8F 
   264)       143.8  Rx         0440  8  00 80 00 FE 80 00 A0 00 
   265)       144.9  Rx         0390  8  6A 40 50 00 00 00 20 00 
   266)       146.6  Rx         01A0  8  00 4B 00 00 00 FE 00 5C 
   267)       146.7  Rx         0050  4  00 F0 28 D8 
   268)       147.0  Rx         01AC  8  8C 8E 00 00 69 01 FB 91 
   269)       147.2  Rx         04A0  8  00 00 00 00 CC FF 00 00 
   270)       147.5  Rx         04A8  8  0C 80 F2 10 00 00 E0 8E 
   271)       147.7  Rx         00C2  8  00 80 00 80 80 5A 00 A5 
   272)       148.0  Rx         0540  8  40 00 FF 00 FE 00 00 2F 
   273)       148.2  Rx         05A0  8  80 00 00 E3 33 00 10 AB 
   274)       149.5  Rx         038A  4  05 01 04 00 
   275)       149.9  Rx         05D0  8  C0 04 51 AF 29 48 01 00 
   276)       150.1  Rx         00D0  6  74 70 0C 08 00 00 
   277)       150.3  Rx         03D0  6  01 82 00 10 9D 00 
   278)       150.5  Rx         0280  8  01 25 DB 0E 27 00 10 28 
   279)       150.8  Rx         0288  8  8A AC 13 04 00 5E 8E 13 
   280)       151.0  Rx         0380  8  00 6A 00 3C 21 00 00 0E 
   281)       151.2  Rx         03D2  7  0B 00 00 20 00 06 67 
   282)       151.5  Rx         0488  8  D1 28 27 80 FE FF FF A0 
   283)       153.7  Rx         0440  8  00 80 00 FE 80 00 A8 00 
   284)       154.5  Rx         0480  8  54 20 4E 07 19 00 06 22 
   285)       154.7  Rx         0284  6  06 06 00 00 00 00 
   286)       155.0  Rx         0588  8  1B 88 80 84 00 00 00 00 
   287)       155.2  Rx         05E0  8  20 00 00 00 00 00 80 00 
   288)       155.5  Rx         056A  8  11 00 08 00 1A 00 02 01 
   289)       156.5  Rx         01A0  8  00 4B 00 00 00 FE 00 5D 
   290)       156.7  Rx         04A0  8  00 00 00 00 CC FF 00 00 
   291)       157.7  Rx         00C2  8  00 80 00 80 80 6A 00 95 
   292)       157.9  Rx         0540  8  50 00 FF 00 FE 00 00 2F 
   293)       159.9  Rx         05DC  8  77 18 C0 3F 1E 00 30 42 
   294)       160.1  Rx         00D0  6  84 80 0C 08 00 00 
   295)       161.1  Rx         05C0  8  CF 68 80 A6 21 01 88 29 
   296)       161.5  Rx         0280  8  01 25 DB 0E 27 00 10 28 
   297)       161.7  Rx         0288  8  8A AC 13 04 00 5E 8E 14 
   298)       162.0  Rx         0380  8  00 6A 00 3C 21 00 00 0E 
   299)       162.5  Rx         0488  8  C1 28 27 80 FE FF FF B0 
   300)       162.7  Rx         0320  8  24 80 14 01 00 0D 00 8F 
   301)       163.8  Rx         0440  8  00 80 00 FE 80 00 B0 00 
   302)       166.4  Rx         01A0  8  00 4B 00 00 00 FE 00 5E 
   303)       166.6  Rx         01AC  8  8F 8F 00 00 69 01 F9 91 
   304)       166.9  Rx         05C6  8  05 94 19 10 00 00 00 13 
   305)       167.2  Rx         04A0  8  00 00 00 00 CC FF 00 00 
   306)       167.3  Rx         0050  4  00 F0 38 C8 
   307)       167.5  Rx         04A8  8  06 80 F2 10 00 00 F0 94 
   308)       167.8  Rx         00C2  8  00 80 00 80 80 7A 00 85 
   309)       168.0  Rx         0540  8  60 00 FF 00 FE 00 00 2F 
   310)       168.3  Rx         05A0  8  80 00 00 F3 33 00 10 AB 
   311)       169.6  Rx         038A  4  15 01 14 00 
   312)       169.9  Rx         00D0  6  94 90 0C 08 00 00 
   313)       170.1  Rx         03D0  6  01 82 00 10 9E 00 
   314)       170.3  Rx         03D2  7  0C 00 00 20 00 06 67 
   315)       171.5  Rx         0280  8  01 27 E5 0E 27 00 10 28 
   316)       171.8  Rx         0288  8  E8 AC 13 04 00 5E 8E 14 
   317)       172.0  Rx         0380  8  00 6A 00 3C 21 00 00 0E 
   318)       172.6  Rx         0488  8  B1 28 27 80 FE FF FF C0 
   319)       173.8  Rx         0440  8  00 80 00 FE 80 00 B8 00 
   320)       174.9  Rx         05E0  8  20 00 00 00 00 00 80 00 
   321)       175.5  Rx         0480  8  54 20 5C 07 19 00 06 30 
   322)       175.8  Rx         0284  6  07 07 00 00 00 00 
   323)       176.0  Rx         0588  8  1B 88 80 02 00 00 00 00 
   324)       176.4  Rx         01A0  8  00 4B 00 00 00 FE 00 5F 
   325)       176.6  Rx         056A  8  01 00 08 00 1A 00 02 11 
   326)       176.9  Rx         04A0  8  00 00 00 00 CC FF 00 00 
   327)       177.7  Rx         00C2  8  00 80 00 80 80 8A 00 75 
   328)       178.0  Rx         0540  8  70 00 FF 00 FE 00 00 2F 
   329)       178.2  Rx         0572  1  07 
   330)       179.1  Rx         00D0  6  A4 A0 0C 08 00 00 
   331)       180.5  Rx         0280  8  01 25 E5 0E 27 00 10 28 
   332)       180.8  Rx         0288  8  E8 AC 13 04 00 5E 8E 13 
   333)       181.1  Rx         0380  8  00 6A 00 3D 21 00 00 0E 
   334)       181.3  Rx         05C0  8  C0 68 80 A6 21 01 88 26 
   335)       181.6  Rx         0488  8  A1 28 27 80 FE FF FF D0 
   336)       182.4  Rx         0320  8  24 80 14 01 00 0E 00 87 
   337)       183.7  Rx         0440  8  00 80 00 FE 80 00 C0 00 
   338)       186.4  Rx         01A0  8  00 4B 00 00 00 FE 00 50 
   339)       186.7  Rx         01AC  8  80 80 00 00 69 01 F9 91 
   340)       186.9  Rx         04A0  8  00 00 00 00 CC FF 00 00 
   341)       187.2  Rx         04A8  8  12 80 F2 10 00 00 00 70 
   342)       187.5  Rx         05A0  8  80 00 00 03 33 00 10 AB 
   343)       187.8  Rx         00C2  8  00 80 00 80 80 9A 00 65 
   344)       187.9  Rx         0050  4  00 F0 48 B8 
   345)       188.2  Rx         0540  8  80 00 FF 00 FE 00 00 26 
   346)       189.7  Rx         038A  4  25 01 24 00 
   347)       190.0  Rx         00D0  6  B4 B0 0C 08 00 00 
   348)       190.2  Rx         03D0  6  01 82 00 10 9E 00 
   349)       190.4  Rx         03D2  7  0D 00 00 20 00 07 67 
   350)       191.6  Rx         0280  8  01 25 E5 0E 27 00 10 28 
   351)       191.8  Rx         0288  8  E8 AC 13 04 00 5E 8E 13 
   352)       192.1  Rx         0380  8  00 6A 00 3D 21 00 00 0E 
   353)       192.6  Rx         0488  8  91 28 27 80 FE FF FF E0 
   354)       193.8  Rx         0440  8  00 80 00 FE 80 00 C8 00 
   355)       194.9  Rx         05E0  8  20 00 00 00 00 00 80 00 
   356)       195.6  Rx         0480  8  84 20 6C 07 19 00 06 D0 
   357)       195.8  Rx         0284  6  08 08 00 00 00 00 
   358)       196.1  Rx         0588  8  1B 89 80 00 00 00 00 00 
   359)       196.4  Rx         01A0  8  00 4B 00 00 00 FE 00 51 
   360)       196.7  Rx         056A  8  31 00 08 00 1A 00 02 21 
   361)       196.9  Rx         04A0  8  00 00 00 00 CC FF 00 00 
   362)       197.8  Rx         0540  8  90 00 FF 00 FE 00 00 26 
   363)       198.0  Rx         00C2  8  00 80 00 80 80 AA 00 55 
   364)       199.9  Rx         00D0  6  C4 C0 0C 08 00 00 
   365)       201.1  Rx         05C0  8  C1 68 80 A6 21 01 88 27 
   366)       201.6  Rx         0280  8  01 27 E5 0E 27 00 10 28 
   367)       201.8  Rx         0288  8  E8 AC 13 04 00 5E 8E 13 
   368)       202.1  Rx         0380  8  00 6A 00 3C 21 00 00 0E 
   369)       202.4  Rx         0320  8  24 80 14 01 00 0F 00 87 
   370)       202.6  Rx         0488  8  81 28 27 80 FE FF FF F0 
   371)       203.8  Rx         0440  8  00 80 00 FE 80 00 D0 00 
   372)       206.4  Rx         01A0  8  00 4B 00 00 00 FE 00 52 
   373)       206.7  Rx         01AC  8  84 81 00 00 69 01 FC 91 
   374)       206.9  Rx         04A0  8  00 00 00 00 CC FF 00 00 
   375)       207.2  Rx         04A8  8  0C 80 F2 10 00 00 10 7E 
   376)       207.5  Rx         05A0  8  80 00 00 13 33 00 10 AB 
   377)       207.8  Rx         00C2  8  00 80 00 80 80 BA 00 45 
   378)       208.1  Rx         0540  8  A0 00 FF 00 FE 00 00 26 
   379)       208.2  Rx         0050  4  00 F0 58 A8 
   380)       208.5  Rx         0550  3  C0 C0 00 
   381)       209.6  Rx         038A  4  35 01 34 00 
   382)       209.9  Rx         00D0  6  D4 D0 0C 08 00 00 
   383)       210.1  Rx         03D0  6  01 82 00 10 9E 00 
   384)       210.3  Rx         03D2  7  0E 00 00 20 00 06 67 
   385)       210.6  Rx         0280  8  01 25 00 0F 27 00 10 28 
   386)       210.9  Rx         0288  8  2C AC 13 04 00 5E 8E 12 
   387)       211.1  Rx         0380  8  00 6A 00 3C 21 00 00 0E 
   388)       211.6  Rx         0488  8  C5 28 27 80 FE FF 4B 00 
   389)       213.7  Rx         0440  8  00 80 00 FE 80 00 D8 00 
   390)       214.7  Rx         0480  8  84 20 7D 07 19 00 06 C1 
   391)       214.9  Rx         0284  6  09 09 00 00 00 00 
   392)       215.1  Rx         0588  8  1B 89 80 06 00 00 00 00 
   393)       215.3  Rx         05E0  8  20 00 00 00 00 00 80 00 
   394)       215.6  Rx         056A  8  21 00 08 00 1A 00 02 31 
   395)       216.4  Rx         01A0  8  00 4B 00 00 00 FE 00 53 
   396)       216.7  Rx         04A0  8  00 00 00 00 CC FF 00 00 
   397)       217.7  Rx         0540  8  B0 00 FF 00 FE 00 00 26 
   398)       218.0  Rx         00C2  8  00 80 00 80 80 CA 00 35 
   399)       219.1  Rx         00D0  6  E4 E0 0C 08 00 00 
   400)       221.1  Rx         05C0  8  C2 68 80 A6 21 01 88 24 
   401)       221.7  Rx         0280  8  01 25 00 0F 27 00 10 28 
   402)       221.9  Rx         0288  8  2C AC 13 04 00 5D 8E 12 
   403)       222.1  Rx         0380  8  00 6A 00 3C 21 00 00 0E 
   404)       222.4  Rx         0320  8  20 80 14 01 00 00 00 87 
   405)       222.7  Rx         0488  8  B8 28 27 80 FE FF 26 10 
   406)       223.8  Rx         0440  8  00 80 00 FE 80 00 E0 00 
   407)       226.4  Rx         01A0  8  00 4B 00 00 00 FE 00 54 
   408)       226.6  Rx         01AC  8  80 82 00 00 69 01 FB 91 
   409)       226.9  Rx         04A0  8  00 00 00 00 CC FF 00 00 
   410)       227.1  Rx         04A8  8  00 00 ED 10 00 00 20 DD 
   411)       227.4  Rx         05A0  8  80 00 00 23 33 00 10 AB 
   412)       227.8  Rx         0540  8  C0 00 FF 00 FE 00 00 2F 
   413)       228.0  Rx         00C2  8  00 80 00 80 80 DA 00 25 
   414)       228.6  Rx         0050  4  00 F0 68 98 
   415)       229.6  Rx         038A  4  45 01 44 00 
   416)       230.0  Rx         00D0  6  F4 F0 0C 08 00 00 
   417)       230.1  Rx         03D0  6  01 82 00 10 9F 00 
   418)       230.4  Rx         03D2  7  0F 00 00 20 00 06 67 
   419)       230.7  Rx         0280  8  01 26 00 0F 27 00 10 28 
   420)       230.9  Rx         0288  8  2C AC 13 04 00 5D 8E 12 
   421)       231.1  Rx         0380  8  00 6A 00 3C 21 00 00 0E 
   422)       231.7  Rx         0488  8  D7 28 27 80 FE FF 79 20 
   423)       233.7  Rx         0440  8  00 80 00 FE 80 00 E8 00 
   424)       234.9  Rx         05E0  8  20 00 00 00 00 00 80 00 
   425)       235.7  Rx         0480  8  84 20 8D 07 19 00 06 31 
   426)       235.9  Rx         0284  6  0A 0A 00 00 00 00 
   427)       236.1  Rx         0588  8  1B 89 80 0E 00 00 00 00 
   428)       236.4  Rx         01A0  8  00 4B 00 00 00 FE 00 55 
   429)       236.7  Rx         04A0  8  00 00 00 00 CC FF 00 00 
   430)       236.9  Rx         056A  8  51 00 08 00 1A 00 02 41 
   431)       237.8  Rx         0540  8  D0 00 FF 00 FE 00 00 2F 
   432)       238.0  Rx         00C2  8  00 80 00 80 80 EA 00 15 
   433)       239.8  Rx         0570  5  47 20 B6 59 80 
   434)       240.0  Rx         00D0  6  04 00 0C 08 00 00 
   435)       240.3  Rx         0520  8  60 44 00 79 0F 62 33 03 
   436)       240.7  Rx         0280  8  01 24 3A 0F 27 00 10 27 
   437)       240.9  Rx         0288  8  2C AC 13 04 00 5D 8E 12 
   438)       241.2  Rx         0380  8  00 6A 00 36 21 00 00 0E 
   439)       241.4  Rx         05C0  8  C3 68 80 A6 21 01 88 25 
   440)       241.7  Rx         0488  8  BB 27 27 80 FE FF 0A 30 
   441)       242.5  Rx         0320  8  20 80 14 01 00 01 00 87 
   442)       243.7  Rx         0440  8  00 80 00 FE 80 00 F0 00 
   443)       244.9  Rx         0390  8  6A 40 50 00 00 00 20 00 
   444)       246.5  Rx         01A0  8  00 4B 00 00 00 FE 00 56 
   445)       246.8  Rx         01AC  8  81 83 00 00 69 01 FB 91 
   446)       247.0  Rx         04A0  8  00 00 00 00 CC FF 00 00 
   447)       247.3  Rx         04A8  8  0C 80 F2 10 00 00 30 5E 
   448)       247.5  Rx         05A0  8  80 00 00 33 33 00 10 AB 
   449)       247.8  Rx         0540  8  E0 00 FF 00 FE 00 00 2F 
   450)       248.1  Rx         00C2  8  00 80 00 80 80 FA 00 05 
   451)       249.1  Rx         0050  4  00 F0 78 88 
   452)       249.6  Rx         038A  4  55 01 54 00 
   453)       249.9  Rx         05D0  8  C0 04 51 AF 29 48 01 00 
   454)       250.0  Rx         00D0  6  14 10 0C 08 00 00 
   455)       250.3  Rx         03D0  6  01 82 00 10 9F 00 
   456)       250.5  Rx         03D2  7  00 00 00 20 00 07 67 
   457)       251.7  Rx         0280  8  01 24 3A 0F 27 00 10 27 
   458)       252.0  Rx         0288  8  64 AC 13 04 00 5D 8E 12 
   459)       252.2  Rx         0380  8  00 6A 00 36 21 00 00 0E 
   460)       252.7  Rx         0488  8  E7 27 27 80 FE FF 26 40 
   461)       253.8  Rx         0440  8  00 80 00 FE 80 00 F8 00 
   462)       254.9  Rx         05E0  8  20 00 00 00 00 00 80 00 
   463)       255.7  Rx         0480  8  84 20 9E 07 19 00 06 22 
   464)       255.9  Rx         0284  6  0B 0B 00 00 00 00 
   465)       256.2  Rx         0588  8  1B 89 80 00 00 00 00 00 
   466)       256.4  Rx         01A0  8  00 4B 00 00 00 FE 00 57 
   467)       256.7  Rx         04A0  8  00 00 00 00 CC FF 00 00 
   468)       256.9  Rx         056A  8  41 00 08 00 1A 00 02 51 
   469)       257.7  Rx         0540  8  F0 00 FF 00 FE 00 00 2F 
   470)       258.0  Rx         00C2  8  00 80 00 80 80 0A 00 F5 
   471)       259.8  Rx         00D0  6  24 20 0C 08 00 00 
   472)       260.1  Rx         05DC  8  77 18 C0 3F 1E 00 30 42 
   473)       260.8  Rx         0280  8  01 23 3A 0F 26 00 10 27 
   474)       261.0  Rx         0288  8  64 AC 13 04 00 5D 8E 12 
   475)       261.2  Rx         0380  8  00 6A 00 30 21 00 00 0E 
   476)       261.4  Rx         05C0  8  C4 68 80 A6 21 01 88 22 
   477)       261.7  Rx         0488  8  2F 27 26 80 FE FF FF 50 
   478)       262.4  Rx         0320  8  20 80 14 01 00 02 00 87 
   479)       263.7  Rx         0440  8  00 80 00 FE 80 00 80 00 
   480)       266.4  Rx         01A0  8  00 4B 00 00 00 FE 00 58 
   481)       266.7  Rx         01AC  8  87 84 00 00 69 01 FA 91 
   482)       266.9  Rx         04A0  8  00 00 00 00 CC FF 00 00 
   483)       267.2  Rx         05C6  8  05 94 19 10 00 00 00 13 
   484)       267.4  Rx         04A8  8  12 80 F2 10 00 00 40 30 
   485)       267.6  Rx         05A0  8  80 00 00 43 33 00 10 AB 
   486)       267.9  Rx         0540  8  00 00 FF 00 FE 00 00 26 
   487)       268.1  Rx         00C2  8  00 80 00 80 80 1A 00 E5 
   488)       269.6  Rx         038A  4  65 01 64 00 
   489)       269.8  Rx         0050  4  00 F0 88 78 
   490)       270.0  Rx         00D0  6  34 30 0C 08 00 00 
   491)       270.2  Rx         03D0  6  01 82 00 10 A0 00 
   492)       270.4  Rx         03D2  7  01 00 00 20 00 06 67 
   493)       270.8  Rx         0280  8  01 22 70 0F 26 00 10 27 
   494)       271.0  Rx         0288  8  64 AC 13 04 00 5D 8E 11 
   495)       271.2  Rx         0380  8  00 6A 00 30 21 00 00 0E 
   496)       271.5  Rx         05D2  8  00 00 00 00 00 57 56 57 
   497)       271.7  Rx         0488  8  1F 27 26 80 FE FF FF 60 
   498)       273.7  Rx         0440  8  00 80 00 FE 80 00 88 00 
   499)       274.8  Rx         0480  8  C2 20 AE 07 19 00 06 54 
   500)       275.0  Rx         0284  6  0C 0C 00 00 00 00 
   501)       275.2  Rx         0588  8  1B 84 80 0D 00 00 00 00 
   502)       275.5  Rx         05E0  8  20 00 00 00 00 00 80 00 
   503)       275.8  Rx         056A  8  71 00 08 00 1A 00 02 61 
   504)       276.4  Rx         01A0  8  00 4B 00 00 00 FE 00 59 
   505)       276.7  Rx         04A0  8  00 00 00 00 CC FF 00 00 
   506)       277.7  Rx         0540  8  10 00 FF 00 FE 00 00 26 
   507)       278.0  Rx         00C2  8  00 80 00 80 80 2A 00 D5 
   508)       278.3  Rx         0572  1  07 
   509)       279.9  Rx         00D0  6  44 40 0C 08 00 00 
   510)       281.0  Rx         05C0  8  C5 68 80 A6 21 01 88 23 
   511)       281.8  Rx         0280  8  01 22 70 0F 26 00 11 27 
   512)       282.0  Rx         0288  8  64 AC 13 04 00 5D 8E 12 
   513)       282.3  Rx         0380  8  00 6A 00 2F 21 00 00 0E 
   514)       282.6  Rx         0320  8  20 80 14 01 00 03 00 87 
   515)       282.8  Rx         0488  8  0F 27 26 80 FE FF FF 70 
   516)       283.7  Rx         0440  8  00 80 00 FE 80 00 90 00 
   517)       286.4  Rx         01A0  8  00 4B 00 00 00 FE 00 5A 
   518)       286.6  Rx         01AC  8  85 85 00 00 69 01 F9 91 
   519)       286.9  Rx         04A0  8  00 00 00 00 CC FF 00 00 
   520)       287.1  Rx         04A8  8  00 00 F5 10 00 00 50 B5 
   521)       287.4  Rx         05A0  8  80 00 00 53 33 00 10 AB 
   522)       287.8  Rx         0540  8  20 00 FF 00 FE 00 00 26 
   523)       288.0  Rx         00C2  8  00 80 00 80 80 3A 00 C5 
   524)       289.6  Rx         038A  4  75 01 74 00 
   525)       289.9  Rx         00D0  6  54 50 0C 08 00 00 
   526)       290.1  Rx         03D0  6  01 82 00 10 A0 00 
   527)       290.3  Rx         0050  4  00 F0 98 68 
   528)       290.5  Rx         03D2  7  02 00 00 20 00 06 67 
   529)       290.8  Rx         0280  8  01 1E 70 0F 26 00 11 27 
   530)       291.0  Rx         0288  8  8A AC 13 04 00 5D 8E 12 
   531)       291.3  Rx         0380  8  00 6A 00 2F 21 00 00 0E 
   532)       291.8  Rx         0488  8  FC 27 25 80 FE FF FF 80 
   533)       293.7  Rx         0440  8  00 80 00 FE 80 00 98 00 
   534)       294.9  Rx         05E0  8  20 00 00 00 00 00 80 00 
   535)       295.8  Rx         0480  8  C2 20 B9 07 19 00 06 43 
   536)       296.0  Rx         0284  6  0D 0D 00 00 00 00 
   537)       296.2  Rx         0588  8  1B 84 80 0B 00 00 00 00 
   538)       296.5  Rx         01A0  8  00 4B 00 00 00 FE 00 5B 
   539)       296.8  Rx         04A0  8  00 00 00 00 CC FF 00 00 
   540)       297.0  Rx         056A  8  61 00 08 00 1A 00 02 71 
   541)       297.7  Rx         0540  8  30 00 FF 00 FE 00 00 26 
   542)       298.0  Rx         00C2  8  00 80 00 80 80 4A 00 B5 
   543)       299.1  Rx         00D0  6  64 60 0C 08 00 00 
   544)       300.8  Rx         0280  8  01 1E 9C 0F 26 00 11 26 
   545)       301.0  Rx         0288  8  8A AC 13 04 00 5D 8E 12 
   546)       301.3  Rx         0380  8  00 6A 00 29 21 00 00 0F 
   547)       301.5  Rx         05C0  8  C6 68 80 A6 21 01 88 20 
   548)       301.8  Rx         0488  8  ED 26 25 80 FE FF FF 90 
   549)       302.4  Rx         0320  8  20 80 14 01 00 04 00 87 
   550)       303.7  Rx         0440  8  00 80 00 FE 80 00 A0 00 
   551)       306.3  Rx         01A0  8  00 4B 00 00 00 FE 00 5C 
   552)       306.6  Rx         01AC  8  85 86 00 00 69 01 FA 91 
   553)       306.9  Rx         04A0  8  00 00 00 00 CC FF 00 00 
   554)       307.1  Rx         04A8  8  06 80 F2 10 00 00 60 04 
   555)       307.4  Rx         05A0  8  80 00 00 63 33 00 10 AB 
   556)       307.8  Rx         0540  8  40 00 FF 00 FE 00 00 2F 
   557)       308.1  Rx         00C2  8  00 80 00 80 80 5A 00 A5 
   558)       309.6  Rx         038A  4  85 01 84 00 
   559)       309.9  Rx         00D0  6  74 70 0C 08 00 00 
   560)       310.1  Rx         03D0  6  01 82 00 10 A0 00 
   561)       310.3  Rx         03D2  7  03 00 00 20 00 06 67 
   562)       310.5  Rx         0050  4  00 F0 A8 58 
   563)       311.8  Rx         0280  8  01 1E 9C 0F 26 00 11 26 
   564)       312.1  Rx         0288  8  8A AC 13 04 00 5D 8E 12 
   565)       312.3  Rx         0380  8  00 6A 00 29 21 00 00 0F 
   566)       312.9  Rx         0488  8  DD 26 25 80 FE FF FF A0 
   567)       313.7  Rx         0440  8  00 80 00 FE 80 00 A8 00 
   568)       314.9  Rx         05E0  8  20 00 00 00 00 00 80 00 
   569)       315.9  Rx         0480  8  C2 20 C4 07 19 00 06 3E 
   570)       316.1  Rx         0284  6  0E 0E 00 00 00 00 
   571)       316.3  Rx         0588  8  1B 84 80 00 00 00 00 00 
   572)       316.5  Rx         01A0  8  00 4B 00 00 00 FE 00 5D 
   573)       316.8  Rx         04A0  8  00 00 00 00 CC FF 00 00 
   574)       317.1  Rx         056A  8  91 00 08 00 1A 00 02 81 
   575)       317.7  Rx         0540  8  50 00 FF 00 FE 00 00 2F 
   576)       318.1  Rx         00C2  8  00 80 00 80 80 6A 00 95 
   577)       319.8  Rx         00D0  6  84 80 0C 08 00 00 
   578)       321.0  Rx         05C0  8  C7 68 80 A6 21 01 88 21 
   579)       321.8  Rx         0280  8  01 1C 9C 0F 26 00 11 26 
   580)       322.1  Rx         0288  8  8A AC 13 04 00 5D 8E 12 
   581)       322.3  Rx         0320  8  24 80 14 01 00 05 00 87 
   582)       322.6  Rx         0380  8  00 6A 00 23 21 00 00 0F 
   583)       322.9  Rx         0488  8  CC 26 24 80 FE FF FF B0 
   584)       323.7  Rx         0440  8  00 80 00 FE 80 00 B0 00 
   585)       326.3  Rx         01A0  8  00 4B 00 00 00 FE 00 5E 
   586)       326.6  Rx         01AC  8  85 87 00 00 69 01 FB 91 
   587)       326.8  Rx         04A0  8  00 00 00 00 CC FF 00 00 
   588)       327.1  Rx         04A8  8  1F 80 F5 10 00 00 70 0A 
   589)       327.4  Rx         05A0  8  80 00 00 73 33 00 10 AB 
   590)       327.8  Rx         0540  8  60 00 FF 00 FE 00 00 2F 
   591)       328.1  Rx         00C2  8  00 80 00 80 80 7A 00 85 
   592)       329.6  Rx         038A  4  95 01 94 00 
   593)       329.9  Rx         00D0  6  94 90 0C 08 00 00 
   594)       330.1  Rx         03D0  6  01 82 00 10 A1 00 
   595)       330.3  Rx         03D2  7  04 00 00 20 00 06 67 
   596)       330.9  Rx         0280  8  01 1B B7 0F 26 00 11 26 
   597)       331.1  Rx         0050  4  00 F0 B8 48 
   598)       331.3  Rx         0288  8  E8 AC 13 04 00 5D 8E 11 
   599)       331.5  Rx         0380  8  00 6A 00 23 21 00 00 0F 
   600)       331.9  Rx         0488  8  BC 26 24 80 FE FF FF C0 
   601)       333.0  Rx         0760  5  17 00 02 21 0C 
   602)       333.6  Rx         0300  1  B8 
   603)       333.9  Rx         0440  8  00 80 00 FE 80 00 B8 00 
   604)       334.9  Rx         05E0  8  20 00 00 00 00 00 80 00 
   605)       335.1  Rx         0284  6  0F 0F 00 00 00 00 
   606)       335.3  Rx         0480  8  C2 20 D0 07 19 00 06 2A 
   607)       335.6  Rx         0588  8  1B 84 80 06 00 00 00 00 
   608)       335.9  Rx         056A  8  81 00 08 00 1A 00 02 91 
   609)       336.3  Rx         01A0  8  00 4B 00 00 00 FE 00 5F 
   610)       336.6  Rx         04A0  8  00 00 00 00 CC FF 00 00 
   611)       337.7  Rx         0540  8  70 00 FF 00 FE 00 00 2F 
   612)       338.2  Rx         00C2  8  00 80 00 80 80 8A 00 75 
   613)       339.1  Rx         00D0  6  A4 A0 0C 08 00 00 
   614)       339.8  Rx         0300  8  25 00 0E 61 0C 11 50 20 
   615)       339.9  Rx         0570  5  47 20 B6 59 80 
   616)       340.2  Rx         0420  8  9A 98 A4 00 00 00 FF 00 
   617)       341.0  Rx         05C0  8  C8 68 80 A6 21 01 88 2E 
   618)       341.9  Rx         0280  8  01 1B B7 0F 25 00 11 26 
   619)       342.2  Rx         0288  8  E8 AC 13 04 00 5D 8E 11 
   620)       342.4  Rx         0320  8  24 80 14 01 00 06 00 87 
   621)       342.6  Rx         0380  8  00 6A 00 22 21 00 00 0F 
   622)       342.9  Rx         0488  8  AC 26 24 80 FE FF FF D0 
   623)       343.7  Rx         0440  8  00 80 00 FE 80 00 C0 00 
   624)       344.9  Rx         0390  8  6A 40 50 00 00 00 20 00 
   625)       345.6  Rx         0300  8  26 25 00 00 11 30 20 21 
   626)       346.5  Rx         01A0  8  00 4B 00 00 00 FE 00 50 
   627)       346.7  Rx         01AC  8  8B 88 00 00 69 01 FA 91 
   628)       347.0  Rx         04A0  8  00 00 00 00 CC FF 00 00 
   629)       347.2  Rx         04A8  8  0C 00 F0 10 00 00 80 6C 
   630)       347.5  Rx         05A0  8  80 00 00 83 33 00 10 AB 
   631)       347.8  Rx         0540  8  80 00 FF 00 FE 00 00 26 
   632)       348.2  Rx         00C2  8  00 80 00 80 80 9A 00 65 
   633)       349.7  Rx         038A  4  A5 01 A4 00 
   634)       349.9  Rx         05D0  8  C0 04 51 AF 29 48 01 00 
   635)       350.1  Rx         00D0  6  B4 B0 0C 08 00 00 
   636)       350.4  Rx         03D0  6  01 82 00 10 A1 00 
   637)       350.6  Rx         03D2  7  05 00 00 20 00 06 67 
   638)       351.0  Rx         0280  8  01 1A B7 0F 25 00 11 26 
   639)       351.2  Rx         0288  8  E8 AC 13 04 00 5D 8F 11 
   640)       351.4  Rx         0380  8  00 6A 00 22 21 00 00 0F 
   641)       351.6  Rx         0050  4  00 F0 C8 38 
   642)       351.8  Rx         0300  3  17 FE FE 
   643)       352.0  Rx         0488  8  9B 26 23 80 FE FF FF E0 
   644)       353.5  Rx         0760  1  B8 
   645)       353.8  Rx         0440  8  00 80 00 FE 80 00 C8 00 
   646)       354.9  Rx         05E0  8  20 00 00 00 00 00 80 00 
   647)       356.0  Rx         0480  8  1C 20 DB 07 19 00 06 FF 
   648)       356.2  Rx         0284  6  00 00 00 00 00 00 
   649)       356.4  Rx         01A0  8  00 4B 00 00 00 FE 00 51 
   650)       356.6  Rx         0588  8  1B 84 80 06 00 00 00 00 
   651)       356.9  Rx         04A0  8  00 00 00 00 CC FF 00 00 
   652)       357.1  Rx         056A  8  B1 00 08 00 1A 00 02 A1 
   653)       357.7  Rx         0540  8  90 00 FF 00 FE 00 00 26 
   654)       358.2  Rx         00C2  8  00 80 00 80 80 AA 00 55 
   655)       359.9  Rx         05DC  8  77 18 C0 3F 1E 00 30 42 
   656)       360.1  Rx         00D0  6  C4 C0 0C 08 00 00 
   657)       361.0  Rx         05C0  8  C9 68 80 A6 21 01 88 2F 
   658)       361.9  Rx         0280  8  01 1A CF 0F 25 00 11 26 
   659)       362.2  Rx         0288  8  E8 AC 13 04 00 5D 8F 11 
   660)       362.4  Rx         0380  8  00 6A 00 1D 21 00 00 0F 
   661)       362.7  Rx         0320  8  24 80 14 01 00 07 00 87 
   662)       363.0  Rx         0488  8  8B 26 23 80 FE FF FF F0 
   663)       363.8  Rx         0440  8  00 80 00 FE 80 00 D0 00 
   664)       366.3  Rx         01A0  8  00 4B 00 00 00 FE 00 52 
   665)       366.6  Rx         01AC  8  8B 89 00 00 69 01 FB 91 
   666)       366.9  Rx         04A0  8  00 00 00 00 CC FF 00 00 
   667)       367.1  Rx         04A8  8  12 80 F2 10 00 00 90 E0 
   668)       367.4  Rx         05C6  8  05 94 19 10 00 00 00 13 
   669)       367.6  Rx         05A0  8  80 00 00 93 33 00 10 AB 
   670)       367.9  Rx         0540  8  A0 00 FF 00 FE 00 00 26 
   671)       368.2  Rx         00C2  8  00 80 00 80 80 BA 00 45 
   672)       369.7  Rx         038A  4  B5 01 B4 00 
   673)       369.9  Rx         00D0  6  D4 D0 0C 08 00 00 
   674)       370.1  Rx         03D0  6  01 82 00 10 A2 00 
   675)       370.4  Rx         03D2  7  06 00 00 20 00 07 67 
   676)       372.0  Rx         0280  8  01 1A CF 0F 25 00 11 26 
   677)       372.1  Rx         0050  4  00 F0 D8 28 
   678)       372.4  Rx         0288  8  2C AC 13 04 00 5D 8F 11 
   679)       372.7  Rx         0380  8  00 6A 00 1D 21 00 00 0F 
   680)       373.0  Rx         0488  8  C6 26 23 80 FE FF 42 00 
   681)       373.8  Rx         0440  8  00 80 00 FE 80 00 D8 00 
   682)       374.9  Rx         05E0  8  20 00 00 00 00 00 80 00 
   683)       376.0  Rx         0480  8  1C 20 E6 07 19 00 06 C2 
   684)       376.2  Rx         0284  6  01 01 00 00 00 00 
   685)       376.4  Rx         01A0  8  00 4B 00 00 00 FE 00 53 
   686)       376.7  Rx         0588  8  1B 80 80 00 00 00 00 00 
   687)       376.9  Rx         04A0  8  00 00 00 00 CC FF 00 00 
   688)       377.2  Rx         056A  8  A1 00 08 00 1A 00 02 B1 
   689)       377.7  Rx         0540  8  B0 00 FF 00 FE 00 00 26 
   690)       378.2  Rx         00C2  8  00 80 00 80 80 CA 00 35 
   691)       379.1  Rx         00D0  6  E4 E0 0C 08 00 00 
   692)       379.6  Rx         0572  1  07 
   693)       380.2  Rx         0760  1  A3 
   694)       381.0  Rx         05C0  8  CA 68 80 A6 21 01 88 2C 
   695)       381.2  Rx         0280  8  01 19 CF 0F 25 00 11 25 
   696)       381.5  Rx         0288  8  2C AC 13 04 00 5D 8F 12 
   697)       381.7  Rx         0380  8  00 6A 00 19 21 00 00 0F 
   698)       381.9  Rx         0300  6  A1 0F 8A FF 4A FF 
   699)       382.1  Rx         0488  8  B0 25 23 80 FE FF 27 10 
   700)       382.5  Rx         0320  8  24 80 14 01 00 08 00 87 
   701)       383.8  Rx         0440  8  00 80 00 FE 80 00 E0 00 
   702)       386.3  Rx         01A0  8  00 4B 00 00 00 FE 00 54 
   703)       386.6  Rx         01AC  8  88 8A 00 00 69 01 FB 91 
   704)       386.8  Rx         04A0  8  00 00 00 00 CC FF 00 00 
   705)       387.1  Rx         04A8  8  2B 80 F2 10 00 00 A0 E9 
   706)       387.3  Rx         05A0  8  80 00 00 A3 33 00 10 AB 
   707)       387.8  Rx         0540  8  C0 00 FF 00 FE 00 00 2F 
   708)       388.2  Rx         00C2  8  00 80 00 80 80 DA 00 25 
   709)       389.7  Rx         038A  4  C5 01 C4 00 
   710)       389.9  Rx         00D0  6  F4 F0 0C 08 00 00 
   711)       390.2  Rx         03D0  6  01 82 00 10 A2 00 
   712)       390.4  Rx         03D2  7  07 00 00 20 00 06 67 
   713)       391.0  Rx         0280  8  01 19 E8 0F 25 00 11 25 
   714)       391.3  Rx         0288  8  2C AC 13 04 00 5D 8F 12 
   715)       391.5  Rx         0380  8  00 6A 00 19 21 00 00 0F 
   716)       392.0  Rx         0488  8  DE 25 23 80 FE FF 79 20 
   717)       392.6  Rx         0050  4  00 F0 E8 18 
   718)       393.7  Rx         0440  8  00 80 00 FE 80 00 E8 00 
   719)       394.9  Rx         05E0  8  20 00 00 00 00 00 80 00 
   720)       395.1  Rx         0284  6  02 02 00 00 00 00 
   721)       395.3  Rx         0480  8  1C 20 F0 07 19 00 06 D4 
   722)       395.6  Rx         0588  8  1B 80 80 06 00 00 00 00 
   723)       396.0  Rx         056A  8  D1 00 08 00 1A 00 02 C1 
   724)       396.3  Rx         01A0  8  00 4B 00 00 00 FE 00 55 
   725)       396.6  Rx         04A0  8  00 00 00 00 CC FF 00 00 
   726)       397.7  Rx         0540  8  D0 00 FF 00 FE 00 00 2F 
   727)       398.3  Rx         00C2  8  00 80 00 80 80 EA 00 15 
   728)       399.9  Rx         00D0  6  04 00 0C 08 00 00 
   729)       401.0  Rx         05C0  8  CB 68 80 A6 21 01 88 2D 
   730)       402.1  Rx         0280  8  01 19 E8 0F 25 00 11 25 
   731)       402.3  Rx         0288  8  2C AC 13 04 00 5D 8F 12 
   732)       402.5  Rx         0320  8  24 80 14 01 00 09 00 87 
   733)       402.7  Rx         0380  8  00 6A 00 17 21 00 00 0F 
   734)       403.1  Rx         0488  8  BF 25 23 80 FE FF 08 30 
   735)       403.8  Rx         0440  8  00 80 00 FE 80 00 F0 00 
   736)       406.3  Rx         01A0  8  00 4B 00 00 00 FE 00 56 
   737)       406.6  Rx         01AC  8  88 8B 00 00 69 01 FA 91 
   738)       406.8  Rx         04A0  8  00 00 00 00 CC FF 00 00 
   739)       407.1  Rx         04A8  8  00 00 F2 10 00 00 B0 52 
   740)       407.4  Rx         05A0  8  7F 00 00 B3 33 00 10 AB 
   741)       407.7  Rx         0540  8  E0 00 FF 00 FE 00 00 2F 
   742)       408.3  Rx         00C2  8  00 80 00 80 80 FA 00 05 
   743)       409.7  Rx         038A  4  D5 01 D4 00 
   744)       409.9  Rx         00D0  6  14 10 0C 08 00 00 
   745)       410.1  Rx         03D0  6  01 82 00 10 A2 00 
   746)       410.4  Rx         03D2  7  08 00 00 20 00 06 67 
   747)       412.1  Rx         0280  8  01 18 0C 10 25 00 11 25 
   748)       412.3  Rx         0288  8  64 AC 13 04 00 5D 8F 12 
   749)       412.5  Rx         0380  8  00 6A 00 17 21 00 00 0F 
   750)       412.9  Rx         0050  4  00 F0 F8 08 
   751)       413.1  Rx         0488  8  E1 25 23 80 FE FF 26 40 
   752)       413.3  Rx         0550  3  C0 C0 00 
   753)       413.8  Rx         0440  8  00 80 00 FE 80 00 F8 00 
   754)       414.9  Rx         05E0  8  20 00 00 00 00 00 80 00 
   755)       416.1  Rx         0480  8  1C 20 FA 07 19 00 06 DE 
   756)       416.3  Rx         01A0  8  00 4B 00 00 00 FE 00 57 
   757)       416.5  Rx         0284  6  03 03 00 00 00 00 
   758)       416.8  Rx         04A0  8  00 00 00 00 CC FF 00 00 
   759)       417.0  Rx         0588  8  1B 80 80 09 00 00 00 00 
   760)       417.3  Rx         056A  8  C1 00 08 00 1A 00 02 D1 
   761)       417.7  Rx         0540  8  F0 00 FF 00 FE 00 00 2F 
   762)       418.3  Rx         00C2  8  00 80 00 80 80 0A 00 F5 
   763)       419.1  Rx         00D0  6  24 20 0C 08 00 00 
   764)       421.0  Rx         05C0  8  CC 68 80 A6 21 01 88 2A 
   765)       421.2  Rx         0280  8  01 18 0C 10 24 00 11 25 
   766)       421.4  Rx         0288  8  64 AC 13 04 00 5D 8F 12 
   767)       421.7  Rx         0380  8  00 6A 00 13 21 00 00 0F 
   768)       422.1  Rx         0488  8  28 25 23 80 FE FF FF 50 
   769)       422.4  Rx         0320  8  24 80 14 01 00 0A 00 87 
   770)       423.8  Rx         0440  8  00 80 00 FE 80 00 80 00 
   771)       426.3  Rx         01A0  8  00 4B 00 00 00 FE 00 58 
   772)       426.6  Rx         01AC  8  8F 8C 00 00 69 01 FA 91 
   773)       426.8  Rx         04A0  8  00 00 00 00 CC FF 00 00 
   774)       427.1  Rx         04A8  8  12 80 F5 10 00 00 C0 B7 
   775)       427.3  Rx         05A0  8  80 00 00 C3 33 00 10 AB 
   776)       427.7  Rx         0540  8  00 00 FF 00 FE 00 00 26 
   777)       428.3  Rx         00C2  8  00 80 00 80 80 1A 00 E5 
   778)       429.7  Rx         038A  4  E5 01 E4 00 
   779)       429.9  Rx         00D0  6  34 30 0C 08 00 00 
   780)       430.2  Rx         03D0  6  01 82 00 10 A3 00 
   781)       430.4  Rx         03D2  7  09 00 00 20 00 06 67 
   782)       432.1  Rx         0280  8  01 16 0C 10 24 00 11 25 
   783)       432.4  Rx         0288  8  64 AC 13 04 00 5D 8F 12 
   784)       432.6  Rx         0380  8  00 6A 00 13 21 00 00 0F 
   785)       433.1  Rx         0488  8  1F 25 24 80 FE FF FF 60 
   786)       433.4  Rx         0050  4  00 F0 08 F8 
   787)       433.8  Rx         0440  8  00 80 00 FE 80 00 88 00 
   788)       434.9  Rx         05E0  8  20 00 00 00 00 00 80 00 
   789)       436.2  Rx         0480  8  54 20 04 08 19 00 06 67 
   790)       436.4  Rx         01A0  8  00 4B 00 00 00 FE 00 59 
   791)       436.6  Rx         0284  6  04 04 00 00 00 00 
   792)       436.9  Rx         04A0  8  00 00 00 00 CC FF 00 00 
   793)       437.1  Rx         0588  8  1B 80 80 00 00 00 00 00 
   794)       437.4  Rx         056A  8  F1 00 08 00 1A 00 02 E1 
   795)       437.7  Rx         0540  8  10 00 FF 00 FE 00 00 26 
   796)       438.4  Rx         00C2  8  00 80 00 80 80 2A 00 D5 
   797)       439.8  Rx         0570  5  47 20 B6 59 80 
   798)       440.0  Rx         00D0  6  44 40 0C 08 00 00 
   799)       440.2  Rx         0520  8  A6 87 00 79 0F 62 33 03 
   800)       441.0  Rx         05C0  8  CD 68 80 A6 21 01 88 2B 
   801)       442.2  Rx         0280  8  01 16 25 10 24 00 11 24 
   802)       442.4  Rx         0288  8  64 AC 13 04 00 5D 8F 12 
   803)       442.6  Rx         0320  8  24 80 14 01 00 0B 00 87 
   804)       442.8  Rx         0380  8  00 6A 00 0D 21 00 00 0F 
   805)       443.2  Rx         0488  8  0E 24 24 80 FE FF FF 70 
   806)       443.8  Rx         0440  8  00 80 00 FE 80 00 90 00 
   807)       444.9  Rx         0390  8  6A 40 50 00 00 00 20 00 
   808)       446.4  Rx         01A0  8  00 4B 00 00 00 FE 00 5A 
   809)       446.6  Rx         01AC  8  8F 8D 00 00 69 01 FB 91 
   810)       446.9  Rx         04A0  8  00 00 00 00 CC FF 00 00 
   811)       447.2  Rx         04A8  8  12 80 F2 10 00 00 D0 A0 
   812)       447.5  Rx         05A0  8  80 00 00 D3 33 00 10 AB 
   813)       447.7  Rx         0540  8  20 00 FF 00 FE 00 00 26 
   814)       448.4  Rx         00C2  8  00 80 00 80 80 3A 00 C5 
   815)       449.8  Rx         038A  4  F5 01 F4 00 
   816)       450.0  Rx         00D0  6  54 50 0C 08 00 00 
   817)       450.2  Rx         03D0  6  01 82 00 10 A3 00 
   818)       450.4  Rx         03D2  7  0A 00 00 20 00 07 67 
   819)       450.6  Rx         05D0  8  C0 04 51 AF 29 48 01 00 
   820)       452.2  Rx         0280  8  01 16 25 10 24 00 11 24 
   821)       452.4  Rx         0288  8  8A AC 13 04 00 5D 90 12 
   822)       452.7  Rx         0380  8  00 6A 00 0D 21 00 00 10 
   823)       453.2  Rx         0488  8  FE 24 24 80 FE FF FF 80 
   824)       453.8  Rx         0440  8  00 80 00 FE 80 00 98 00 
   825)       453.9  Rx         0050  4  00 F0 18 E8 
   826)       454.9  Rx         05E0  8  20 00 00 00 00 00 80 00 
   827)       455.2  Rx         0480  8  54 20 0F 08 19 00 06 6C 
   828)       455.4  Rx         0284  6  05 05 00 00 00 00 
   829)       455.6  Rx         0588  8  1B 80 80 06 00 00 00 00 
   830)       456.2  Rx         056A  8  E1 00 08 00 1A 00 02 F1 
   831)       456.4  Rx         01A0  8  00 4B 00 00 00 FE 00 5B 
   832)       456.6  Rx         04A0  8  00 00 00 00 CC FF 00 00 
   833)       457.7  Rx         0540  8  30 00 FF 00 FE 00 00 26 
   834)       458.4  Rx         00C2  8  00 80 00 80 80 4A 00 B5 
   835)       459.8  Rx         00D0  6  64 60 0C 08 00 00 
   836)       460.0  Rx         05DC  8  77 18 C0 3F 1E 00 30 42 
   837)       461.0  Rx         05C0  8  CE 68 80 A6 21 01 88 28 
   838)       462.2  Rx         0280  8  01 15 25 10 24 00 11 24 
   839)       462.4  Rx         0288  8  8A AC 13 04 00 5D 90 12 
   840)       462.7  Rx         0320  8  24 80 14 01 00 0C 00 87 
   841)       462.9  Rx         0380  8  00 6A 00 0A 21 00 00 10 
   842)       463.2  Rx         0488  8  E9 24 23 80 FE FF FF 90 
   843)       463.8  Rx         0440  8  00 80 00 FE 80 00 A0 00 
   844)       466.3  Rx         01A0  8  00 4B 00 00 00 FE 00 5C 
   845)       466.6  Rx         01AC  8  8C 8E 00 00 69 01 FB 91 
   846)       466.8  Rx         04A0  8  00 00 00 00 CC FF 00 00 
   847)       467.1  Rx         04A8  8  00 00 F2 10 00 00 E0 02 
   848)       467.3  Rx         05A0  8  80 00 00 E3 33 00 10 AB 
   849)       467.6  Rx         05C6  8  05 94 19 10 00 00 00 13 
   850)       467.9  Rx         0540  8  40 00 FF 00 FE 00 00 2F 
   851)       468.5  Rx         00C2  8  00 80 00 80 80 5A 00 A5 
   852)       469.8  Rx         038A  4  05 01 04 00 
   853)       470.0  Rx         00D0  6  74 70 0C 08 00 00 
   854)       470.3  Rx         03D0  6  01 82 00 10 A3 00 
   855)       470.5  Rx         03D2  7  0B 00 00 20 00 06 67 
   856)       471.1  Rx         05D2  8  01 41 4B 37 33 43 31 36 
   857)       472.2  Rx         0280  8  01 15 49 10 24 00 11 24 
   858)       472.5  Rx         0288  8  8A AC 13 04 00 5D 90 12 
   859)       472.7  Rx         0380  8  00 6A 00 0A 21 00 00 10 
   860)       473.2  Rx         0488  8  D9 24 23 80 FE FF FF A0 
   861)       473.8  Rx         0440  8  00 80 00 FE 80 00 A8 00 
   862)       474.5  Rx         0050  4  00 F0 28 D8 
   863)       474.9  Rx         05E0  8  20 00 00 00 00 00 80 00 
   864)       476.2  Rx         0480  8  54 20 19 08 19 00 06 7A 
   865)       476.4  Rx         01A0  8  00 4B 00 00 00 FE 00 5D 
   866)       476.7  Rx         0284  6  06 06 00 00 00 00 
   867)       476.9  Rx         04A0  8  00 00 00 00 CC FF 00 00 
   868)       477.2  Rx         0588  8  1B 7D 80 09 00 00 00 00 
   869)       477.4  Rx         056A  8  11 00 08 00 1A 00 02 01 
   870)       477.7  Rx         0540  8  50 00 FF 00 FE 00 00 2F 
   871)       478.5  Rx         00C2  8  00 80 00 80 80 6A 00 95 
   872)       478.6  Rx         0572  1  07 
   873)       479.9  Rx         00D0  6  84 80 0C 08 00 00 
   874)       480.9  Rx         05C0  8  CF 68 80 A6 21 01 88 29 
   875)       482.2  Rx         0280  8  01 15 49 10 23 00 11 24 
   876)       482.5  Rx         0288  8  8A AC 13 04 00 5D 90 11 
   877)       482.7  Rx         0380  8  00 6A 00 06 21 00 00 10 
   878)       483.0  Rx         0320  8  24 80 14 01 00 0D 00 87 
   879)       483.3  Rx         0488  8  C9 24 23 80 FE FF FF B0 
   880)       483.8  Rx         0440  8  00 80 00 FE 80 00 B0 00 
   881)       486.2  Rx         01A0  8  00 4B 00 00 00 FE 00 5E 
   882)       486.5  Rx         01AC  8  8F 8F 00 00 69 01 F9 91 
   883)       486.8  Rx         04A0  8  00 00 00 00 CC FF 00 00 
   884)       487.0  Rx         04A8  8  0C 80 F2 10 00 00 F0 9E 
   885)       487.3  Rx         05A0  8  80 00 00 F3 33 00 10 AB 
   886)       487.7  Rx         0540  8  60 00 FF 00 FE 00 00 2F 
   887)       488.5  Rx         00C2  8  00 80 00 80 80 7A 00 85 
   888)       489.8  Rx         038A  4  15 01 14 00 
   889)       490.0  Rx         00D0  6  94 90 0C 08 00 00 
   890)       490.2  Rx         03D0  6  01 82 00 10 A4 00 
   891)       490.4  Rx         03D2  7  0C 00 00 20 00 06 67 
   892)       492.2  Rx         0280  8  01 14 49 10 23 00 11 24 
   893)       492.5  Rx         0288  8  E8 AC 13 04 00 5D 90 11 
   894)       492.7  Rx         0380  8  00 6A 00 06 21 00 00 10 
   895)       493.3  Rx         0488  8  B9 24 23 80 FE FF FF C0 
   896)       493.8  Rx         0440  8  00 80 00 FE 80 00 B8 00 
   897)       494.9  Rx         05E0  8  20 00 00 00 00 00 80 00 
   898)       495.0  Rx         0050  4  00 F0 38 C8 
   899)       495.3  Rx         0284  6  07 07 00 00 00 00 
   900)       495.5  Rx         0480  8  54 20 26 08 19 00 06 45 
   901)       495.8  Rx         0588  8  1B 7D 80 00 00 00 00 00 
   902)       496.2  Rx         01A0  8  00 4B 00 00 00 FE 00 5F 
   903)       496.4  Rx         056A  8  01 00 08 00 1A 00 02 11 
   904)       496.7  Rx         04A0  8  00 00 00 00 CC FF 00 00 
   905)       497.7  Rx         0540  8  70 00 FF 00 FE 00 00 2F 
   906)       498.6  Rx         00C2  8  00 80 00 80 80 8A 00 75 
   907)       499.1  Rx         00D0  6  A4 A0 0C 08 00 00 
   908)       501.0  Rx         05C0  8  C0 68 80 A6 21 01 88 26 
   909)       501.3  Rx         0280  8  01 14 67 10 23 00 11 23 
   910)       501.5  Rx         0288  8  E8 AC 13 04 00 5D 91 11 
   911)       501.8  Rx         0380  8  00 6A 00 00 21 00 00 10 
   912)       502.3  Rx         0488  8  AE 23 23 80 FE FF FF D0 
   913)       502.5  Rx         0320  8  24 80 14 01 00 0E 00 87 
   914)       503.8  Rx         0440  8  00 80 00 FE 80 00 C0 00 
   915)       506.3  Rx         01A0  8  00 4B 00 00 00 FE 00 50 
   916)       506.6  Rx         01AC  8  83 80 00 00 69 01 FA 91 
   917)       506.9  Rx         04A0  8  00 00 00 00 CC FF 00 00 
   918)       507.1  Rx         04A8  8  00 00 F2 10 00 00 00 E2 
   919)       507.4  Rx         05A0  8  80 00 00 03 33 00 10 AB 
   920)       507.7  Rx         0540  8  80 00 FF 00 FE 00 00 26 
   921)       508.6  Rx         00C2  8  00 80 00 80 80 9A 00 65 
   922)       509.9  Rx         038A  4  25 01 24 00 
   923)       510.0  Rx         00D0  6  B4 B0 0C 08 00 00 
   924)       510.2  Rx         03D0  6  01 82 00 10 A4 00 
   925)       510.5  Rx         03D2  7  0D 00 00 20 00 06 67 
   926)       512.3  Rx         0280  8  01 14 67 10 23 00 11 23 
   927)       512.5  Rx         0288  8  E8 AC 13 04 00 5D 91 11 
   928)       512.8  Rx         0380  8  00 6A 00 00 21 00 00 10 
   929)       513.3  Rx         0488  8  9E 23 23 80 FE FF FF E0 
   930)       513.8  Rx         0440  8  00 80 00 FE 80 00 C8 00 
   931)       514.9  Rx         05E0  8  20 00 00 00 00 00 80 00 
   932)       515.3  Rx         0050  4  00 F0 48 B8 
   933)       516.3  Rx         01A0  8  00 4B 00 00 00 FE 00 51 
   934)       516.4  Rx         0284  6  08 08 00 00 00 00 
   935)       516.7  Rx         0480  8  84 20 34 08 19 00 06 87 
   936)       516.9  Rx         04A0  8  00 00 00 00 CC FF 00 00 
   937)       517.2  Rx         0588  8  1B 7D 80 07 00 00 00 00 
   938)       517.4  Rx         056A  8  31 00 08 00 1A 00 02 21 
   939)       517.7  Rx         0540  8  90 00 FF 00 FE 00 00 26 
   940)       518.6  Rx         00C2  8  00 80 00 80 80 AA 00 55 
   941)       519.9  Rx         00D0  6  C4 C0 0C 08 00 00 
   942)       521.0  Rx         05C0  8  C1 68 80 A6 21 01 88 27 
   943)       522.2  Rx         0320  8  24 80 14 01 00 0F 00 87 
   944)       522.4  Rx         0280  8  01 12 67 10 22 00 10 23 
   945)       522.7  Rx         0288  8  E8 AC 13 04 00 5D 91 11 
   946)       523.0  Rx         0380  8  00 6A 00 FC 20 00 00 10 
   947)       523.4  Rx         0488  8  8F 23 22 80 FE FF FF F0 
   948)       523.8  Rx         0440  8  00 80 00 FE 80 00 D0 00 
   949)       526.3  Rx         01A0  8  00 4B 00 00 00 FE 00 52 
   950)       526.6  Rx         01AC  8  82 81 00 00 69 01 FA 91 
   951)       526.9  Rx         04A0  8  00 00 00 00 CC FF 00 00 
   952)       527.1  Rx         04A8  8  19 80 F2 10 00 00 10 6B 
   953)       527.4  Rx         05A0  8  80 00 00 13 33 00 10 AB 
   954)       527.7  Rx         0540  8  A0 00 FF 00 FE 00 00 26 
   955)       528.6  Rx         00C2  8  00 80 00 80 80 BA 00 45 
   956)       529.9  Rx         00D0  6  D4 D0 0C 08 00 00 
   957)       530.1  Rx         038A  4  35 01 34 00 
   958)       530.2  Rx         03D0  6  01 82 00 10 A5 00 
   959)       530.5  Rx         03D2  7  0E 00 00 20 00 06 67 
   960)       532.4  Rx         0280  8  01 12 7A 10 22 00 10 23 
   961)       532.6  Rx         0288  8  2C AC 13 04 00 5D 91 11 
   962)       532.8  Rx         0380  8  00 6A 00 FC 20 00 00 10 
   963)       533.4  Rx         0488  8  C0 23 22 80 FE FF 40 00 
   964)       533.8  Rx         0440  8  00 80 00 FE 80 00 D8 00 
   965)       534.9  Rx         05E0  8  20 00 00 00 00 00 80 00 
   966)       535.4  Rx         0480  8  84 20 41 08 19 00 06 F2 
   967)       535.6  Rx         0284  6  09 09 00 00 00 00 
   968)       535.8  Rx         0588  8  1B 7D 80 04 00 00 00 00 
   969)       536.0  Rx         0050  4  00 F0 58 A8 
   970)       536.3  Rx         01A0  8  00 4B 00 00 00 FE 00 53 
   971)       536.5  Rx         056A  8  21 00 08 00 1A 00 02 31 
   972)       536.7  Rx         04A0  8  00 00 00 00 CC FF 00 00 
   973)       537.7  Rx         0540  8  B0 00 FF 00 FE 00 00 26 
   974)       538.7  Rx         00C2  8  00 80 00 80 80 CA 00 35 
   975)       539.1  Rx         00D0  6  E4 E0 0C 08 00 00 
   976)       539.9  Rx         0570  5  47 20 B6 59 80 
   977)       540.1  Rx         0420  8  9A 98 A4 00 00 00 FF 00 
   978)       540.9  Rx         05C0  8  C2 68 80 A6 21 01 88 24 
   979)       542.4  Rx         0320  8  24 80 14 01 00 00 00 87 
   980)       542.6  Rx         0280  8  01 12 7A 10 22 00 10 22 
   981)       542.8  Rx         0288  8  2C AC 13 04 00 5D 91 11 
   982)       543.0  Rx         0380  8  00 6A 00 F6 20 00 00 0F 
   983)       543.4  Rx         0488  8  B6 22 22 80 FE FF 27 10 
   984)       543.8  Rx         0440  8  00 80 00 FE 80 00 E0 00 
   985)       544.9  Rx         0390  8  6A 40 50 00 00 00 20 00 
   986)       546.4  Rx         01A0  8  00 4B 00 00 00 FE 00 54 
   987)       546.7  Rx         01AC  8  80 82 00 00 69 01 FB 91 
   988)       546.9  Rx         04A0  8  00 00 00 00 CC FF 00 00 
   989)       547.2  Rx         04A8  8  12 80 F2 10 00 00 20 50 
   990)       547.5  Rx         05A0  8  80 00 00 23 33 00 10 AB 
   991)       547.8  Rx         0540  8  C0 00 FF 00 FE 00 00 2F 
   992)       548.7  Rx         00C2  8  00 80 00 80 80 DA 00 25 
   993)       549.9  Rx         05D0  8  C0 04 51 AF 29 48 01 00 
   994)       550.1  Rx         00D0  6  F4 F0 0C 08 00 00 
   995)       550.3  Rx         038A  4  45 01 44 00 
   996)       550.5  Rx         03D0  6  01 82 00 10 A5 00 
   997)       550.7  Rx         03D2  7  0F 00 00 20 00 06 67 
   998)       552.4  Rx         0280  8  01 11 7A 10 22 00 10 22 
   999)       552.7  Rx         0288  8  2C AC 13 04 00 5D 91 11 
  1000)       552.9  Rx         0380  8  00 6A 00 F6 20 00 00 0F 
  1001)       553.4  Rx         0488  8  D8 22 22 80 FE FF 79 20 
  1002)       553.8  Rx         0440  8  00 80 00 FE 80 00 E8 00 
  1003)       554.9  Rx         05E0  8  20 00 00 00 00 00 80 00 
  1004)       556.2  Rx         01A0  8  00 4B 00 00 00 FE 00 55 
  1005)       556.4  Rx         0050  4  00 F0 68 98 
  1006)       556.6  Rx         0284  6  0A 0A 00 00 00 00 
  1007)       556.8  Rx         0480  8  84 20 4F 08 19 00 06 FC 
  1008)       557.1  Rx         04A0  8  00 00 00 00 CC FF 00 00 
  1009)       557.3  Rx         0588  8  1B 7D 80 80 00 00 00 00 
  1010)       557.5  Rx         056A  8  51 00 08 00 1A 00 02 41 
  1011)       557.8  Rx         0540  8  D0 00 FF 00 FE 00 00 2F 
  1012)       558.7  Rx         00C2  8  00 80 00 80 80 EA 00 15 
  1013)       559.9  Rx         05DC  8  77 18 C0 3F 1E 00 30 42 
  1014)       560.1  Rx         00D0  6  04 00 0C 08 00 00 
  1015)       560.9  Rx         05C0  8  C3 68 80 A6 21 01 88 25 
  1016)       562.5  Rx         0280  8  01 11 78 10 22 00 10 22 
  1017)       562.7  Rx         0288  8  2C AC 13 04 00 5D 91 11 
  1018)       562.9  Rx         0320  8  24 80 14 01 00 01 00 87 
  1019)       563.1  Rx         0380  8  00 6A 00 F1 20 00 00 0F 
  1020)       563.5  Rx         0488  8  B9 22 22 80 FE FF 08 30 
  1021)       563.8  Rx         0440  8  00 80 00 FE 80 00 F0 00 
  1022)       566.3  Rx         01A0  8  00 4B 00 00 00 FE 00 56 
  1023)       566.6  Rx         01AC  8  80 83 00 00 69 01 FA 91 
  1024)       566.9  Rx         04A0  8  00 00 00 00 CC FF 00 00 
  1025)       567.1  Rx         04A8  8  06 00 F2 10 00 00 30 D4 
  1026)       567.4  Rx         05A0  8  80 00 00 33 33 00 10 AB 
  1027)       567.8  Rx         0540  8  E0 00 FF 00 FE 00 00 2F 
  1028)       568.0  Rx         05C6  8  05 94 19 10 00 00 00 13 
  1029)       568.7  Rx         00C2  8  00 80 00 80 80 FA 00 05 
  1030)       569.9  Rx         00D0  6  14 10 0C 08 00 00 
  1031)       570.1  Rx         038A  4  55 01 54 00 
  1032)       570.3  Rx         03D0  6  01 82 00 10 A6 00 
  1033)       570.5  Rx         03D2  7  00 00 00 20 00 06 67 
  1034)       572.5  Rx         0280  8  01 11 78 10 22 00 10 22 
  1035)       572.7  Rx         0288  8  64 AC 13 04 00 5D 91 11 
  1036)       572.9  Rx         0380  8  00 6A 00 F1 20 00 00 0F 
  1037)       573.5  Rx         0488  8  E7 22 22 80 FE FF 26 40 
  1038)       573.8  Rx         0440  8  00 80 00 FE 80 00 F8 00 
  1039)       574.9  Rx         05E0  8  20 00 00 00 00 00 80 00 
  1040)       576.2  Rx         01A0  8  00 4B 00 00 00 FE 00 57 
  1041)       576.4  Rx         04A0  8  00 00 00 00 CC FF 00 00 
  1042)       576.7  Rx         0284  6  0B 0B 00 00 00 00 
  1043)       576.9  Rx         0480  8  84 20 5C 08 19 00 06 EF 
  1044)       577.1  Rx         0050  4  00 F0 78 88 
  1045)       577.3  Rx         0588  8  1B 7A 80 00 00 00 00 00 
  1046)       577.5  Rx         056A  8  41 00 08 00 1A 00 02 51 
  1047)       577.8  Rx         0540  8  F0 00 FF 00 FE 00 00 2F 
  1048)       578.6  Rx         0572  1  07 
  1049)       578.8  Rx         00C2  8  00 80 00 80 80 0A 00 F5 
  1050)       579.0  Rx         00D0  6  24 20 0C 08 00 00 
  1051)       580.9  Rx         05C0  8  C4 68 80 A6 21 01 88 22 
  1052)       581.5  Rx         0280  8  01 11 78 10 21 00 10 22 
  1053)       581.7  Rx         0288  8  64 AC 13 04 00 5D 91 11 
  1054)       581.9  Rx         0380  8  00 6A 00 ED 20 00 00 0F 
  1055)       582.5  Rx         0488  8  2D 22 21 80 FE FF FF 50 
  1056)       582.7  Rx         0320  8  24 80 14 01 00 02 00 87 
  1057)       583.8  Rx         0440  8  00 80 00 FE 80 00 80 00 
  1058)       586.3  Rx         01A0  8  00 4B 00 00 00 FE 00 58 
  1059)       586.5  Rx         01AC  8  84 84 00 00 69 01 F9 91 
  1060)       586.8  Rx         04A0  8  00 00 00 00 CC FF 00 00 
  1061)       587.0  Rx         04A8  8  12 80 F2 10 00 00 40 30 
  1062)       587.3  Rx         05A0  8  80 00 00 43 33 00 10 AB 
  1063)       587.8  Rx         0540  8  00 00 FF 00 FE 00 00 26 
  1064)       588.8  Rx         00C2  8  00 80 00 80 80 1A 00 E5 
  1065)       589.9  Rx         00D0  6  34 30 0C 08 00 00 
  1066)       590.1  Rx         038A  4  65 01 64 00 
  1067)       590.3  Rx         03D0  6  01 82 00 10 A6 00 
  1068)       590.5  Rx         03D2  7  01 00 00 20 00 06 67 
  1069)       592.5  Rx         0280  8  01 11 86 10 21 00 10 22 
  1070)       592.7  Rx         0288  8  64 AC 13 04 00 5D 91 10 
  1071)       593.0  Rx         0380  8  00 6A 00 ED 20 00 00 0F 
  1072)       593.5  Rx         0488  8  1D 22 21 80 FE FF FF 60 
  1073)       593.8  Rx         0440  8  00 80 00 FE 80 00 88 00 
  1074)       594.9  Rx         05E0  8  20 00 00 00 00 00 80 00 
  1075)       595.5  Rx         0480  8  C2 20 66 08 19 00 06 93 
  1076)       595.7  Rx         0284  6  0C 0C 00 00 00 00 
  1077)       596.0  Rx         0588  8  1B 7A 80 03 00 00 00 00 
  1078)       596.2  Rx         01A0  8  00 4B 00 00 00 FE 00 59 
  1079)       596.5  Rx         04A0  8  00 00 00 00 CC FF 00 00 
  1080)       596.7  Rx         056A  8  71 00 08 00 1A 00 02 61 
  1081)       596.9  Rx         0760  5  18 00 02 21 0C 
  1082)       597.5  Rx         0050  4  00 F0 88 78 
  1083)       597.6  Rx         0300  1  B9 
  1084)       597.9  Rx         0540  8  10 00 FF 00 FE 00 00 26 
  1085)       598.8  Rx         00C2  8  00 80 00 80 80 2A 00 D5 
  1086)       599.9  Rx         00D0  6  44 40 0C 08 00 00 
  1087)       600.9  Rx         05C0  8  C5 68 80 A6 21 01 88 23 
  1088)       602.3  Rx         0320  8  24 80 14 01 00 03 00 87 
  1089)       602.5  Rx         0280  8  01 11 86 10 21 00 10 21 
  1090)       602.8  Rx         0288  8  64 AC 13 04 00 5D 92 11 
  1091)       603.0  Rx         0380  8  00 6A 00 E9 20 00 00 0F 
  1092)       603.6  Rx         0488  8  0E 21 21 80 FE FF FF 70 
  1093)       603.8  Rx         0300  8  28 00 0E 61 0C 11 50 20 
  1094)       604.1  Rx         0440  8  00 80 00 FE 80 00 90 00 
  1095)       606.3  Rx         01A0  8  00 4B 00 00 00 FE 00 5A 
  1096)       606.5  Rx         01AC  8  86 85 00 00 69 01 FA 91 
  1097)       606.8  Rx         04A0  8  00 00 00 00 CC FF 00 00 
  1098)       607.0  Rx         04A8  8  06 80 F2 10 00 00 50 34 
  1099)       607.3  Rx         05A0  8  80 00 00 53 33 00 10 AB 
  1100)       607.8  Rx         0540  8  20 00 FF 00 FE 00 00 26 
  1101)       608.9  Rx         00C2  8  00 80 00 80 80 3A 00 C5 
  1102)       609.8  Rx         0300  8  29 25 00 00 11 30 20 21 
  1103)       610.0  Rx         00D0  6  54 50 0C 08 00 00 
  1104)       610.1  Rx         038A  4  75 01 74 00 
  1105)       610.3  Rx         03D0  6  01 82 00 10 A6 00 
  1106)       610.6  Rx         03D2  7  02 00 00 20 00 06 67 
  1107)       612.5  Rx         0280  8  01 11 7F 10 21 00 10 21 
  1108)       612.8  Rx         0288  8  8A AC 13 04 00 5D 92 11 
  1109)       613.0  Rx         0380  8  00 6A 00 E9 20 00 00 0F 
  1110)       613.6  Rx         0488  8  FE 21 21 80 FE FF FF 80 
  1111)       613.8  Rx         0440  8  00 80 00 FE 80 00 98 00 
  1112)       614.9  Rx         05E0  8  20 00 00 00 00 00 80 00 
  1113)       615.6  Rx         0300  3  1A FE FE 
  1114)       616.2  Rx         01A0  8  00 4B 00 00 00 FE 00 5B 
  1115)       616.4  Rx         04A0  8  00 00 00 00 CC FF 00 00 
  1116)       616.7  Rx         0284  6  0D 0D 00 00 00 00 
  1117)       616.9  Rx         0480  8  C2 20 70 08 19 00 06 85 
  1118)       617.1  Rx         0588  8  1B 7A 80 81 00 00 00 00 
  1119)       617.3  Rx         0760  1  BB 
  1120)       617.5  Rx         056A  8  61 00 08 00 1A 00 02 71 
  1121)       617.8  Rx         0050  4  00 F0 98 68 
  1122)       618.0  Rx         0540  8  30 00 FF 00 FE 00 00 26 
  1123)       618.1  Rx         0550  3  C0 C0 00 
  1124)       618.9  Rx         00C2  8  00 80 00 80 80 4A 00 B5 
  1125)       619.1  Rx         00D0  6  64 60 0C 08 00 00 
  1126)       620.9  Rx         05C0  8  C6 68 80 A6 21 01 88 20 
  1127)       621.6  Rx         0280  8  01 11 7F 10 21 00 10 21 
  1128)       621.8  Rx         0288  8  8A AC 13 04 00 5D 92 11 
  1129)       622.0  Rx         0380  8  00 6A 00 E3 20 00 00 0E 
  1130)       622.4  Rx         0320  8  24 80 14 01 00 04 00 87 
  1131)       622.6  Rx         0488  8  EE 21 21 80 FE FF FF 90 
  1132)       623.8  Rx         0440  8  00 80 00 FE 80 00 A0 00 
  1133)       625.6  Rx         0580  8  88 00 00 14 1C 93 48 14 
  1134)       626.2  Rx         01A0  8  00 4B 00 00 00 FE 00 5C 
  1135)       626.5  Rx         01AC  8  84 86 00 00 69 01 FB 91 
  1136)       626.8  Rx         04A0  8  00 00 00 00 CC FF 00 00 
  1137)       627.0  Rx         04A8  8  1F 80 F5 10 00 00 60 1A 
  1138)       627.3  Rx         05A0  8  80 00 00 63 33 00 10 AB 
  1139)       627.7  Rx         0540  8  40 00 FF 00 FE 00 00 2F 
  1140)       628.9  Rx         00C2  8  00 80 00 80 80 5A 00 A5 
  1141)       629.9  Rx         00D0  6  74 70 0C 08 00 00 
  1142)       630.1  Rx         038A  4  85 01 84 00 
  1143)       630.3  Rx         03D0  6  01 82 00 10 A7 00 
  1144)       630.5  Rx         03D2  7  03 00 00 20 00 07 67 
  1145)       632.6  Rx         0280  8  01 11 7F 10 21 00 10 21 
  1146)       632.8  Rx         0288  8  8A AC 13 04 00 5D 92 11 
  1147)       633.1  Rx         0380  8  00 6A 00 E3 20 00 00 0E 
  1148)       633.6  Rx         0488  8  DE 21 21 80 FE FF FF A0 
  1149)       633.9  Rx         0440  8  00 80 00 FE 80 00 A8 00 
  1150)       634.9  Rx         05E0  8  20 00 00 00 00 00 80 00 
  1151)       636.2  Rx         01A0  8  00 4B 00 00 00 FE 00 5D 
  1152)       636.4  Rx         04A0  8  00 00 00 00 CC FF 00 00 
  1153)       636.7  Rx         0284  6  0E 0E 00 00 00 00 
  1154)       636.9  Rx         0480  8  C2 20 7A 08 19 00 06 8F 
  1155)       637.2  Rx         0588  8  1B 7A 80 00 00 00 00 00 
  1156)       637.6  Rx         056A  8  91 00 08 00 1A 00 02 81 
  1157)       637.8  Rx         0540  8  50 00 FF 00 FE 00 00 2F 
  1158)       638.2  Rx         0050  4  00 F0 A8 58 
  1159)       638.9  Rx         00C2  8  00 80 00 80 80 6A 00 95 
  1160)       639.8  Rx         00D0  6  84 80 0C 08 00 00 
  1161)       640.1  Rx         0570  5  47 20 B6 59 80 
  1162)       640.3  Rx         0520  8  57 C4 00 79 0F 62 33 03 
  1163)       640.9  Rx         05C0  8  C7 68 80 A6 21 01 88 21 
  1164)       642.4  Rx         0320  8  24 80 14 01 00 05 00 87 
  1165)       642.6  Rx         0280  8  01 11 7D 10 20 00 10 21 
  1166)       642.9  Rx         0288  8  8A AC 13 04 00 5D 92 11 
  1167)       643.1  Rx         0380  8  00 6A 00 E0 20 00 00 0E 
  1168)       643.7  Rx         0488  8  CF 21 20 80 FE FF FF B0 
  1169)       643.9  Rx         0440  8  00 80 00 FE 80 00 B0 00 
  1170)       644.9  Rx         0390  8  6A 40 50 00 00 00 20 00 
  1171)       646.4  Rx         01A0  8  00 4B 00 00 00 FE 00 5E 
  1172)       646.7  Rx         01AC  8  84 87 00 00 69 01 FA 91 
  1173)       646.9  Rx         04A0  8  00 00 00 00 CC FF 00 00 
  1174)       647.2  Rx         04A8  8  00 00 F2 10 00 00 70 92 
  1175)       647.4  Rx         05A0  8  80 00 00 73 33 00 10 AB 
  1176)       647.8  Rx         0540  8  60 00 FF 00 FE 00 00 2F 
  1177)       649.0  Rx         00C2  8  00 80 00 80 80 7A 00 85 
  1178)       649.1  Rx         0760  1  A3 
  1179)       649.8  Rx         0300  6  A1 0F 8A FF 4A FF 
  1180)       650.0  Rx         05D0  8  C0 04 51 AF 29 48 01 00 
  1181)       650.2  Rx         00D0  6  94 90 0C 08 00 00 
  1182)       650.3  Rx         038A  4  95 01 94 00 
  1183)       650.6  Rx         03D0  6  01 82 00 10 A7 00 
  1184)       650.8  Rx         03D2  7  04 00 00 20 00 06 67 
  1185)       652.6  Rx         0280  8  01 11 7D 10 20 00 10 21 
  1186)       652.9  Rx         0288  8  E8 AC 13 04 00 5D 91 11 
  1187)       653.1  Rx         0380  8  00 6A 00 E0 20 00 00 0E 
  1188)       653.7  Rx         0488  8  BF 21 20 80 FE FF FF C0 
  1189)       653.9  Rx         0440  8  00 80 00 FE 80 00 B8 00 
  1190)       654.9  Rx         05E0  8  20 00 00 00 00 00 80 00 
  1191)       656.2  Rx         01A0  8  00 4B 00 00 00 FE 00 5F 
  1192)       656.4  Rx         04A0  8  00 00 00 00 CC FF 00 00 
  1193)       656.7  Rx         0480  8  C2 20 84 08 19 00 06 71 
  1194)       656.9  Rx         0284  6  0F 0F 00 00 00 00 
  1195)       657.1  Rx         0588  8  1B 7A 80 80 00 00 00 00 
  1196)       657.6  Rx         056A  8  81 00 08 00 1A 00 02 91 
  1197)       657.9  Rx         0540  8  70 00 FF 00 FE 00 00 2F 
  1198)       658.7  Rx         0050  4  00 F0 B8 48 
  1199)       659.0  Rx         00C2  8  00 80 00 80 80 8A 00 75 
  1200)       659.2  Rx         00D0  6  A4 A0 0C 08 00 00 
  1201)       659.9  Rx         05DC  8  77 18 C0 3F 1E 00 30 42 
  1202)       660.9  Rx         05C0  8  C8 68 80 A6 21 01 89 2F 
  1203)       661.7  Rx         0280  8  01 10 7D 10 20 00 10 21 
  1204)       661.9  Rx         0288  8  E8 AC 13 04 00 5D 91 11 
  1205)       662.1  Rx         0380  8  00 6A 00 DB 20 00 00 0E 
  1206)       662.5  Rx         0320  8  24 82 14 01 00 06 00 87 
  1207)       662.7  Rx         0488  8  AF 21 20 80 FE FF FF D0 
  1208)       663.8  Rx         0440  8  00 80 00 FE 80 00 C0 00 
  1209)       666.3  Rx         01A0  8  00 4B 00 00 00 FE 00 50 
  1210)       666.5  Rx         01AC  8  8B 88 00 00 69 01 FA 91 
  1211)       666.8  Rx         04A0  8  00 00 00 00 CC FF 00 00 
  1212)       667.1  Rx         04A8  8  0C 80 F2 10 00 00 80 EE 
  1213)       667.3  Rx         05A0  8  7F 00 00 83 33 00 10 AB 
  1214)       667.7  Rx         0540  8  80 00 FF 00 FE 00 00 26 
  1215)       668.1  Rx         05C6  8  05 94 19 10 00 00 00 13 
  1216)       669.0  Rx         00C2  8  00 80 00 80 80 9A 00 65 
  1217)       669.9  Rx         00D0  6  B4 B0 0C 08 00 00 
  1218)       670.1  Rx         038A  4  A5 01 A4 00 
  1219)       670.3  Rx         03D0  6  01 82 00 10 A7 00 
  1220)       670.5  Rx         03D2  7  05 00 00 20 00 06 67 
  1221)       671.2  Rx         05D2  8  02 50 31 30 31 33 39 37 
  1222)       672.7  Rx         0280  8  01 10 69 10 20 00 10 21 
  1223)       672.9  Rx         0288  8  E8 AC 13 04 00 5D 91 11 
  1224)       673.1  Rx         0380  8  00 6A 00 DB 20 00 00 0E 
  1225)       673.7  Rx         0488  8  9F 21 20 80 FE FF FF E0 
  1226)       674.0  Rx         0440  8  00 80 00 FE 80 00 C8 00 
  1227)       674.9  Rx         05E0  8  20 00 00 00 00 00 80 00 
  1228)       675.7  Rx         0480  8  1C 20 8E 08 19 00 06 A5 
  1229)       675.9  Rx         0284  6  00 00 00 00 00 00 
  1230)       676.2  Rx         0588  8  1B 7A 80 85 00 00 00 00 
  1231)       676.4  Rx         01A0  8  00 4B 00 00 00 FE 00 51 
  1232)       676.7  Rx         04A0  8  00 00 00 00 CC FF 00 00 
  1233)       676.9  Rx         056A  8  B1 00 08 00 1A 00 02 A1 
  1234)       677.7  Rx         0540  8  90 00 FF 00 FE 00 00 26 
  1235)       678.7  Rx         0572  1  07 
  1236)       679.1  Rx         00C2  8  00 80 00 80 80 AA 00 55 
  1237)       679.4  Rx         0050  4  00 F0 C8 38 
  1238)       679.9  Rx         00D0  6  C4 C0 0C 08 00 00 
  1239)       680.8  Rx         05C0  8  C9 68 80 A6 21 01 89 2E 
  1240)       682.3  Rx         0320  8  24 82 14 01 00 07 00 87 
  1241)       682.7  Rx         0280  8  01 10 69 10 20 00 10 20 
  1242)       682.9  Rx         0288  8  E8 AC 13 04 00 5D 91 10 
  1243)       683.2  Rx         0380  8  00 6A 00 D7 20 00 00 0E 
  1244)       683.7  Rx         0488  8  8E 20 20 80 FE FF FF F0 
  1245)       684.0  Rx         0440  8  00 80 00 FE 80 00 D0 00 
  1246)       686.2  Rx         01A0  8  00 4B 00 00 00 FE 00 52 
  1247)       686.5  Rx         01AC  8  8A 89 00 00 69 01 FA 91 
  1248)       686.8  Rx         04A0  8  00 00 00 00 CC FF 00 00 
  1249)       687.0  Rx         04A8  8  1F 80 F5 10 00 00 90 EA 
  1250)       687.3  Rx         05A0  8  80 00 00 93 33 00 10 AB 
  1251)       687.7  Rx         0540  8  A0 00 FF 00 FE 00 00 26 
  1252)       689.1  Rx         00C2  8  00 80 00 80 80 BA 00 45 
  1253)       689.9  Rx         00D0  6  D4 D0 0C 08 00 00 
  1254)       690.1  Rx         038A  4  B5 01 B4 00 
  1255)       690.3  Rx         03D0  6  01 82 00 10 A8 00 
  1256)       690.5  Rx         03D2  7  06 00 00 20 00 07 67 
  1257)       692.8  Rx         0280  8  01 11 69 10 20 00 10 20 
  1258)       693.0  Rx         0288  8  2C AC 13 04 00 5D 91 10 
  1259)       693.2  Rx         0380  8  00 6A 00 D7 20 00 00 0E 
  1260)       693.7  Rx         0440  8  00 80 00 FE 80 00 D8 00 
  1261)       694.0  Rx         0488  8  BF 20 20 80 FE FF 3E 00 
  1262)       694.9  Rx         05E0  8  20 00 00 00 00 00 80 00 
  1263)       696.1  Rx         01A0  8  00 4B 00 00 00 FE 00 53 
  1264)       696.4  Rx         04A0  8  00 00 00 00 CC FF 00 00 
  1265)       696.8  Rx         0480  8  1C 20 9C 08 19 00 06 B7 
  1266)       697.0  Rx         0284  6  01 01 00 00 00 00 
  1267)       697.2  Rx         0588  8  1B 78 80 00 00 00 00 00 
  1268)       697.7  Rx         0540  8  B0 00 FF 00 FE 00 00 26 
  1269)       697.9  Rx         056A  8  A1 00 08 00 1A 00 02 B1 
  1270)       699.1  Rx         00C2  8  00 80 00 80 80 CA 00 35 
  1271)       699.3  Rx         00D0  6  E4 E0 0C 08 00 00 
  1272)       699.8  Rx         0050  4  00 F0 D8 28 
  1273)       700.8  Rx         05C0  8  CA 68 80 A6 21 01 89 2D 
  1274)       701.8  Rx         0280  8  01 10 5D 10 20 00 10 20 
  1275)       702.0  Rx         0288  8  2C AC 13 04 00 5D 91 0F 
  1276)       702.2  Rx         0320  8  24 82 14 01 00 08 00 87 
  1277)       702.5  Rx         0380  8  00 6A 00 D4 20 00 00 0E 
  1278)       702.7  Rx         0488  8  B6 20 20 80 FE FF 27 10 
  1279)       703.8  Rx         0440  8  00 80 00 FE 80 00 E0 00 
  1280)       706.2  Rx         01A0  8  00 4B 00 00 00 FE 00 54 
  1281)       706.5  Rx         01AC  8  89 8A 00 00 69 01 FA 91 
  1282)       706.8  Rx         04A0  8  00 00 00 00 CC FF 00 00 
  1283)       707.0  Rx         04A8  8  00 00 F2 10 00 00 A0 42 
  1284)       707.3  Rx         05A0  8  80 00 00 A3 33 00 10 AB 
  1285)       707.7  Rx         0540  8  C0 00 FF 00 FE 00 00 2F 
  1286)       709.1  Rx         00C2  8  00 80 00 80 80 DA 00 25 
  1287)       709.9  Rx         00D0  6  F4 F0 0C 08 00 00 
  1288)       710.1  Rx         038A  4  C5 01 C4 00 
  1289)       710.3  Rx         03D0  6  01 82 00 10 A8 00 
  1290)       710.5  Rx         03D2  7  07 00 00 20 00 07 67 
  1291)       712.8  Rx         0280  8  01 0F 5D 10 20 00 10 20 
  1292)       713.0  Rx         0288  8  2C AC 13 04 00 5D 91 0F 
  1293)       713.2  Rx         0380  8  00 6A 00 D4 20 00 00 0E 
  1294)       713.8  Rx         0440  8  00 80 00 FE 80 00 E8 00 
  1295)       714.0  Rx         0488  8  D8 20 20 80 FE FF 79 20 
  1296)       714.9  Rx         05E0  8  20 00 00 00 00 00 80 00 
  1297)       716.1  Rx         01A0  8  00 4B 00 00 00 FE 00 55 
  1298)       716.4  Rx         04A0  8  00 00 00 00 CC FF 00 00 
  1299)       716.8  Rx         0480  8  1C 20 A9 08 19 00 06 82 
  1300)       717.0  Rx         0284  6  02 02 00 00 00 00 
  1301)       717.2  Rx         0588  8  1B 78 80 83 00 00 00 00 
  1302)       717.7  Rx         0540  8  D0 00 FF 00 FE 00 00 2F 
  1303)       717.9  Rx         056A  8  D1 00 08 00 1A 00 02 C1 
  1304)       719.1  Rx         00C2  8  00 80 00 80 80 EA 00 15 
  1305)       719.9  Rx         00D0  6  04 00 0C 08 00 00 
  1306)       720.1  Rx         0050  4  00 F0 E8 18 
  1307)       720.8  Rx         05C0  8  CB 68 80 A6 21 01 89 2C 
  1308)       722.2  Rx         0320  8  24 82 14 01 00 09 00 8F 
  1309)       722.8  Rx         0280  8  01 11 5D 10 1F 00 10 20 
  1310)       723.0  Rx         0288  8  2C AC 13 04 00 5D 91 0F 
  1311)       723.3  Rx         0380  8  00 6A 00 D0 20 00 00 0E 
  1312)       723.8  Rx         0440  8  00 80 00 FE 80 00 F0 00 
  1313)       724.0  Rx         0488  8  86 20 1F 80 FE FF 08 30 
  1314)       726.2  Rx         01A0  8  00 4B 00 00 00 FE 00 56 
  1315)       726.5  Rx         01AC  8  89 8B 00 00 69 01 FB 91 
  1316)       726.8  Rx         04A0  8  00 00 00 00 CC FF 00 00 
  1317)       727.0  Rx         04A8  8  25 80 F2 10 00 00 B0 F7 
  1318)       727.3  Rx         05A0  8  80 00 00 B3 33 00 10 AB 
  1319)       727.7  Rx         0540  8  E0 00 FF 00 FE 00 00 2F 
  1320)       729.2  Rx         00C2  8  00 80 00 80 80 FA 00 05 
  1321)       729.9  Rx         00D0  6  14 10 0C 08 00 00 
  1322)       730.1  Rx         038A  4  D5 01 D4 00 
  1323)       730.2  Rx         03D0  6  01 82 00 10 A9 00 
  1324)       730.5  Rx         03D2  7  08 00 00 20 00 06 67 
  1325)       732.8  Rx         0280  8  01 10 49 10 1F 00 10 20 
  1326)       733.1  Rx         0288  8  64 AC 13 04 00 5D 91 0E 
  1327)       733.3  Rx         0380  8  00 6A 00 D0 20 00 00 0E 
  1328)       733.8  Rx         0440  8  00 80 00 FE 80 00 F8 00 
  1329)       734.0  Rx         0488  8  D8 20 1F 80 FE FF 26 40 
  1330)       734.9  Rx         05E0  8  20 00 00 00 00 00 80 00 
  1331)       735.9  Rx         0480  8  1C 20 B6 08 19 00 06 9D 
  1332)       736.1  Rx         0284  6  03 03 00 00 00 00 
  1333)       736.3  Rx         01A0  8  00 4B 00 00 00 FE 00 57 
  1334)       736.5  Rx         0588  8  1B 78 80 85 00 00 00 00 
  1335)       736.8  Rx         04A0  8  00 00 00 00 CC FF 00 00 
  1336)       737.0  Rx         056A  8  C1 00 08 00 1A 00 02 D1 
  1337)       737.7  Rx         0540  8  F0 00 FF 00 FE 00 00 2F 
  1338)       739.1  Rx         00D0  6  24 20 0C 08 00 00 
  1339)       739.3  Rx         00C2  8  00 80 00 80 80 0A 00 F5 
  1340)       739.9  Rx         0570  5  47 20 B7 58 80 
  1341)       740.1  Rx         0420  8  9A 98 A4 00 00 00 FF 00 
  1342)       740.6  Rx         0050  4  00 F0 F8 08 
  1343)       740.8  Rx         05C0  8  CC 68 80 A6 21 01 89 2B 
  1344)       742.4  Rx         0320  8  24 82 14 01 00 0A 00 8F 
  1345)       742.9  Rx         0280  8  01 10 49 10 1F 00 11 20 
  1346)       743.1  Rx         0288  8  64 AC 13 04 00 5D 91 0F 
  1347)       743.3  Rx         0380  8  00 6A 00 CD 20 00 00 0E 
  1348)       743.8  Rx         0440  8  00 80 00 FE 80 00 80 00 
  1349)       744.0  Rx         0488  8  11 20 1F 80 FE FF FF 50 
  1350)       744.9  Rx         0390  8  6A 40 50 00 00 00 20 00 
  1351)       746.3  Rx         01A0  8  00 4B 00 00 00 FE 00 58 
  1352)       746.5  Rx         01AC  8  8C 8C 00 00 69 01 F9 91 
  1353)       746.8  Rx         04A0  8  00 00 00 00 CC FF 00 00 
  1354)       747.1  Rx         04A8  8  0C 00 F2 10 00 00 C0 2E 
  1355)       747.3  Rx         05A0  8  80 00 00 C3 33 00 10 AB 
  1356)       747.7  Rx         0540  8  00 00 FF 00 FE 00 00 26 
  1357)       749.2  Rx         00C2  8  00 80 00 80 80 1A 00 E5 
  1358)       749.9  Rx         05D0  8  C0 04 51 AF 29 48 01 00 
  1359)       750.1  Rx         00D0  6  34 30 0C 08 00 00 
  1360)       750.2  Rx         038A  4  E5 01 E4 00 
  1361)       750.4  Rx         03D0  6  01 82 00 10 A9 00 
  1362)       750.7  Rx         03D2  7  09 00 00 20 00 07 67 
  1363)       752.9  Rx         0280  8  01 11 49 10 1F 00 11 20 
  1364)       753.1  Rx         0288  8  64 AC 13 04 00 5D 91 0F 
  1365)       753.3  Rx         0380  8  00 6A 00 CD 20 00 00 0E 
  1366)       753.8  Rx         0440  8  00 80 00 FE 80 00 88 00 
  1367)       754.1  Rx         0488  8  21 20 1F 80 FE FF FF 60 
  1368)       754.9  Rx         05E0  8  20 00 00 00 00 00 80 00 
  1369)       756.2  Rx         01A0  8  00 4B 00 00 00 FE 00 59 
  1370)       756.4  Rx         04A0  8  00 00 00 00 CC FF 00 00 
  1371)       756.9  Rx         0480  8  54 20 C3 08 19 00 06 A0 
  1372)       757.1  Rx         0284  6  04 04 00 00 00 00 
  1373)       757.3  Rx         0588  8  1B 78 80 83 00 00 00 00 
  1374)       757.7  Rx         0540  8  10 00 FF 00 FE 00 00 26 
  1375)       758.0  Rx         056A  8  F1 00 08 00 1A 00 02 E1 
  1376)       759.3  Rx         00C2  8  00 80 00 80 80 2A 00 D5 
  1377)       759.9  Rx         05DC  8  77 18 C0 3F 1E 00 30 42 
  1378)       760.1  Rx         00D0  6  44 40 0C 08 00 00 
  1379)       760.8  Rx         05C0  8  CD 68 80 A6 21 01 89 2A 
  1380)       761.1  Rx         0050  4  00 F0 08 F8 
  1381)       762.5  Rx         0320  8  24 82 14 01 00 0B 00 8F 
  1382)       762.9  Rx         0280  8  01 11 3B 10 1F 00 11 1F 
  1383)       763.1  Rx         0288  8  64 AC 13 04 00 5D 91 0F 
  1384)       763.4  Rx         0380  8  00 6A 00 CA 20 00 00 0E 
  1385)       763.8  Rx         0440  8  00 80 00 FE 80 00 90 00 
  1386)       764.1  Rx         0488  8  0E 1F 1F 80 FE FF FF 70 
  1387)       766.3  Rx         01A0  8  00 4B 00 00 00 FE 00 5A 
  1388)       766.5  Rx         01AC  8  8D 8D 00 00 69 01 F9 91 
  1389)       766.8  Rx         04A0  8  00 00 00 00 CC FF 00 00 
  1390)       767.0  Rx         04A8  8  0C 80 F2 10 00 00 D0 BE 
  1391)       767.3  Rx         05A0  8  80 00 00 D3 33 00 10 AB 
  1392)       767.7  Rx         0540  8  20 00 FF 00 FE 00 00 26 
  1393)       768.3  Rx         05C6  8  05 94 19 10 00 00 00 13 
  1394)       769.3  Rx         00C2  8  00 80 00 80 80 3A 00 C5 
  1395)       769.9  Rx         00D0  6  54 50 0C 08 00 00 
  1396)       770.1  Rx         03D0  6  01 82 00 10 A9 00 
  1397)       770.2  Rx         038A  4  F5 01 F4 00 
  1398)       770.5  Rx         03D2  7  0A 00 00 20 00 06 67 
  1399)       772.9  Rx         0280  8  01 11 3B 10 1F 00 11 1F 
  1400)       773.1  Rx         0288  8  8A AC 13 04 00 5D 91 0F 
  1401)       773.4  Rx         0380  8  00 6A 00 CA 20 00 00 0E 
  1402)       773.8  Rx         0440  8  00 80 00 FE 80 00 98 00 
  1403)       774.1  Rx         0488  8  FE 1F 1F 80 FE FF FF 80 
  1404)       774.9  Rx         05E0  8  20 00 00 00 00 00 80 00 
  1405)       776.1  Rx         01A0  8  00 4B 00 00 00 FE 00 5B 
  1406)       776.3  Rx         04A0  8  00 00 00 00 CC FF 00 00 
  1407)       776.9  Rx         0480  8  54 20 D1 08 19 00 06 B2 
  1408)       777.1  Rx         0284  6  05 05 00 00 00 00 
  1409)       777.4  Rx         0588  8  1B 78 80 00 00 00 00 00 
  1410)       777.7  Rx         0540  8  30 00 FF 00 FE 00 00 26 
  1411)       778.0  Rx         056A  8  E1 00 08 00 1A 00 02 F1 
  1412)       778.8  Rx         0572  1  07 
  1413)       779.1  Rx         00D0  6  63 60 0B 08 00 00 
  1414)       779.4  Rx         00C2  8  00 80 00 80 80 4A 00 B5 
  1415)       780.8  Rx         05C0  8  CE 68 80 A6 21 01 89 29 
  1416)       781.6  Rx         0050  4  00 F0 18 E8 
  1417)       781.9  Rx         0280  8  01 11 3B 10 1F 00 11 1F 
  1418)       782.2  Rx         0288  8  8A AC 13 04 00 5D 91 0F 
  1419)       782.4  Rx         0320  8  24 82 14 01 00 0C 00 8F 
  1420)       782.7  Rx         0380  8  00 6A 00 C7 20 00 00 0E 
  1421)       782.9  Rx         0488  8  EE 1F 1F 80 FE FF FF 90 
  1422)       783.8  Rx         0440  8  00 80 00 FE 80 00 A0 00 
  1423)       786.2  Rx         01A0  8  00 4B 00 00 00 FE 00 5C 
  1424)       786.4  Rx         01AC  8  8C 8E 00 00 69 01 FB 91 
  1425)       786.7  Rx         04A0  8  00 00 00 00 CC FF 00 00 
  1426)       787.0  Rx         04A8  8  1F 80 F2 10 00 00 E0 9D 
  1427)       787.2  Rx         05A0  8  80 00 00 E3 33 00 10 AB 
  1428)       787.7  Rx         0540  8  40 00 FF 00 FE 00 00 2F 
  1429)       789.3  Rx         00C2  8  00 80 00 80 80 5A 00 A5 
  1430)       789.9  Rx         00D0  6  74 70 0C 08 00 00 
  1431)       790.1  Rx         03D0  6  01 82 00 10 AA 00 
  1432)       790.3  Rx         038A  4  05 01 04 00 
  1433)       790.5  Rx         03D2  7  0B 00 00 20 00 06 67 
  1434)       791.9  Rx         0280  8  01 11 1D 10 1F 00 11 1F 
  1435)       792.2  Rx         0288  8  8A AC 13 04 00 5D 91 0F 
  1436)       792.4  Rx         0380  8  00 6A 00 C7 20 00 00 0E 
  1437)       793.0  Rx         0488  8  DE 1F 1F 80 FE FF FF A0 
  1438)       793.8  Rx         0440  8  00 80 00 FE 80 00 A8 00 
  1439)       794.9  Rx         05E0  8  20 00 00 00 00 00 80 00 
  1440)       796.0  Rx         0480  8  54 20 DA 08 19 00 06 B9 
  1441)       796.2  Rx         01A0  8  00 4B 00 00 00 FE 00 5D 
  1442)       796.4  Rx         0284  6  06 06 00 00 00 00 
  1443)       796.7  Rx         04A0  8  00 00 00 00 CC FF 00 00 
  1444)       796.9  Rx         0588  8  1B 75 80 87 00 00 00 00 
  1445)       797.2  Rx         056A  8  11 00 08 00 1A 00 02 01 
  1446)       797.7  Rx         0540  8  50 00 FF 00 FE 00 00 2F 
  1447)       799.4  Rx         00C2  8  00 80 00 80 80 6A 00 95 
  1448)       799.9  Rx         00D0  6  84 80 0C 08 00 00 
  1449)       800.8  Rx         05C0  8  CF 68 80 A6 21 01 89 28 
  1450)       802.2  Rx         0320  8  24 82 14 01 00 0D 00 8F 
  1451)       802.4  Rx         0050  4  00 F0 28 D8 
  1452)       803.0  Rx         0280  8  01 11 1D 10 1F 00 11 1F 
  1453)       803.2  Rx         0288  8  8A AC 13 04 00 5D 90 0F 
  1454)       803.5  Rx         0380  8  00 6A 00 C4 20 00 00 0E 
  1455)       803.8  Rx         0440  8  00 80 00 FE 80 00 B0 00 
  1456)       804.1  Rx         0488  8  CE 1F 1F 80 FE FF FF B0 
  1457)       806.2  Rx         01A0  8  00 4B 00 00 00 FE 00 5E 
  1458)       806.4  Rx         01AC  8  8D 8F 00 00 69 01 FB 91 
  1459)       806.7  Rx         04A0  8  00 00 00 00 CC FF 00 00 
  1460)       807.0  Rx         04A8  8  00 00 F2 10 00 00 F0 12 
  1461)       807.2  Rx         05A0  8  80 00 00 F3 33 00 10 AB 
  1462)       807.7  Rx         0540  8  60 00 FF 00 FE 00 00 2F 
  1463)       809.4  Rx         00C2  8  00 80 00 80 80 7A 00 85 
  1464)       809.9  Rx         00D0  6  94 90 0C 08 00 00 
  1465)       810.1  Rx         03D0  6  01 82 00 10 AA 00 
  1466)       810.2  Rx         038A  4  15 01 14 00 
  1467)       810.5  Rx         03D2  7  0C 00 00 20 00 07 67 
  1468)       813.0  Rx         0280  8  01 12 14 10 1F 00 11 1F 
  1469)       813.3  Rx         0288  8  E8 AC 13 04 00 5D 90 0F 
  1470)       813.5  Rx         0380  8  00 6A 00 C4 20 00 00 0E 
  1471)       813.8  Rx         0440  8  00 80 00 FE 80 00 B8 00 
  1472)       814.1  Rx         0488  8  BE 1F 1F 80 FE FF FF C0 
  1473)       814.9  Rx         05E0  8  20 00 00 00 00 00 80 00 
  1474)       816.1  Rx         01A0  8  00 4B 00 00 00 FE 00 5F 
  1475)       816.3  Rx         04A0  8  00 00 00 00 CC FF 00 00 
  1476)       817.0  Rx         0480  8  54 20 E3 08 19 00 06 80 
  1477)       817.2  Rx         0284  6  07 07 00 00 00 00 
  1478)       817.5  Rx         0588  8  1B 75 80 82 00 00 00 00 
  1479)       817.7  Rx         0540  8  70 00 FF 00 FE 00 00 2F 
  1480)       818.0  Rx         056A  8  01 00 08 00 1A 00 02 11 
  1481)       819.1  Rx         00D0  6  A4 A0 0C 08 00 00 
  1482)       819.4  Rx         00C2  8  00 80 00 80 80 8A 00 75 
  1483)       820.8  Rx         05C0  8  C0 68 80 A6 21 01 89 27 
  1484)       822.0  Rx         0280  8  01 12 14 10 1F 00 11 1F 
  1485)       822.2  Rx         0288  8  E8 AC 13 04 00 5D 90 0E 
  1486)       822.5  Rx         0320  8  24 82 14 01 00 0E 00 8F 
  1487)       822.7  Rx         0050  4  00 F0 38 C8 
  1488)       822.9  Rx         0380  8  00 6A 00 C2 20 00 00 0E 
  1489)       823.2  Rx         0488  8  AE 1F 1F 80 FE FF FF D0 
  1490)       823.3  Rx         0550  3  C0 C0 00 
  1491)       823.8  Rx         0440  8  00 80 00 FE 80 00 C0 00 
  1492)       826.2  Rx         01A0  8  00 4B 00 00 00 FE 00 50 
  1493)       826.4  Rx         01AC  8  83 80 00 00 69 01 FA 91 
  1494)       826.7  Rx         04A0  8  00 00 00 00 CC FF 00 00 
  1495)       826.9  Rx         04A8  8  0C 00 ED 10 00 00 00 F1 
  1496)       827.2  Rx         05A0  8  80 00 00 03 33 00 10 AB 
  1497)       827.7  Rx         0540  8  80 00 FF 00 FE 00 00 26 
  1498)       829.4  Rx         00C2  8  00 80 00 80 80 9A 00 65 
  1499)       830.0  Rx         00D0  6  B4 B0 0C 08 00 00 
  1500)       830.1  Rx         03D0  6  01 82 00 10 AB 00 
  1501)       830.3  Rx         038A  4  25 01 24 00 
  1502)       830.5  Rx         03D2  7  0D 00 00 20 00 06 67 
  1503)       833.0  Rx         0280  8  01 12 14 10 1F 00 11 1F 
  1504)       833.3  Rx         0288  8  E8 AC 13 04 00 5D 90 0E 
  1505)       833.5  Rx         0380  8  00 6A 00 C2 20 00 00 0E 
  1506)       833.8  Rx         0440  8  00 80 00 FE 80 00 C8 00 
  1507)       834.1  Rx         0488  8  9E 1F 1F 80 FE FF FF E0 
  1508)       834.9  Rx         05E0  8  20 00 00 00 00 00 80 00 
  1509)       836.1  Rx         01A0  8  00 4B 00 00 00 FE 00 51 
  1510)       836.4  Rx         04A0  8  00 00 00 00 CC FF 00 00 
  1511)       837.1  Rx         0480  8  84 20 EC 08 19 00 06 5F 
  1512)       837.3  Rx         0284  6  08 08 00 00 00 00 
  1513)       837.5  Rx         0588  8  1B 75 80 00 00 00 00 00 
  1514)       837.7  Rx         0540  8  90 00 FF 00 FE 00 00 26 
  1515)       838.1  Rx         056A  8  31 00 08 00 1A 00 02 21 
  1516)       839.4  Rx         00C2  8  00 80 00 80 80 AA 00 55 
  1517)       839.8  Rx         00D0  6  C4 C0 0C 08 00 00 
  1518)       840.0  Rx         0570  5  47 20 B7 58 80 
  1519)       840.3  Rx         0520  8  02 02 00 79 0F 62 33 03 
  1520)       840.8  Rx         05C0  8  C1 68 80 A6 21 01 89 26 
  1521)       842.4  Rx         0320  8  24 82 14 01 00 0F 00 8F 
  1522)       843.1  Rx         0280  8  01 12 05 10 1E 00 11 1F 
  1523)       843.3  Rx         0050  4  00 F0 48 B8 
  1524)       843.5  Rx         0288  8  E8 AC 13 04 00 5D 90 0E 
  1525)       843.7  Rx         0380  8  00 6A 00 C0 20 00 00 0E 
  1526)       844.0  Rx         0440  8  00 80 00 FE 80 00 D0 00 
  1527)       844.2  Rx         0488  8  8F 1F 1E 80 FE FF FF F0 
  1528)       844.9  Rx         0390  8  6A 40 50 00 00 00 20 00 
  1529)       846.3  Rx         01A0  8  00 4B 00 00 00 FE 00 52 
  1530)       846.6  Rx         01AC  8  82 81 00 00 69 01 FA 91 
  1531)       846.8  Rx         04A0  8  00 00 00 00 CC FF 00 00 
  1532)       847.1  Rx         04A8  8  25 80 F2 10 00 00 10 57 
  1533)       847.3  Rx         05A0  8  80 00 00 13 33 00 10 AB 
  1534)       847.8  Rx         0540  8  A0 00 FF 00 FE 00 00 26 
  1535)       849.5  Rx         00C2  8  00 80 00 80 80 BA 00 45 
  1536)       849.9  Rx         05D0  8  C0 04 51 AF 29 48 01 00 
  1537)       850.1  Rx         00D0  6  D4 D0 0C 08 00 00 
  1538)       850.3  Rx         038A  4  35 01 34 00 
  1539)       850.5  Rx         03D0  6  01 82 00 10 AB 00 
  1540)       850.7  Rx         03D2  7  0E 00 00 20 00 06 67 
  1541)       853.0  Rx         0760  5  19 00 02 21 0C 
  1542)       853.3  Rx         0280  8  01 12 05 10 1E 00 11 1F 
  1543)       853.5  Rx         0288  8  2C AC 13 04 00 5D 90 0E 
  1544)       853.7  Rx         0380  8  00 6A 00 C0 20 00 00 0E 
  1545)       853.9  Rx         0300  1  BA 
  1546)       854.1  Rx         0440  8  00 80 00 FE 80 00 D8 00 
  1547)       854.3  Rx         0488  8  B9 1F 1E 80 FE FF 39 00 
  1548)       854.9  Rx         05E0  8  20 00 00 00 00 00 80 00 
  1549)       856.1  Rx         01A0  8  00 4B 00 00 00 FE 00 53 
  1550)       856.3  Rx         0284  6  09 09 00 00 00 00 
