;$FILEVERSION=1.1
;$STARTTIME=45439.5139185185
;
;   Start time: 5/27/2024 12:20:02.560.0
;   Generated by PCAN-View v4.3.4.615
;
;   Message Number
;   |         Time Offset (ms)
;   |         |        Type
;   |         |        |        ID (hex)
;   |         |        |        |     Data Length
;   |         |        |        |     |   Data Bytes (hex) ...
;   |         |        |        |     |   |
;---+--   ----+----  --+--  ----+---  +  -+ -- -- -- -- -- -- --
     1)         0.5  Rx         0280  8  01 00 00 00 00 00 52 40 
     2)         0.7  Rx         02DE  8  0F 08 01 00 98 83 05 C8 
     3)         0.9  Rx         02D1  7  00 00 00 03 31 53 02 
     4)         1.4  Rx         0251  8  10 00 00 20 00 EF 12 30 
     5)         1.6  Rx         06F7  8  00 00 00 00 00 00 00 00 
     6)         1.9  Rx         0253  8  03 4A FF 00 00 00 00 00 
     7)         2.7  Rx         0002  5  73 00 00 07 03 
     8)         6.5  Rx         02A5  7  00 00 00 20 00 00 00 
     9)         7.7  Rx         0215  6  FF F0 FF 00 FF FF 
    10)         7.9  Rx         0216  1  40 
    11)         8.3  Rx         01F9  8  20 00 15 95 00 00 4D 00 
    12)         8.5  Rx         0231  8  D3 90 00 D3 D3 C2 4C 9E 
    13)         8.8  Rx         0233  8  78 A5 00 10 DD 00 00 00 
    14)         9.1  Rx         023D  8  23 00 00 DD 00 9A 01 78 
    15)         9.3  Rx         023E  8  02 60 FF 9A 01 D1 00 81 
    16)         9.5  Rx         0551  8  6E 9E 00 80 00 02 80 FF 
    17)         9.7  Rx         0794  3  00 00 01 
    18)        10.4  Rx         02DE  8  0F 08 02 00 98 B9 05 C8 
    19)        10.6  Rx         02D1  7  00 00 00 00 31 53 02 
    20)        11.4  Rx         0251  8  10 00 00 20 00 2F 13 35 
    21)        11.6  Rx         06F7  8  00 00 00 00 00 00 00 01 
    22)        11.9  Rx         0253  8  00 4A FF 00 00 00 00 00 
    23)        12.6  Rx         0284  8  00 00 00 00 00 00 A4 2A 
    24)        12.7  Rx         0002  5  74 00 00 07 04 
    25)        13.0  Rx         0285  8  00 00 00 00 00 00 A4 2B 
    26)        13.2  Rx         029E  8  D3 00 00 40 00 FD 00 B0 
    27)        13.4  Rx         02A0  5  C1 7F F4 7F FF 
    28)        16.5  Rx         02A5  7  00 00 00 20 00 00 00 
    29)        18.6  Rx         01F9  8  20 00 15 95 00 00 4D 00 
    30)        18.9  Rx         0231  8  D3 A0 00 D3 D3 C2 4C 9E 
    31)        19.1  Rx         0233  8  78 A5 00 10 DD 00 00 00 
    32)        19.4  Rx         023D  8  43 00 00 DD 00 9A 01 78 
    33)        19.6  Rx         023E  8  02 60 FF 9A 01 D1 00 72 
    34)        19.8  Rx         0551  8  6E 9E 00 80 00 02 80 FF 
    35)        20.0  Rx         0794  3  00 00 02 
    36)        20.5  Rx         0280  8  01 00 00 00 00 00 52 40 
    37)        20.8  Rx         02DE  8  0F 08 03 00 98 EF 05 C8 
    38)        21.0  Rx         02D1  7  00 00 00 01 31 53 02 
    39)        21.3  Rx         0251  8  10 00 00 20 00 6F 14 31 
    40)        21.6  Rx         0253  8  01 4A FF 00 00 00 00 00 
    41)        21.8  Rx         06F7  8  00 00 00 00 00 00 00 02 
    42)        22.4  Rx         0002  5  73 00 00 07 65 
    43)        26.5  Rx         02A5  7  00 00 00 20 00 00 00 
    44)        27.7  Rx         0215  6  FF F0 FF 00 FF FF 
    45)        27.9  Rx         0216  1  40 
    46)        28.9  Rx         01F9  8  20 00 15 95 00 00 4D 00 
    47)        29.1  Rx         0231  8  D3 B0 00 D3 D3 C2 4C 9E 
    48)        29.4  Rx         0233  8  78 A5 00 10 DD 00 00 00 
    49)        29.6  Rx         023D  8  63 00 00 DD 00 9A 01 78 
    50)        29.8  Rx         023E  8  02 60 FF 9A 01 D1 00 73 
    51)        30.0  Rx         0551  8  6E 9E 00 80 00 02 80 FF 
    52)        30.2  Rx         0794  3  00 00 03 
    53)        30.5  Rx         02DE  8  0F 08 00 00 99 25 05 C8 
    54)        30.7  Rx         02D1  7  00 00 00 02 31 53 02 
    55)        31.4  Rx         0251  8  10 00 00 20 00 AF 15 37 
    56)        31.6  Rx         0253  8  02 4A FF 00 00 00 00 00 
    57)        31.9  Rx         06F7  8  00 00 00 00 00 00 00 03 
    58)        32.4  Rx         0002  5  74 00 01 07 36 
    59)        32.7  Rx         0284  8  00 00 00 00 00 00 A5 2B 
    60)        32.9  Rx         0285  8  00 00 00 00 00 00 A5 2C 
    61)        33.1  Rx         029E  8  D3 00 00 40 00 FC 01 B0 
    62)        33.3  Rx         02A0  5  BF 7F F2 7F FF 
    63)        33.6  Rx         0354  8  00 00 00 00 00 00 14 00 
    64)        36.5  Rx         02A5  7  00 00 00 20 00 00 00 
    65)        39.0  Rx         01F9  8  20 00 15 95 00 00 4D 00 
    66)        39.3  Rx         0231  8  D3 80 00 D3 D3 C2 4C 9E 
    67)        39.5  Rx         0233  8  78 A5 00 10 DD 00 00 00 
    68)        39.7  Rx         023D  8  03 00 00 DD 00 9A 01 78 
    69)        40.0  Rx         023E  8  02 60 FF 9A 01 D1 00 80 
    70)        40.2  Rx         035D  8  C0 03 00 00 00 00 00 00 
    71)        40.4  Rx         0551  8  6E 9F 00 80 00 02 80 FF 
    72)        40.7  Rx         0280  8  01 00 00 00 00 00 52 40 
    73)        40.9  Rx         02DE  8  0F 08 01 00 99 5B 05 C8 
    74)        41.1  Rx         02D1  7  00 00 00 03 31 53 02 
    75)        41.4  Rx         0251  8  10 00 00 20 00 EF 16 DE 
    76)        41.5  Rx         0794  3  00 00 00 
    77)        41.8  Rx         0253  8  03 4A FF 00 00 00 00 00 
    78)        42.0  Rx         06F7  8  00 00 00 00 00 00 00 00 
    79)        42.4  Rx         0002  5  73 00 01 07 57 
    80)        46.6  Rx         02A5  7  00 00 00 20 00 00 00 
    81)        47.7  Rx         0215  6  FF F0 FF 00 FF FF 
    82)        47.9  Rx         0216  1  40 
    83)        48.3  Rx         0625  6  32 00 FF 1D 00 00 
    84)        49.3  Rx         01F9  8  20 00 15 95 00 00 4D 00 
    85)        49.6  Rx         0231  8  D3 90 00 D3 D3 C2 4C 9E 
    86)        49.8  Rx         0233  8  78 A5 00 10 DD 00 00 00 
    87)        50.1  Rx         023D  8  23 00 00 DD 00 9A 01 78 
    88)        50.3  Rx         023E  8  02 60 FF 9A 01 D1 00 71 
    89)        50.5  Rx         0551  8  6E 9F 00 80 00 02 80 FF 
    90)        50.7  Rx         0794  3  00 00 01 
    91)        50.9  Rx         02DE  8  0F 08 02 00 99 91 05 C8 
    92)        51.1  Rx         02D1  7  00 00 00 00 31 53 02 
    93)        51.4  Rx         0251  8  10 00 00 20 00 2F 17 87 
    94)        51.6  Rx         0253  8  00 4A FF 00 00 00 00 00 
    95)        51.9  Rx         06F7  8  00 00 00 00 00 00 00 01 
    96)        52.1  Rx         0002  5  74 00 00 07 C8 
    97)        52.5  Rx         0284  8  00 00 00 00 00 00 A6 2C 
    98)        52.8  Rx         0285  8  00 00 00 00 00 00 A6 2D 
    99)        53.0  Rx         029E  8  D3 00 00 40 00 FC 02 B1 
   100)        53.2  Rx         02A0  5  C0 7F F6 7F FF 
   101)        56.6  Rx         02A5  7  00 00 00 20 00 00 00 
   102)        59.4  Rx         01F9  8  20 00 15 AE 00 00 4D 00 
   103)        59.7  Rx         0231  8  D3 A0 00 D3 D3 C2 4C 9E 
   104)        60.0  Rx         0233  8  78 A6 00 10 DE 00 00 00 
   105)        60.2  Rx         023D  8  43 00 00 DE 00 9A 01 78 
   106)        60.4  Rx         023E  8  02 60 FF 9A 01 D1 00 72 
   107)        60.6  Rx         0551  8  6E 9F 00 80 00 02 80 FF 
   108)        60.9  Rx         0580  8  00 AA 40 00 00 00 00 00 
   109)        61.1  Rx         0280  8  01 00 00 00 00 00 52 40 
   110)        61.4  Rx         0251  8  10 00 00 20 00 6F 40 00 
   111)        61.6  Rx         02DE  8  0F 08 03 00 99 C7 05 C8 
   112)        61.9  Rx         0253  8  01 4A FF 00 00 00 00 00 
   113)        62.1  Rx         02D1  7  00 00 00 01 31 53 02 
   114)        62.3  Rx         0002  5  73 00 00 07 A9 
   115)        62.5  Rx         05C5  8  40 00 00 00 00 0C 00 00 
   116)        62.7  Rx         06F7  8  00 00 00 00 00 00 00 02 
   117)        62.9  Rx         0794  3  00 00 02 
   118)        66.6  Rx         02A5  7  00 00 00 20 00 00 00 
   119)        67.7  Rx         0215  6  FF F0 FF 00 FF FF 
   120)        67.9  Rx         0216  1  40 
   121)        69.1  Rx         0385  7  84 00 B2 9A 92 A2 F0 
   122)        69.7  Rx         01F9  8  20 00 15 AE 00 00 4D 00 
   123)        70.0  Rx         0231  8  D3 B0 00 D3 D3 C2 4C 9E 
   124)        70.2  Rx         0233  8  78 A6 00 10 DE 00 00 00 
   125)        70.4  Rx         023D  8  63 00 00 DE 00 9A 01 78 
   126)        70.6  Rx         023E  8  02 60 FF 9A 01 D1 00 73 
   127)        70.9  Rx         02DE  8  0F 08 00 00 99 FD 05 C8 
   128)        71.1  Rx         02D1  7  00 00 00 02 31 53 02 
   129)        71.4  Rx         0251  8  10 00 00 20 00 AF 41 00 
   130)        71.6  Rx         0551  8  6E 9F 00 80 00 02 80 FF 
   131)        71.8  Rx         0253  8  02 4A FF 00 00 00 00 00 
   132)        72.1  Rx         06F7  8  00 00 00 00 00 00 00 03 
   133)        72.3  Rx         0002  5  73 00 00 07 9A 
   134)        72.5  Rx         0284  8  00 00 00 00 00 00 A7 2D 
   135)        72.8  Rx         0285  8  00 00 00 00 00 00 A7 2E 
   136)        73.0  Rx         029E  8  D3 00 00 40 00 FD 03 B3 
   137)        73.2  Rx         02A0  5  C2 7F F5 7F FF 
   138)        73.4  Rx         0354  8  00 00 00 00 00 00 14 00 
   139)        73.6  Rx         0794  3  00 00 03 
   140)        76.6  Rx         02A5  7  00 00 00 20 00 00 00 
   141)        79.9  Rx         01F9  8  20 00 15 AE 00 00 4D 00 
   142)        80.1  Rx         0231  8  D3 80 00 D3 D3 C2 4C 9E 
   143)        80.4  Rx         0233  8  78 A6 00 10 DE 00 00 00 
   144)        80.6  Rx         023D  8  03 00 00 DE 00 9A 01 78 
   145)        80.9  Rx         023E  8  02 60 FF 9A 01 D1 00 70 
   146)        81.1  Rx         0280  8  01 00 00 00 00 00 52 40 
   147)        81.4  Rx         0251  8  10 00 00 20 00 EF 42 00 
   148)        81.6  Rx         02DE  8  0F 08 01 00 9A 33 05 C8 
   149)        81.8  Rx         0253  8  03 4A FF 00 00 00 00 00 
   150)        82.0  Rx         0002  5  73 00 00 07 8B 
   151)        82.3  Rx         02D1  7  00 00 00 03 31 53 02 
   152)        82.5  Rx         0551  8  6E 9F 00 80 00 02 80 FF 
   153)        82.7  Rx         06F7  8  00 00 00 00 00 00 00 00 
   154)        82.9  Rx         0794  3  00 00 00 
   155)        86.6  Rx         02A5  7  00 00 00 20 00 00 00 
   156)        87.7  Rx         0215  6  FF F0 FF 00 FF FF 
   157)        88.0  Rx         0216  1  40 
   158)        90.2  Rx         01F9  8  20 00 15 C7 00 00 4D 00 
   159)        90.4  Rx         0231  8  D3 90 00 D3 D3 C2 4C 9E 
   160)        90.7  Rx         0233  8  78 A6 00 10 DF 00 00 00 
   161)        90.9  Rx         023D  8  23 00 00 DF 00 9A 01 78 
   162)        91.2  Rx         023E  8  02 60 FF 9A 01 D1 00 71 
   163)        91.4  Rx         0251  8  10 00 00 20 00 2F 43 00 
   164)        91.6  Rx         02DE  8  0F 08 02 00 9A 69 05 C8 
   165)        91.9  Rx         0253  8  00 4A FF 00 00 00 00 00 
   166)        92.1  Rx         0002  5  73 00 00 07 FC 
   167)        92.3  Rx         02D1  7  00 00 00 00 31 87 02 
   168)        92.6  Rx         0284  8  00 00 00 00 00 00 A8 2E 
   169)        92.8  Rx         0285  8  00 00 00 00 00 00 A8 2F 
   170)        93.0  Rx         029E  8  D3 00 00 40 00 FC 00 AF 
   171)        93.2  Rx         02A0  5  BF 7F F2 7F FF 
   172)        93.4  Rx         0551  8  6E 9F 00 80 00 02 80 FF 
   173)        93.7  Rx         06F7  8  00 00 00 00 00 00 00 01 
   174)        93.9  Rx         0794  3  00 00 01 
   175)        96.7  Rx         02A5  7  00 00 00 20 00 00 00 
   176)        98.9  Rx         060D  8  00 06 00 00 00 00 20 00 
   177)        99.2  Rx         0358  8  01 00 00 00 02 00 00 00 
   178)       100.5  Rx         0280  8  01 00 00 00 00 00 6D 40 
   179)       100.8  Rx         01F9  8  20 00 15 C7 00 00 4D 00 
   180)       101.0  Rx         0231  8  D3 A0 00 D3 D3 C2 4C 9E 
   181)       101.3  Rx         0233  8  78 A6 00 10 DF 00 00 00 
   182)       101.5  Rx         023D  8  43 00 00 DF 00 9A 01 78 
   183)       101.7  Rx         023E  8  02 60 FF 9A 01 D1 00 72 
   184)       101.9  Rx         0002  5  73 00 00 07 ED 
   185)       102.2  Rx         0251  8  10 00 00 20 00 6F 10 52 
   186)       102.4  Rx         02DE  8  0F 08 03 00 9A 9F 05 C8 
   187)       102.6  Rx         0253  8  01 4A FF 00 00 00 00 00 
   188)       102.8  Rx         02D1  7  00 00 00 01 31 87 02 
   189)       103.1  Rx         0551  8  6E 9F 00 80 00 02 80 FF 
   190)       103.3  Rx         06F7  8  00 00 00 00 00 00 00 02 
   191)       103.5  Rx         0794  3  00 00 02 
   192)       106.7  Rx         02A5  7  00 00 00 20 00 00 00 
   193)       107.7  Rx         0215  6  FF F0 FF 00 FF FF 
   194)       107.9  Rx         0216  1  40 
   195)       110.4  Rx         02DE  8  0F 08 00 00 9A D5 05 C8 
   196)       110.6  Rx         02D1  7  00 00 00 02 31 87 02 
   197)       110.9  Rx         01F9  8  20 00 15 C7 00 00 4D 00 
   198)       111.1  Rx         0231  8  D3 B0 00 D3 D3 C2 4C 9E 
   199)       111.4  Rx         0233  8  78 A6 00 10 DF 00 00 00 
   200)       111.6  Rx         023D  8  63 00 00 DF 00 9A 01 78 
   201)       111.8  Rx         0002  5  74 00 00 07 AE 
   202)       112.0  Rx         023E  8  02 60 FF 9A 01 D1 00 83 
   203)       112.2  Rx         0251  8  10 00 00 20 00 AF 11 48 
   204)       112.5  Rx         0284  8  00 00 00 00 00 00 A9 2F 
   205)       112.8  Rx         0253  8  02 4A FF 00 00 00 00 00 
   206)       113.0  Rx         0285  8  00 00 00 00 00 00 A9 30 
   207)       113.3  Rx         029E  8  D3 00 00 40 00 FC 01 B0 
   208)       113.4  Rx         02A0  5  BF 7F F6 7F FF 
   209)       113.7  Rx         0354  8  00 00 00 00 00 00 14 00 
   210)       113.9  Rx         0551  8  6E 9F 00 80 00 02 80 FF 
   211)       114.1  Rx         06F7  8  00 00 00 00 00 00 00 03 
   212)       114.3  Rx         0794  3  00 00 03 
   213)       116.7  Rx         02A5  7  00 00 00 20 00 00 00 
   214)       120.4  Rx         0280  8  01 00 00 00 00 00 6D 40 
   215)       120.7  Rx         02DE  8  0F 08 01 00 9B 0B 05 C8 
   216)       120.9  Rx         01F9  8  20 00 15 C7 00 00 4D 00 
   217)       121.2  Rx         0231  8  D3 80 00 D3 D3 C2 4C 9E 
   218)       121.4  Rx         0233  8  78 A6 00 10 DF 00 00 00 
   219)       121.6  Rx         0002  5  73 00 00 07 CF 
   220)       121.8  Rx         023D  8  03 00 00 DF 00 9A 01 78 
   221)       122.1  Rx         023E  8  02 60 FF 9A 01 D1 00 80 
   222)       122.3  Rx         0251  8  10 00 00 20 00 EF 12 30 
   223)       122.5  Rx         02D1  7  00 00 00 03 31 87 02 
   224)       122.8  Rx         0253  8  03 4A FF 00 00 00 00 00 
   225)       123.0  Rx         0551  8  6E 9F 00 80 00 02 80 FF 
   226)       123.3  Rx         06F7  8  00 00 00 00 00 00 00 00 
   227)       123.4  Rx         0794  3  00 00 00 
   228)       126.7  Rx         02A5  7  00 00 00 20 00 00 00 
   229)       127.7  Rx         0215  6  FF F0 FF 00 FF FF 
   230)       127.9  Rx         0216  1  40 
   231)       130.5  Rx         02DE  8  0F 08 02 00 9B 41 05 C8 
   232)       130.7  Rx         02D1  7  00 00 00 00 31 87 02 
   233)       131.3  Rx         0251  8  10 00 00 20 00 2F 13 35 
   234)       131.5  Rx         01F9  8  20 00 15 C7 00 00 4D 00 
   235)       131.7  Rx         0002  5  73 00 00 07 30 
   236)       131.9  Rx         0231  8  D3 90 00 D3 D3 C2 4C 9E 
   237)       132.1  Rx         0233  8  78 A6 00 10 DF 00 00 00 
   238)       132.4  Rx         023D  8  23 00 00 DF 00 9A 01 78 
   239)       132.6  Rx         023E  8  02 60 FF 9A 01 D1 00 71 
   240)       132.9  Rx         0253  8  00 4A FF 00 00 00 00 00 
   241)       133.2  Rx         0284  8  00 00 00 00 00 00 AA 30 
   242)       133.4  Rx         0285  8  00 00 00 00 00 00 AA 31 
   243)       133.6  Rx         029E  8  D3 00 00 40 00 FD 02 B2 
   244)       133.8  Rx         02A0  5  C2 7F F7 7F FF 
   245)       134.0  Rx         0551  8  6E 9F 00 80 00 02 80 FF 
   246)       134.3  Rx         06F7  8  00 00 00 00 00 00 00 01 
   247)       134.5  Rx         0794  3  00 00 01 
   248)       136.7  Rx         02A5  7  00 00 00 20 00 00 00 
   249)       138.8  Rx         035D  8  C0 03 00 00 00 00 00 00 
   250)       140.6  Rx         0280  8  01 00 00 00 00 00 6D 40 
   251)       140.8  Rx         02DE  8  0F 08 03 00 9B 77 05 C8 
   252)       141.1  Rx         02D1  7  00 00 00 01 31 87 02 
   253)       141.3  Rx         0251  8  10 00 00 20 00 6F 14 31 
   254)       141.5  Rx         0002  5  73 00 00 07 21 
   255)       141.7  Rx         01F9  8  20 00 15 E0 00 00 4D 00 
   256)       141.9  Rx         0231  8  D3 A0 00 D3 D3 C2 4C 9E 
   257)       142.2  Rx         0233  8  78 A7 00 10 E0 00 00 00 
   258)       142.4  Rx         023D  8  43 00 00 E0 00 9A 01 78 
   259)       142.7  Rx         023E  8  02 60 FF 9A 01 D1 00 72 
   260)       142.9  Rx         0253  8  01 4A FF 00 00 00 00 00 
   261)       143.1  Rx         0551  8  6E 9F 00 80 00 02 80 FF 
   262)       143.4  Rx         06F7  8  00 00 00 00 00 00 00 02 
   263)       143.5  Rx         0794  3  00 00 02 
   264)       146.7  Rx         02A5  7  00 00 00 20 00 00 00 
   265)       147.7  Rx         0215  6  FF F0 FF 00 FF FF 
   266)       147.9  Rx         0216  1  40 
   267)       148.4  Rx         0625  6  32 00 FF 1D 00 00 
   268)       150.4  Rx         02DE  8  0F 08 00 00 9B AE 05 C8 
   269)       150.7  Rx         02D1  7  00 00 00 02 31 87 02 
   270)       151.2  Rx         0251  8  10 00 00 20 00 AF 15 37 
   271)       151.4  Rx         0002  5  73 00 00 07 12 
   272)       151.7  Rx         01F9  8  20 00 15 E0 00 00 4D 00 
   273)       151.9  Rx         0231  8  D3 B0 00 D3 D3 C2 4C 9E 
   274)       152.2  Rx         0233  8  78 A7 00 10 E0 00 00 00 
   275)       152.4  Rx         023D  8  63 00 00 E0 00 99 01 78 
   276)       152.6  Rx         023E  8  02 60 FF 99 01 D1 00 73 
   277)       152.9  Rx         0253  8  02 4A FF 00 00 00 00 00 
   278)       153.1  Rx         0284  8  00 00 00 00 00 00 AB 31 
   279)       153.3  Rx         0285  8  00 00 00 00 00 00 AB 32 
   280)       153.6  Rx         029E  8  D3 00 00 40 00 FC 03 B2 
   281)       153.8  Rx         02A0  5  C0 7F F1 7F FF 
   282)       154.0  Rx         0354  8  00 00 00 00 00 00 14 00 
   283)       154.3  Rx         0551  8  6E 9F 00 80 00 02 80 FF 
   284)       154.5  Rx         06F7  8  00 00 00 00 00 00 00 03 
   285)       154.7  Rx         0794  3  00 00 03 
   286)       156.7  Rx         02A5  7  00 00 00 20 00 00 00 
   287)       160.4  Rx         0280  8  01 00 00 00 00 00 6D 40 
   288)       160.7  Rx         02DE  8  0F 08 01 00 9B E5 05 C8 
   289)       160.9  Rx         02D1  7  00 00 00 03 31 87 02 
   290)       161.2  Rx         05C5  8  40 00 00 00 00 0C 00 00 
   291)       161.3  Rx         0002  5  73 00 00 07 03 
   292)       161.6  Rx         0251  8  10 00 00 20 00 EF 16 DE 
   293)       161.8  Rx         06F7  8  00 00 00 00 00 00 00 00 
   294)       162.1  Rx         01F9  8  20 00 15 E0 00 00 4D 00 
   295)       162.3  Rx         0231  8  D3 80 00 D3 D3 C2 4C 9E 
   296)       162.6  Rx         0233  8  78 A7 00 10 E0 00 00 00 
   297)       162.8  Rx         023D  8  03 00 00 E0 00 99 01 78 
   298)       163.0  Rx         023E  8  02 60 FF 99 01 D1 00 70 
   299)       163.3  Rx         0253  8  03 4A FF 00 00 00 00 00 
   300)       163.5  Rx         0551  8  6E 9F 00 80 00 02 80 FF 
   301)       163.7  Rx         0580  8  00 AA 40 00 00 00 00 00 
   302)       163.9  Rx         0794  3  00 00 00 
   303)       166.7  Rx         02A5  7  00 00 00 20 00 00 00 
   304)       167.7  Rx         0215  6  FF F0 FF 00 FF FF 
   305)       168.0  Rx         0216  1  40 
   306)       168.9  Rx         0385  7  84 00 B2 9A 92 A2 F0 
   307)       170.5  Rx         02DE  8  0F 08 02 00 9C 1C 05 C8 
   308)       170.7  Rx         02D1  7  00 00 00 00 31 87 02 
   309)       171.0  Rx         0002  5  74 00 00 07 04 
   310)       171.3  Rx         0251  8  10 00 00 20 00 2F 17 87 
   311)       171.6  Rx         0253  8  00 4A FF 00 00 00 00 00 
   312)       171.8  Rx         06F7  8  00 00 00 00 00 00 00 01 
   313)       172.1  Rx         01F9  8  20 00 15 E0 00 00 4D 00 
   314)       172.3  Rx         0231  8  D3 90 00 D3 D3 C2 4C 9E 
   315)       172.6  Rx         0233  8  78 A7 00 10 E0 00 00 00 
   316)       172.8  Rx         023D  8  23 00 00 E0 00 99 01 78 
   317)       173.0  Rx         023E  8  02 60 FF 99 01 D1 00 71 
   318)       173.3  Rx         0284  8  00 00 00 00 00 00 AC 32 
   319)       173.5  Rx         0285  8  00 00 00 00 00 00 AC 33 
   320)       173.8  Rx         029E  8  D3 00 00 40 00 FC 00 AF 
   321)       174.0  Rx         02A0  5  C0 7F F5 7F FF 
   322)       174.2  Rx         0551  8  6E 9F 00 80 00 02 80 FF 
   323)       174.4  Rx         0794  3  00 00 01 
   324)       176.7  Rx         02A5  7  00 00 00 20 00 00 00 
   325)       180.6  Rx         0280  8  01 00 00 00 00 00 6D 40 
   326)       180.8  Rx         02DE  8  0F 08 03 00 9C 53 05 C8 
   327)       181.1  Rx         02D1  7  00 00 00 01 31 87 02 
   328)       181.2  Rx         0002  5  73 00 00 07 65 
   329)       181.5  Rx         0251  8  10 00 00 20 00 6F 40 00 
   330)       181.7  Rx         0253  8  01 4A FF 00 00 00 00 00 
   331)       182.0  Rx         06F7  8  00 00 00 00 00 00 00 02 
   332)       182.3  Rx         01F9  8  20 00 15 E0 00 00 4D 00 
   333)       182.5  Rx         0231  8  D3 A0 00 D3 D3 C2 4C 9E 
   334)       182.8  Rx         0233  8  78 A7 00 10 E0 00 00 00 
   335)       183.0  Rx         023D  8  43 00 00 E0 00 8E 01 78 
   336)       183.3  Rx         023E  8  02 60 FF 8E 01 D1 00 72 
   337)       183.5  Rx         0551  8  6E 9F 00 80 00 02 80 FF 
   338)       183.6  Rx         0794  3  00 00 02 
   339)       186.8  Rx         02A5  7  00 00 00 20 00 00 00 
   340)       187.7  Rx         0215  6  FF F0 FF 00 FF FF 
   341)       187.9  Rx         0216  1  40 
   342)       190.4  Rx         02DE  8  0F 08 00 00 9C 8A 05 C8 
   343)       190.7  Rx         02D1  7  00 00 00 02 31 11 02 
   344)       191.0  Rx         0002  5  73 00 00 07 56 
   345)       191.2  Rx         0251  8  10 00 00 20 00 AF 41 00 
   346)       191.5  Rx         0253  8  02 4A FF 00 00 00 00 00 
   347)       191.9  Rx         06F7  8  00 00 00 00 00 00 00 03 
   348)       192.4  Rx         0284  8  00 00 00 00 00 00 AD 33 
   349)       192.7  Rx         01F9  8  20 00 15 E0 00 00 4D 00 
   350)       192.9  Rx         0231  8  D3 B0 00 D3 D3 C2 4C 9E 
   351)       193.1  Rx         0233  8  78 A7 00 10 E0 00 00 00 
   352)       193.4  Rx         023D  8  63 00 00 E0 00 8E 01 78 
   353)       193.6  Rx         023E  8  02 60 FF 8E 01 D1 00 73 
   354)       193.9  Rx         0285  8  00 00 00 00 00 00 AD 34 
   355)       194.1  Rx         029E  8  D3 00 00 40 00 FD 01 B1 
   356)       194.3  Rx         02A0  5  C1 7F F7 7F FF 
   357)       194.5  Rx         0354  8  00 00 00 00 00 00 14 00 
   358)       194.8  Rx         0551  8  6E A0 00 80 00 02 80 FF 
   359)       194.9  Rx         0794  3  00 00 03 
   360)       196.8  Rx         02A5  7  00 00 00 20 00 00 00 
   361)       198.7  Rx         060D  8  00 06 00 00 00 00 20 00 
   362)       199.0  Rx         0358  8  01 00 00 00 02 00 00 00 
   363)       200.5  Rx         0280  8  01 00 00 00 00 00 2A 40 
   364)       200.7  Rx         02DE  8  0F 08 01 00 9C C1 05 C8 
   365)       201.0  Rx         0002  5  73 00 00 07 47 
   366)       201.2  Rx         02D1  7  00 00 00 03 31 11 02 
   367)       201.4  Rx         0251  8  10 00 00 20 00 EF 42 00 
   368)       201.7  Rx         0253  8  03 4A FF 00 00 00 00 00 
   369)       201.9  Rx         06F7  8  00 00 00 00 00 00 00 00 
   370)       202.8  Rx         01F9  8  20 00 15 E0 00 00 4D 00 
   371)       203.0  Rx         0231  8  D3 80 00 D3 D3 C2 4C 9E 
   372)       203.3  Rx         0233  8  78 A7 00 10 E0 00 00 00 
   373)       203.5  Rx         023D  8  03 00 00 E0 00 8E 01 78 
   374)       203.7  Rx         023E  8  02 60 FF 8E 01 D1 00 70 
   375)       204.0  Rx         0551  8  6E A0 00 80 00 02 80 FF 
   376)       204.1  Rx         0794  3  00 00 00 
   377)       206.8  Rx         02A5  7  00 00 00 20 00 00 00 
   378)       207.7  Rx         0215  6  FF F0 FF 00 FF FF 
   379)       208.0  Rx         0216  1  40 
   380)       210.5  Rx         02DE  8  0F 08 02 00 9C F8 05 C8 
   381)       210.7  Rx         02D1  7  00 00 00 00 31 11 02 
   382)       210.9  Rx         0002  5  73 00 00 07 B8 
   383)       211.2  Rx         0251  8  10 00 00 20 00 2F 43 00 
   384)       211.5  Rx         0253  8  00 4A FF 00 00 00 00 00 
   385)       211.9  Rx         06F7  8  00 00 00 00 00 00 00 01 
   386)       212.4  Rx         0284  8  00 00 00 00 00 00 AE 34 
   387)       212.7  Rx         0285  8  00 00 00 00 00 00 AE 35 
   388)       212.9  Rx         029E  8  D3 00 00 40 00 FD 02 B2 
   389)       213.1  Rx         02A0  5  C1 7F F4 7F FF 
   390)       213.3  Rx         01F9  8  20 00 15 E0 00 00 4D 00 
   391)       213.5  Rx         0231  8  D3 90 00 D3 D3 C2 4C 9E 
   392)       213.8  Rx         0233  8  78 A7 00 10 E0 00 00 00 
   393)       214.0  Rx         023D  8  23 00 00 E0 00 8D 01 78 
   394)       214.3  Rx         023E  8  02 60 FF 8D 01 D1 00 81 
   395)       214.5  Rx         0551  8  6E A0 00 80 00 02 80 FF 
   396)       214.6  Rx         0794  3  00 00 01 
   397)       216.8  Rx         02A5  7  00 00 00 20 00 00 00 
   398)       220.6  Rx         0280  8  01 00 00 00 00 00 2A 40 
   399)       220.8  Rx         0002  5  73 00 00 07 A9 
   400)       221.0  Rx         02DE  8  0F 08 03 00 9D 2F 05 C8 
   401)       221.2  Rx         0251  8  10 00 00 20 00 6F 10 52 
   402)       221.4  Rx         02D1  7  00 00 00 01 31 11 02 
   403)       221.7  Rx         0253  8  01 4A FF 00 00 00 00 00 
   404)       221.9  Rx         06F7  8  00 00 00 00 00 00 00 02 
   405)       223.3  Rx         01F9  8  20 00 15 E0 00 00 4D 00 
   406)       223.5  Rx         0231  8  D3 A0 00 D3 D3 C2 4C 9E 
   407)       223.8  Rx         0233  8  78 A7 00 10 E0 00 00 00 
   408)       224.0  Rx         023D  8  43 00 00 E0 00 8D 01 78 
   409)       224.2  Rx         023E  8  02 60 FF 8D 01 D1 00 72 
   410)       224.5  Rx         0551  8  6E A0 00 80 00 02 80 FF 
   411)       224.6  Rx         0794  3  00 00 02 
   412)       226.8  Rx         02A5  7  00 00 00 20 00 00 00 
   413)       227.7  Rx         0215  6  FF F0 FF 00 FF FF 
   414)       227.9  Rx         0216  1  40 
   415)       230.5  Rx         02DE  8  0F 08 00 00 9D 66 05 C8 
   416)       230.7  Rx         02D1  7  00 00 00 02 31 11 02 
   417)       230.9  Rx         0002  5  74 00 01 07 FA 
   418)       231.2  Rx         0251  8  10 00 00 20 00 AF 11 48 
   419)       231.4  Rx         0253  8  02 4A FF 00 00 00 00 00 
   420)       232.0  Rx         06F7  8  00 00 00 00 00 00 00 03 
   421)       232.4  Rx         0284  8  00 00 00 00 00 00 AF 35 
   422)       232.6  Rx         0285  8  00 00 00 00 00 00 AF 36 
   423)       232.9  Rx         029E  8  D3 00 00 40 00 FB 03 B1 
   424)       233.1  Rx         02A0  5  BE 7F F3 7F FF 
   425)       233.3  Rx         0354  8  00 00 00 00 00 00 14 00 
   426)       233.6  Rx         01F9  8  20 00 15 E0 00 00 4D 00 
   427)       233.8  Rx         0231  8  D3 B0 00 D3 D3 C2 4C 9E 
   428)       234.1  Rx         0233  8  78 A7 00 10 E0 00 00 00 
   429)       234.3  Rx         023D  8  63 00 00 E0 00 8C 01 78 
   430)       234.6  Rx         023E  8  02 60 FF 8C 01 D1 00 83 
   431)       234.8  Rx         0551  8  6E A0 00 80 00 02 80 FF 
   432)       235.0  Rx         0794  3  00 00 03 
   433)       236.9  Rx         02A5  7  00 00 00 20 00 00 00 
   434)       238.7  Rx         035D  8  C0 03 00 00 00 00 00 00 
   435)       240.5  Rx         0280  8  01 00 00 00 00 00 2A 40 
   436)       240.7  Rx         0002  5  73 00 00 07 8B 
   437)       240.9  Rx         02DE  8  0F 08 01 00 9D 9D 05 C8 
   438)       241.1  Rx         02D1  7  00 00 00 03 31 11 02 
   439)       241.4  Rx         0251  8  10 00 00 20 00 EF 12 30 
   440)       241.6  Rx         0253  8  03 4A FF 00 00 00 00 00 
   441)       242.0  Rx         06F7  8  00 00 00 00 00 00 00 00 
   442)       243.9  Rx         01F9  8  20 00 15 E0 00 00 4D 00 
   443)       244.1  Rx         0231  8  D3 80 00 D3 D3 C2 4C 9E 
   444)       244.3  Rx         0233  8  78 A6 00 10 E0 00 00 00 
   445)       244.5  Rx         023D  8  03 00 00 E0 00 8C 01 78 
   446)       244.8  Rx         023E  8  02 60 FF 8C 01 D1 00 70 
   447)       245.0  Rx         0551  8  6E A0 00 80 00 02 80 FF 
   448)       245.2  Rx         0794  3  00 00 00 
   449)       246.9  Rx         02A5  7  00 00 00 20 00 00 00 
   450)       247.8  Rx         0215  6  FF F0 FF 00 FF FF 
   451)       248.0  Rx         0216  1  40 
   452)       248.4  Rx         0625  6  32 00 FF 1D 00 00 
   453)       250.5  Rx         02DE  8  0F 08 02 00 9D D3 05 C8 
   454)       250.7  Rx         0002  5  74 00 00 07 8C 
   455)       250.9  Rx         02D1  7  00 00 00 00 31 11 02 
   456)       251.2  Rx         0251  8  10 00 00 20 00 2F 13 35 
   457)       251.4  Rx         0253  8  00 4A FF 00 00 00 00 00 
   458)       252.0  Rx         06F7  8  00 00 00 00 00 00 00 01 
   459)       252.4  Rx         0284  8  00 00 00 00 00 00 B0 36 
   460)       252.6  Rx         0285  8  00 00 00 00 00 00 B0 37 
   461)       252.9  Rx         029E  8  D3 00 00 40 00 FD 00 B0 
   462)       253.0  Rx         02A0  5  C1 7F F7 7F FF 
   463)       254.1  Rx         01F9  8  20 00 15 E0 00 00 4D 00 
   464)       254.3  Rx         0231  8  D3 90 00 D3 D3 C2 4C 9E 
   465)       254.6  Rx         0233  8  78 A7 00 10 E0 00 00 00 
   466)       254.8  Rx         023D  8  23 00 00 E0 00 8C 01 78 
   467)       255.0  Rx         023E  8  02 60 FF 8C 01 D1 00 71 
   468)       255.3  Rx         0551  8  6E A0 00 80 00 02 80 FF 
   469)       255.4  Rx         0794  3  00 00 01 
   470)       256.9  Rx         02A5  7  00 00 00 20 00 00 00 
   471)       260.4  Rx         0002  5  74 00 00 07 9D 
   472)       260.7  Rx         0280  8  01 00 00 00 00 00 2A 40 
   473)       260.9  Rx         02DE  8  0F 08 03 00 9E 0A 05 C8 
   474)       261.1  Rx         02D1  7  00 00 00 01 31 11 02 
   475)       261.4  Rx         0251  8  10 00 00 20 00 6F 14 31 
   476)       261.6  Rx         05C5  8  40 00 00 00 00 0C 00 00 
   477)       261.9  Rx         0253  8  01 4A FF 00 00 00 00 00 
   478)       262.1  Rx         06F7  8  00 00 00 00 00 00 00 02 
   479)       264.2  Rx         01F9  8  20 00 15 E0 00 00 4D 00 
   480)       264.4  Rx         0231  8  D3 A0 00 D3 D3 C2 4C 9E 
   481)       264.7  Rx         0233  8  78 A6 00 10 E0 00 00 00 
   482)       264.9  Rx         023D  8  43 00 00 E0 00 8B 01 78 
   483)       265.1  Rx         023E  8  02 60 FF 8B 01 D1 00 72 
   484)       265.4  Rx         0551  8  6E A0 00 80 00 02 80 FF 
   485)       265.6  Rx         0580  8  00 AA 40 00 00 00 00 00 
   486)       265.7  Rx         0794  3  00 00 02 
   487)       266.9  Rx         02A5  7  00 00 00 20 00 00 00 
   488)       267.7  Rx         0215  6  FF F0 FF 00 FF FF 
   489)       267.9  Rx         0216  1  40 
   490)       268.7  Rx         0385  7  84 00 B2 9A 92 A2 F0 
   491)       270.2  Rx         0002  5  73 00 00 07 DE 
   492)       270.5  Rx         02DE  8  0F 08 00 00 9E 40 05 C8 
   493)       270.7  Rx         02D1  7  00 00 00 02 31 11 02 
   494)       271.2  Rx         0251  8  10 00 00 20 00 AF 15 37 
   495)       271.4  Rx         0253  8  02 4A FF 00 00 00 00 00 
   496)       272.0  Rx         06F7  8  00 00 00 00 00 00 00 03 
   497)       272.4  Rx         0284  8  00 00 00 00 00 00 B1 37 
   498)       272.6  Rx         0285  8  00 00 00 00 00 00 B1 38 
   499)       272.8  Rx         029E  8  D3 00 00 40 00 FC 01 B0 
   500)       273.1  Rx         02A0  5  C1 7F F4 7F FF 
   501)       273.3  Rx         0354  8  00 00 00 00 00 00 14 00 
   502)       274.6  Rx         01F9  8  20 00 15 E0 00 00 4D 00 
   503)       274.8  Rx         0231  8  D3 B0 00 D3 D3 C2 4C 9E 
   504)       275.0  Rx         0233  8  78 A7 00 10 E0 00 00 00 
   505)       275.3  Rx         023D  8  63 00 00 E0 00 8B 01 78 
   506)       275.5  Rx         023E  8  02 60 FF 8B 01 D1 00 73 
   507)       275.8  Rx         0551  8  6E A0 00 80 00 02 80 FF 
   508)       275.9  Rx         0794  3  00 00 03 
   509)       276.9  Rx         02A5  7  00 00 00 20 00 00 00 
   510)       280.2  Rx         0002  5  73 00 00 07 CF 
   511)       280.5  Rx         0280  8  01 00 00 00 00 00 2A 40 
   512)       280.7  Rx         02DE  8  0F 08 01 00 9E 40 05 C8 
   513)       281.0  Rx         02D1  7  00 00 00 03 31 11 02 
   514)       281.2  Rx         0251  8  10 00 00 20 00 EF 16 DE 
   515)       281.5  Rx         0253  8  03 4A FF 00 00 00 00 00 
   516)       282.0  Rx         06F7  8  00 00 00 00 00 00 00 00 
   517)       284.7  Rx         01F9  8  20 00 15 C7 00 00 4D 00 
   518)       284.9  Rx         0231  8  D3 80 00 D3 D3 C2 4C 9E 
   519)       285.1  Rx         0233  8  78 A5 00 10 DF 00 00 00 
   520)       285.4  Rx         023D  8  03 00 00 DF 00 8B 01 78 
   521)       285.6  Rx         023E  8  02 60 FF 8B 01 D1 00 70 
   522)       285.9  Rx         0551  8  6E A0 00 80 00 02 80 FF 
   523)       286.0  Rx         0794  3  00 00 00 
   524)       286.9  Rx         02A5  7  00 00 00 20 00 00 00 
   525)       287.8  Rx         0215  6  FF F0 FF 00 FF FF 
   526)       288.0  Rx         0216  1  40 
   527)       290.1  Rx         0002  5  73 00 00 07 30 
   528)       290.5  Rx         02DE  8  0F 08 02 00 9E AD 05 C8 
   529)       290.7  Rx         02D1  7  00 00 00 00 31 54 02 
   530)       291.1  Rx         0251  8  10 00 00 20 00 2F 17 87 
   531)       291.4  Rx         0253  8  00 4A FF 00 00 00 00 00 
   532)       292.0  Rx         06F7  8  00 00 00 00 00 00 00 01 
   533)       292.4  Rx         0284  8  00 00 00 00 00 00 B2 38 
   534)       292.6  Rx         0285  8  00 00 00 00 00 00 B2 39 
   535)       292.8  Rx         029E  8  D3 00 00 40 00 FC 02 B1 
   536)       293.0  Rx         02A0  5  C0 7F F3 7F FF 
   537)       294.9  Rx         01F9  8  20 00 15 C7 00 00 4D 00 
   538)       295.2  Rx         0231  8  D3 90 00 D3 D3 C2 4C 9E 
   539)       295.4  Rx         0233  8  78 A6 00 10 DF 00 00 00 
   540)       295.7  Rx         023D  8  23 00 00 DF 00 8A 01 78 
   541)       295.9  Rx         023E  8  02 60 FF 8A 01 D1 00 71 
   542)       296.2  Rx         0551  8  6E A0 00 80 00 02 80 FF 
   543)       296.3  Rx         0794  3  00 00 01 
   544)       297.0  Rx         02A5  7  00 00 00 20 00 00 00 
   545)       298.5  Rx         060D  8  00 06 00 00 00 00 20 00 
   546)       298.7  Rx         0358  8  01 00 00 00 02 00 00 00 
   547)       299.9  Rx         0002  5  73 00 00 07 21 
   548)       300.6  Rx         0280  8  01 00 00 00 00 00 50 40 
   549)       300.8  Rx         02DE  8  0F 08 03 00 9E E3 05 C8 
   550)       301.0  Rx         02D1  7  00 00 00 01 31 54 02 
   551)       301.3  Rx         0251  8  10 00 00 20 00 6F 40 00 
   552)       301.5  Rx         0253  8  01 4A FF 00 00 00 00 00 
   553)       302.0  Rx         06F7  8  00 00 00 00 00 00 00 02 
   554)       305.2  Rx         01F9  8  20 00 15 C7 00 00 4D 00 
   555)       305.5  Rx         0231  8  D3 A0 00 D3 D3 C2 4C 9E 
   556)       305.7  Rx         0233  8  78 A6 00 10 DF 00 00 00 
   557)       305.9  Rx         023D  8  43 00 00 DF 00 8A 01 78 
   558)       306.2  Rx         023E  8  02 60 FF 8A 01 D1 00 82 
   559)       306.4  Rx         0551  8  6E A0 00 80 00 02 80 FF 
   560)       306.6  Rx         0794  3  00 00 02 
   561)       307.0  Rx         02A5  7  00 00 00 20 00 00 00 
   562)       307.7  Rx         0215  6  FF F0 FF 00 FF FF 
   563)       307.9  Rx         0216  1  40 
   564)       309.9  Rx         0002  5  74 00 00 07 62 
   565)       310.5  Rx         02DE  8  0F 08 00 00 9F 19 05 C8 
   566)       310.7  Rx         02D1  7  00 00 00 02 31 54 02 
   567)       311.2  Rx         0251  8  10 00 00 20 00 AF 41 00 
   568)       311.4  Rx         0253  8  02 4A FF 00 00 00 00 00 
   569)       312.1  Rx         06F7  8  00 00 00 00 00 00 00 03 
   570)       312.3  Rx         0284  8  00 00 00 00 00 00 B3 39 
   571)       312.6  Rx         0285  8  00 00 00 00 00 00 B3 3A 
   572)       312.8  Rx         029E  8  D3 00 00 40 00 FC 03 B2 
   573)       313.0  Rx         02A0  5  BF 7F F5 7F FF 
   574)       313.3  Rx         0354  8  00 00 00 00 00 00 14 00 
   575)       315.4  Rx         01F9  8  20 00 15 C7 00 00 4D 00 
   576)       315.6  Rx         0231  8  D3 B0 00 D3 D3 C2 4C 9E 
   577)       315.9  Rx         0233  8  78 A5 00 10 DF 00 00 00 
   578)       316.1  Rx         023D  8  63 00 00 DF 00 89 01 78 
   579)       316.4  Rx         023E  8  02 60 FF 89 01 D1 00 73 
   580)       316.6  Rx         0551  8  6E A0 00 80 00 02 80 FF 
   581)       316.7  Rx         0794  3  00 00 03 
   582)       317.0  Rx         02A5  7  00 00 00 20 00 00 00 
   583)       319.9  Rx         0002  5  73 00 00 07 03 
   584)       320.5  Rx         0280  8  01 00 00 00 00 00 50 40 
   585)       320.7  Rx         02DE  8  0F 08 01 00 9F 4F 05 C8 
   586)       321.0  Rx         02D1  7  00 00 00 03 31 54 02 
   587)       321.2  Rx         0251  8  10 00 00 20 00 EF 42 00 
   588)       321.5  Rx         0253  8  03 4A FF 00 00 00 00 00 
   589)       322.1  Rx         06F7  8  00 00 00 00 00 00 00 00 
   590)       325.6  Rx         01F9  8  20 00 15 C7 00 00 4D 00 
   591)       325.9  Rx         0231  8  D3 80 00 D3 D3 C2 4C 9E 
   592)       326.1  Rx         0233  8  78 A5 00 10 DF 00 00 00 
   593)       326.3  Rx         023D  8  03 00 00 DF 00 92 01 78 
   594)       326.5  Rx         023E  8  02 60 FF 92 01 D1 00 80 
   595)       326.8  Rx         0551  8  6E A0 00 80 00 02 80 FF 
   596)       327.0  Rx         02A5  7  00 00 00 20 00 00 00 
   597)       327.2  Rx         0794  3  00 00 00 
   598)       327.9  Rx         0215  6  FF F0 FF 00 FF FF 
   599)       328.1  Rx         0216  1  40 
   600)       329.6  Rx         0002  5  73 00 00 07 74 
   601)       330.5  Rx         02DE  8  0F 08 02 00 9F 85 05 C8 
   602)       330.7  Rx         02D1  7  00 00 00 00 31 54 02 
   603)       331.1  Rx         0251  8  10 00 00 20 00 2F 43 00 
   604)       331.4  Rx         0253  8  00 4A FF 00 00 00 00 00 
   605)       332.1  Rx         06F7  8  00 00 00 00 00 00 00 01 
   606)       332.4  Rx         0284  8  00 00 00 00 00 00 B4 3A 
   607)       332.6  Rx         0285  8  00 00 00 00 00 00 B4 3B 
   608)       332.8  Rx         029E  8  D3 00 00 40 00 FD 00 B0 
   609)       333.0  Rx         02A0  5  C2 7F F5 7F FF 
   610)       336.0  Rx         01F9  8  20 00 15 C7 00 00 4D 00 
   611)       336.2  Rx         0231  8  D3 90 00 D3 D3 C2 4C 9E 
   612)       336.5  Rx         0233  8  78 A5 00 10 DF 00 00 00 
   613)       336.7  Rx         023D  8  23 00 00 DF 00 93 01 78 
   614)       337.0  Rx         023E  8  02 60 FF 93 01 D1 00 81 
   615)       337.2  Rx         02A5  7  00 00 00 20 00 00 00 
   616)       337.4  Rx         0551  8  6E A0 00 80 00 02 80 FF 
   617)       337.6  Rx         0794  3  00 00 01 
   618)       338.4  Rx         035D  8  C0 03 00 00 00 00 00 00 
   619)       339.6  Rx         0002  5  73 00 00 07 65 
   620)       340.6  Rx         0280  8  01 00 00 00 00 00 50 40 
   621)       340.8  Rx         02DE  8  0F 08 03 00 9F BB 05 C8 
   622)       341.1  Rx         02D1  7  00 00 00 01 31 54 02 
   623)       341.3  Rx         0251  8  10 00 00 20 00 6F 10 52 
   624)       341.5  Rx         0253  8  01 4A FF 00 00 00 00 00 
   625)       342.1  Rx         06F7  8  00 00 00 00 00 00 00 02 
   626)       346.1  Rx         01F9  8  20 00 15 AE 00 00 4D 00 
   627)       346.3  Rx         0231  8  D3 A0 00 D3 D3 C2 4C 9E 
   628)       346.6  Rx         0233  8  78 A4 00 10 DE 00 00 00 
   629)       346.8  Rx         023D  8  43 00 00 DE 00 93 01 78 
   630)       347.1  Rx         023E  8  02 60 FF 93 01 D1 00 72 
   631)       347.3  Rx         02A5  7  00 00 00 20 00 00 00 
   632)       347.5  Rx         0551  8  6E A1 00 80 00 02 80 FF 
   633)       347.7  Rx         0794  3  00 00 02 
   634)       347.9  Rx         0215  6  FF F0 FF 00 FF FF 
   635)       348.1  Rx         0216  1  40 
   636)       348.6  Rx         0625  6  32 00 FF 1D 00 00 
   637)       349.6  Rx         0002  5  73 00 00 07 56 
   638)       350.5  Rx         02DE  8  0F 08 00 00 9F F1 05 C8 
   639)       350.7  Rx         02D1  7  00 00 00 02 31 54 02 
   640)       351.1  Rx         0251  8  10 00 00 20 00 AF 11 48 
   641)       351.4  Rx         0253  8  02 4A FF 00 00 00 00 00 
   642)       352.1  Rx         06F7  8  00 00 00 00 00 00 00 03 
   643)       352.4  Rx         0284  8  00 00 00 00 00 00 B5 3B 
   644)       352.6  Rx         0285  8  00 00 00 00 00 00 B5 3C 
   645)       352.9  Rx         029E  8  D3 00 00 40 00 FC 01 B0 
   646)       353.0  Rx         02A0  5  BF 7F F3 7F FF 
   647)       353.3  Rx         0354  8  00 00 00 00 00 00 14 00 
   648)       356.5  Rx         01F9  8  20 00 15 AE 00 00 4D 00 
   649)       356.7  Rx         0231  8  D3 B0 00 D3 D3 C2 4C 9E 
   650)       357.0  Rx         0233  8  78 A4 00 10 DE 00 00 00 
   651)       357.2  Rx         023D  8  63 00 00 DE 00 93 01 78 
   652)       357.5  Rx         023E  8  02 60 FF 93 01 D1 00 83 
   653)       357.7  Rx         02A5  7  00 00 00 20 00 00 00 
   654)       357.9  Rx         0551  8  6E A1 00 80 00 02 80 FF 
   655)       358.1  Rx         0794  3  00 00 03 
   656)       359.6  Rx         0002  5  73 00 00 07 47 
   657)       360.5  Rx         0280  8  01 00 00 00 00 00 50 40 
   658)       360.8  Rx         02DE  8  0F 08 01 00 A0 27 05 C8 
   659)       361.0  Rx         02D1  7  00 00 00 03 31 54 02 
   660)       361.2  Rx         0251  8  10 00 00 20 00 EF 12 30 
   661)       361.5  Rx         05C5  8  40 00 00 00 00 0C 00 00 
   662)       361.7  Rx         0253  8  03 4A FF 00 00 00 00 00 
   663)       362.1  Rx         06F7  8  00 00 00 00 00 00 00 00 
   664)       366.6  Rx         01F9  8  20 00 15 AE 00 00 4D 00 
   665)       366.8  Rx         0231  8  D3 80 00 D3 D3 C2 4C 9E 
   666)       367.0  Rx         0233  8  78 A4 00 10 DE 00 00 00 
   667)       367.3  Rx         023D  8  03 00 00 DE 00 93 01 78 
   668)       367.5  Rx         023E  8  02 60 FF 93 01 D1 00 70 
   669)       367.8  Rx         02A5  7  00 00 00 20 00 00 00 
   670)       368.0  Rx         0215  6  FF F0 FF 00 FF FF 
   671)       368.2  Rx         0551  8  6E A1 00 80 00 02 80 FF 
   672)       368.3  Rx         0216  1  40 
   673)       368.6  Rx         0580  8  00 AA 40 00 00 00 00 00 
   674)       368.8  Rx         0385  7  84 00 B2 9A 92 A2 F0 
   675)       368.9  Rx         0794  3  00 00 00 
   676)       369.3  Rx         0002  5  74 00 00 07 C8 
   677)       370.5  Rx         02DE  8  0F 08 02 00 A0 5D 05 C8 
   678)       370.7  Rx         02D1  7  00 00 00 00 31 54 02 
   679)       371.1  Rx         0251  8  10 00 00 20 00 2F 13 35 
   680)       371.4  Rx         0253  8  00 4A FF 00 00 00 00 00 
   681)       372.2  Rx         06F7  8  00 00 00 00 00 00 00 01 
   682)       372.4  Rx         0284  8  00 00 00 00 00 00 B6 3C 
   683)       372.6  Rx         0285  8  00 00 00 00 00 00 B6 3D 
   684)       372.9  Rx         029E  8  D3 00 00 40 00 FC 02 B1 
   685)       373.1  Rx         02A0  5  C0 7F F4 7F FF 
   686)       376.8  Rx         01F9  8  20 00 15 AE 00 00 4D 00 
   687)       377.1  Rx         0231  8  D3 90 00 D3 D3 C2 4C 9E 
   688)       377.3  Rx         0233  8  78 A4 00 10 DE 00 00 00 
   689)       377.5  Rx         023D  8  23 00 00 DE 00 93 01 78 
   690)       377.8  Rx         023E  8  02 60 FF 93 01 D1 00 71 
   691)       378.0  Rx         02A5  7  00 00 00 20 00 00 00 
   692)       378.2  Rx         0551  8  6E A1 00 80 00 02 80 FF 
   693)       378.4  Rx         0794  3  00 00 01 
   694)       379.3  Rx         0002  5  73 00 00 07 A9 
   695)       380.6  Rx         0280  8  01 00 00 00 00 00 50 40 
   696)       380.9  Rx         02DE  8  0F 08 03 00 A0 5D 05 C8 
   697)       381.1  Rx         0251  8  10 00 00 20 00 6F 14 31 
   698)       381.3  Rx         02D1  7  00 00 00 01 31 54 02 
   699)       381.6  Rx         0253  8  01 4A FF 00 00 00 00 00 
   700)       382.2  Rx         06F7  8  00 00 00 00 00 00 00 02 
   701)       387.1  Rx         02A5  7  00 00 00 20 00 00 00 
   702)       387.3  Rx         01F9  8  20 00 15 AE 00 00 4D 00 
   703)       387.6  Rx         0231  8  D3 A0 00 D3 D3 C2 4C 9E 
   704)       387.8  Rx         0233  8  78 A4 00 10 DE 00 00 00 
   705)       388.0  Rx         0215  6  FF F0 FF 00 FF FF 
   706)       388.2  Rx         023D  8  43 00 00 DE 00 93 01 78 
   707)       388.3  Rx         0216  1  40 
   708)       388.6  Rx         023E  8  02 60 FF 93 01 D1 00 72 
   709)       388.8  Rx         0551  8  6E A1 00 80 00 02 80 FF 
   710)       389.0  Rx         0794  3  00 00 02 
   711)       389.3  Rx         0002  5  74 00 00 07 EA 
   712)       390.5  Rx         02DE  8  0F 08 00 00 A0 C9 05 C8 
   713)       390.7  Rx         02D1  7  00 00 00 02 31 57 02 
   714)       391.1  Rx         0251  8  10 00 00 20 00 AF 15 37 
   715)       391.3  Rx         0253  8  02 4A FF 00 00 00 00 00 
   716)       392.2  Rx         06F7  8  00 00 00 00 00 00 00 03 
   717)       392.4  Rx         0284  8  00 00 00 00 00 00 B7 3D 
   718)       392.7  Rx         0285  8  00 00 00 00 00 00 B7 3E 
   719)       392.9  Rx         029E  8  D3 00 00 40 00 FD 03 B3 
   720)       393.1  Rx         02A0  5  C1 7F F7 7F FF 
   721)       393.4  Rx         0354  8  00 00 00 00 00 00 14 00 
   722)       397.1  Rx         02A5  7  00 00 00 20 00 00 00 
   723)       397.4  Rx         01F9  8  20 00 15 C7 00 00 4D 00 
   724)       397.6  Rx         0231  8  D3 B0 00 D3 D3 C2 4C 9E 
   725)       397.9  Rx         0233  8  78 A5 00 10 DF 00 00 00 
   726)       398.1  Rx         023D  8  63 00 00 DF 00 93 01 78 
   727)       398.3  Rx         023E  8  02 60 FF 93 01 D1 00 73 
   728)       398.6  Rx         0358  8  01 00 00 00 02 00 00 00 
   729)       398.8  Rx         0551  8  6E A1 00 80 00 02 80 FF 
   730)       399.1  Rx         060D  8  00 06 00 00 00 00 20 00 
   731)       399.3  Rx         0002  5  73 00 00 07 8B 
   732)       399.4  Rx         0794  3  00 00 03 
   733)       400.5  Rx         0280  8  01 00 00 00 00 00 54 40 
   734)       400.8  Rx         02DE  8  0F 08 01 00 A0 C9 05 C8 
   735)       401.0  Rx         02D1  7  00 00 00 03 31 57 02 
   736)       401.2  Rx         0251  8  10 00 00 20 00 EF 16 DE 
   737)       401.5  Rx         0253  8  03 4A FF 00 00 00 00 00 
   738)       402.2  Rx         06F7  8  00 00 00 00 00 00 00 00 
   739)       407.1  Rx         02A5  7  00 00 00 20 00 00 00 
   740)       407.5  Rx         01F9  8  20 00 15 C7 00 00 4D 00 
   741)       407.8  Rx         0231  8  D3 80 00 D3 D3 C2 4C 9E 
   742)       408.0  Rx         0215  6  FF F0 FF 00 FF FF 
   743)       408.2  Rx         0233  8  78 A5 00 10 DF 00 00 00 
   744)       408.3  Rx         0216  1  40 
   745)       408.5  Rx         023D  8  03 00 00 DF 00 93 01 78 
   746)       408.8  Rx         023E  8  02 60 FF 93 01 D1 00 70 
   747)       409.0  Rx         0551  8  6E A1 00 80 00 02 80 FF 
   748)       409.2  Rx         0002  5  74 00 00 07 8C 
   749)       409.4  Rx         0794  3  00 00 00 
   750)       410.5  Rx         02DE  8  0F 08 02 00 A0 FF 05 C8 
   751)       410.8  Rx         02D1  7  00 00 00 00 31 57 02 
   752)       411.1  Rx         0251  8  10 00 00 20 00 2F 17 87 
   753)       411.3  Rx         0253  8  00 4A FF 00 00 00 00 00 
   754)       412.2  Rx         06F7  8  00 00 00 00 00 00 00 01 
   755)       412.5  Rx         0284  8  00 00 00 00 00 00 B8 3E 
   756)       412.7  Rx         0285  8  00 00 00 00 00 00 B8 3F 
   757)       413.0  Rx         029E  8  D3 00 00 40 00 FD 00 B0 
   758)       413.1  Rx         02A0  5  C1 7F F4 7F FF 
   759)       417.1  Rx         02A5  7  00 00 00 20 00 00 00 
   760)       417.9  Rx         01F9  8  20 00 15 C7 00 00 4D 00 
   761)       418.2  Rx         0231  8  D3 90 00 D3 D3 C2 4C 9E 
   762)       418.4  Rx         0233  8  78 A5 00 10 DF 00 00 00 
   763)       418.6  Rx         023D  8  23 00 00 DF 00 93 01 78 
   764)       418.9  Rx         023E  8  02 60 FF 93 01 D1 00 71 
   765)       419.0  Rx         0002  5  73 00 00 07 ED 
   766)       419.3  Rx         0551  8  6E A1 00 80 00 02 80 FF 
   767)       419.5  Rx         0794  3  00 00 01 
   768)       420.6  Rx         0280  8  01 00 00 00 00 00 54 40 
   769)       420.9  Rx         02DE  8  0F 08 03 00 A1 35 05 C8 
   770)       421.1  Rx         0251  8  10 00 00 20 00 6F 40 00 
   771)       421.3  Rx         02D1  7  00 00 00 01 31 57 02 
   772)       421.6  Rx         0253  8  01 4A FF 00 00 00 00 00 
   773)       422.3  Rx         06F7  8  00 00 00 00 00 00 00 02 
   774)       427.2  Rx         02A5  7  00 00 00 20 00 00 00 
   775)       427.7  Rx         0215  6  FF F0 FF 00 FF FF 
   776)       428.0  Rx         01F9  8  20 00 15 C7 00 00 4D 00 
   777)       428.1  Rx         0216  1  40 
   778)       428.3  Rx         0231  8  D3 A0 00 D3 D3 C2 4C 9E 
   779)       428.6  Rx         0233  8  78 A5 00 10 DF 00 00 00 
   780)       428.8  Rx         0002  5  74 00 00 07 AE 
   781)       429.0  Rx         023D  8  43 00 00 DF 00 93 01 78 
   782)       429.3  Rx         023E  8  02 60 FF 93 01 D1 00 72 
   783)       429.5  Rx         0551  8  6E A1 00 80 00 02 80 FF 
   784)       429.6  Rx         0794  3  00 00 02 
   785)       430.5  Rx         02DE  8  0F 08 00 00 A1 6B 05 C8 
   786)       430.7  Rx         02D1  7  00 00 00 02 31 57 02 
   787)       431.0  Rx         0251  8  10 00 00 20 00 AF 41 00 
   788)       431.3  Rx         0253  8  02 4A FF 00 00 00 00 00 
   789)       432.3  Rx         06F7  8  00 00 00 00 00 00 00 03 
   790)       432.5  Rx         0284  8  00 00 00 00 00 00 B9 3F 
   791)       432.7  Rx         0285  8  00 00 00 00 00 00 B9 40 
   792)       433.0  Rx         029E  8  D3 00 00 40 00 FC 01 B0 
   793)       433.2  Rx         02A0  5  BF 7F F3 7F FF 
   794)       433.4  Rx         0354  8  00 00 00 00 00 00 14 00 
   795)       437.2  Rx         02A5  7  00 00 00 20 00 00 00 
   796)       438.1  Rx         035D  8  C0 03 00 00 00 00 00 00 
   797)       438.4  Rx         01F9  8  20 00 15 C7 00 00 4D 00 
   798)       438.6  Rx         0231  8  D3 B0 00 D3 D3 C2 4C 9E 
   799)       438.8  Rx         0002  5  73 00 00 07 CF 
   800)       439.1  Rx         0233  8  78 A5 00 10 DF 00 00 00 
   801)       439.3  Rx         023D  8  63 00 00 DF 00 93 01 78 
   802)       439.5  Rx         023E  8  02 60 FF 93 01 D1 00 83 
   803)       439.7  Rx         0551  8  6E A1 00 80 00 02 80 FF 
   804)       439.9  Rx         0794  3  00 00 03 
   805)       440.5  Rx         0280  8  01 00 00 00 00 00 54 40 
   806)       440.8  Rx         02DE  8  0F 08 01 00 A1 D7 05 C8 
   807)       441.0  Rx         02D1  7  00 00 00 03 31 57 02 
   808)       441.2  Rx         0251  8  10 00 00 20 00 EF 42 00 
   809)       441.5  Rx         0253  8  03 4A FF 00 00 00 00 00 
   810)       442.3  Rx         06F7  8  00 00 00 00 00 00 00 00 
   811)       447.2  Rx         02A5  7  00 00 00 20 00 00 00 
   812)       447.8  Rx         0215  6  FF F0 FF 00 FF FF 
   813)       448.0  Rx         0216  1  40 
   814)       448.4  Rx         0625  6  32 00 FF 1D 00 00 
   815)       448.7  Rx         01F9  8  20 00 15 C7 00 00 4D 00 
   816)       448.9  Rx         0002  5  74 00 00 07 40 
   817)       449.1  Rx         0231  8  D3 80 00 D3 D3 C2 4C 9E 
   818)       449.3  Rx         0233  8  78 A5 00 10 DF 00 00 00 
   819)       449.6  Rx         023D  8  03 00 00 DF 00 93 01 78 
   820)       449.8  Rx         023E  8  02 60 FF 93 01 D1 00 80 
   821)       450.0  Rx         0551  8  6E A1 00 80 00 02 80 FF 
   822)       450.2  Rx         0794  3  00 00 00 
   823)       450.5  Rx         02DE  8  0F 08 02 00 A1 D7 05 C8 
   824)       450.7  Rx         02D1  7  00 00 00 00 31 57 02 
   825)       451.0  Rx         0251  8  10 00 00 20 00 2F 43 00 
   826)       451.3  Rx         0253  8  00 4A FF 00 00 00 00 00 
   827)       452.3  Rx         06F7  8  00 00 00 00 00 00 00 01 
   828)       452.5  Rx         0284  8  00 00 00 00 00 00 BA 40 
   829)       452.8  Rx         0285  8  00 00 00 00 00 00 BA 41 
   830)       453.0  Rx         029E  8  D3 00 00 40 00 FC 02 B1 
   831)       453.2  Rx         02A0  5  C1 7F F7 7F FF 
   832)       457.2  Rx         02A5  7  00 00 00 20 00 00 00 
   833)       458.5  Rx         0002  5  73 00 00 07 21 
   834)       458.7  Rx         01F9  8  20 00 15 AE 00 00 4D 00 
   835)       459.0  Rx         0231  8  D3 90 00 D3 D3 C2 4C 9E 
   836)       459.2  Rx         0233  8  78 A5 00 10 DE 00 00 00 
   837)       459.4  Rx         023D  8  23 00 00 DE 00 93 01 78 
   838)       459.7  Rx         023E  8  02 60 FF 93 01 D1 00 71 
   839)       459.9  Rx         0551  8  6E A1 00 80 00 02 80 FF 
   840)       460.1  Rx         0794  3  00 00 01 
   841)       460.6  Rx         0280  8  01 00 00 00 00 00 54 40 
   842)       460.9  Rx         02DE  8  0F 08 03 00 A2 0D 05 C8 
   843)       461.1  Rx         0251  8  10 00 00 20 00 6F 10 52 
   844)       461.3  Rx         02D1  7  00 00 00 01 31 57 02 
   845)       461.6  Rx         0253  8  01 4A FF 00 00 00 00 00 
   846)       461.8  Rx         05C5  8  40 00 00 00 00 0C 00 00 
   847)       462.3  Rx         06F7  8  00 00 00 00 00 00 00 02 
   848)       467.2  Rx         02A5  7  00 00 00 20 00 00 00 
   849)       467.7  Rx         0215  6  FF F0 FF 00 FF FF 
   850)       468.0  Rx         0216  1  40 
   851)       468.2  Rx         0385  7  84 00 B2 9A 92 A2 F0 
   852)       468.5  Rx         0002  5  74 00 00 07 62 
   853)       468.9  Rx         01F9  8  20 00 15 AE 00 00 4D 00 
   854)       469.1  Rx         0231  8  D3 A0 00 D3 D3 C2 4C 9E 
   855)       469.4  Rx         0233  8  78 A5 00 10 DE 00 00 00 
   856)       469.6  Rx         023D  8  43 00 00 DE 00 93 01 78 
   857)       469.9  Rx         023E  8  02 60 FF 93 01 D1 00 72 
   858)       470.1  Rx         0551  8  6E A1 00 80 00 02 80 FF 
   859)       470.3  Rx         0580  8  00 AA 40 00 00 00 00 00 
   860)       470.6  Rx         02DE  8  0F 08 00 00 A2 43 05 C8 
   861)       470.8  Rx         02D1  7  00 00 00 02 31 57 02 
   862)       471.0  Rx         0251  8  10 00 00 20 00 AF 11 48 
   863)       471.2  Rx         0794  3  00 00 02 
   864)       471.4  Rx         0253  8  02 4A FF 00 00 00 00 00 
   865)       472.3  Rx         06F7  8  00 00 00 00 00 00 00 03 
   866)       472.6  Rx         0284  8  00 00 00 00 00 00 BB 41 
   867)       472.8  Rx         0285  8  00 00 00 00 00 00 BB 42 
   868)       473.0  Rx         029E  8  D3 00 00 40 00 FD 03 B3 
   869)       473.2  Rx         02A0  5  C2 7F F6 7F FF 
   870)       473.4  Rx         0354  8  00 00 00 00 00 00 14 00 
   871)       477.2  Rx         02A5  7  00 00 00 20 00 00 00 
   872)       478.4  Rx         0002  5  73 00 00 07 03 
   873)       479.2  Rx         01F9  8  20 00 15 AE 00 00 4D 00 
   874)       479.4  Rx         0231  8  D3 B0 00 D3 D3 C2 4C 9E 
   875)       479.7  Rx         0233  8  78 A5 00 10 DE 00 00 00 
   876)       479.9  Rx         023D  8  63 00 00 DE 00 93 01 78 
   877)       480.2  Rx         023E  8  02 60 FF 93 01 D1 00 73 
   878)       480.4  Rx         0551  8  6E A1 00 80 00 02 80 FF 
   879)       480.5  Rx         0794  3  00 00 03 
   880)       480.8  Rx         0280  8  01 00 00 00 00 00 54 40 
   881)       481.1  Rx         0251  8  10 00 00 20 00 EF 12 30 
   882)       481.3  Rx         02DE  8  0F 08 01 00 A2 79 05 C8 
   883)       481.5  Rx         0253  8  03 4A FF 00 00 00 00 00 
   884)       481.7  Rx         02D1  7  00 00 00 03 31 57 02 
   885)       482.3  Rx         06F7  8  00 00 00 00 00 00 00 00 
   886)       487.2  Rx         02A5  7  00 00 00 20 00 00 00 
   887)       487.8  Rx         0215  6  FF F0 FF 00 FF FF 
   888)       488.0  Rx         0216  1  40 
   889)       488.2  Rx         0002  5  73 00 00 07 74 
   890)       489.4  Rx         01F9  8  20 00 15 AE 00 00 4D 00 
   891)       489.6  Rx         0231  8  D3 80 00 D3 D3 C2 4C 9E 
   892)       489.8  Rx         0233  8  78 A5 00 10 DE 00 00 00 
   893)       490.1  Rx         023D  8  03 00 00 DE 00 93 01 78 
   894)       490.3  Rx         023E  8  02 60 FF 93 01 D1 00 70 
   895)       490.6  Rx         0551  8  6E A1 00 80 00 02 80 FF 
   896)       490.7  Rx         0794  3  00 00 00 
   897)       490.9  Rx         02DE  8  0F 08 02 00 A2 AF 05 C8 
   898)       491.2  Rx         0251  8  10 00 00 20 00 2F 13 35 
   899)       491.4  Rx         02D1  7  00 00 00 00 31 07 02 
   900)       491.7  Rx         0253  8  00 4A FF 00 00 00 00 00 
   901)       492.3  Rx         0284  8  00 00 00 00 00 00 BC 42 
   902)       492.5  Rx         0285  8  00 00 00 00 00 00 BC 43 
   903)       492.8  Rx         029E  8  D3 00 00 40 00 FC 00 AF 
   904)       493.0  Rx         02A0  5  BF 7F F1 7F FF 
   905)       493.2  Rx         06F7  8  00 00 00 00 00 00 00 01 
   906)       497.3  Rx         02A5  7  00 00 00 20 00 00 00 
   907)       498.1  Rx         060D  8  00 06 00 00 00 00 20 00 
   908)       498.3  Rx         0002  5  74 00 00 07 15 
   909)       498.5  Rx         0358  8  01 00 00 00 02 00 00 00 
   910)       499.7  Rx         01F9  8  20 00 15 AE 00 00 4D 00 
   911)       499.9  Rx         0231  8  D3 90 00 D3 D3 C2 4C 9E 
   912)       500.1  Rx         0233  8  78 A5 00 10 DE 00 00 00 
   913)       500.4  Rx         023D  8  23 00 00 DE 00 93 01 78 
   914)       500.7  Rx         023E  8  02 60 FF 93 01 D1 00 71 
   915)       500.9  Rx         0280  8  01 00 00 00 00 00 25 40 
   916)       501.1  Rx         0251  8  10 00 00 20 00 6F 14 31 
   917)       501.3  Rx         02DE  8  0F 08 03 00 A2 E5 05 C8 
   918)       501.6  Rx         0253  8  01 4A FF 00 00 00 00 00 
   919)       501.8  Rx         02D1  7  00 00 00 01 31 07 02 
   920)       502.0  Rx         0551  8  6E A2 00 80 00 02 80 FF 
   921)       502.2  Rx         0794  3  00 00 01 
   922)       502.5  Rx         06F7  8  00 00 00 00 00 00 00 02 
   923)       507.3  Rx         02A5  7  00 00 00 20 00 00 00 
   924)       507.7  Rx         0215  6  FF F0 FF 00 FF FF 
   925)       508.0  Rx         0216  1  40 
   926)       508.2  Rx         0002  5  73 00 00 07 56 
   927)       509.9  Rx         01F9  8  20 00 15 AE 00 00 4D 00 
   928)       510.1  Rx         0231  8  D3 A0 00 D3 D3 C2 4C 9E 
   929)       510.4  Rx         0233  8  78 A5 00 10 DE 00 00 00 
   930)       510.6  Rx         023D  8  43 00 00 DE 00 94 01 78 
   931)       510.8  Rx         023E  8  02 60 FF 94 01 D1 00 72 
   932)       511.0  Rx         0251  8  10 00 00 20 00 AF 15 37 
   933)       511.3  Rx         02DE  8  0F 08 00 00 A3 1B 05 C8 
   934)       511.5  Rx         0253  8  02 4A FF 00 00 00 00 00 
   935)       511.8  Rx         02D1  7  00 00 00 02 31 07 02 
   936)       512.0  Rx         0551  8  6E A2 00 80 00 02 80 FF 
   937)       512.1  Rx         0794  3  00 00 02 
   938)       512.4  Rx         0284  8  00 00 00 00 00 00 BD 43 
   939)       512.6  Rx         0285  8  00 00 00 00 00 00 BD 44 
   940)       512.9  Rx         029E  8  D3 00 00 40 00 FC 01 B0 
   941)       513.1  Rx         02A0  5  C0 7F F6 7F FF 
   942)       513.3  Rx         0354  8  00 00 00 00 00 00 14 00 
   943)       513.5  Rx         06F7  8  00 00 00 00 00 00 00 03 
   944)       517.3  Rx         02A5  7  00 00 00 20 00 00 00 
   945)       517.9  Rx         0002  5  73 00 00 07 47 
   946)       520.2  Rx         01F9  8  20 00 15 C7 00 00 4D 00 
   947)       520.4  Rx         0231  8  D3 B0 00 D3 D3 C2 4C 9E 
   948)       520.6  Rx         0233  8  78 A5 00 10 DF 00 00 00 
   949)       520.8  Rx         023D  8  63 00 00 DF 00 94 01 78 
   950)       521.1  Rx         023E  8  02 60 FF 94 01 D1 00 83 
   951)       521.3  Rx         0251  8  10 00 00 20 00 EF 16 DE 
   952)       521.6  Rx         0280  8  01 00 00 00 00 00 25 40 
   953)       521.8  Rx         0253  8  03 4A FF 00 00 00 00 00 
   954)       522.0  Rx         02DE  8  0F 08 01 00 A3 51 05 C8 
   955)       522.3  Rx         02D1  7  00 00 00 03 31 07 02 
   956)       522.5  Rx         0551  8  6E A2 00 80 00 02 80 FF 
   957)       522.7  Rx         06F7  8  00 00 00 00 00 00 00 00 
   958)       522.9  Rx         0794  3  00 00 03 
   959)       527.3  Rx         02A5  7  00 00 00 20 00 00 00 
   960)       527.8  Rx         0215  6  FF F0 FF 00 FF FF 
   961)       528.0  Rx         0002  5  73 00 00 07 B8 
   962)       528.1  Rx         0216  1  40 
   963)       530.5  Rx         01F9  8  20 00 15 C7 00 00 4D 00 
   964)       530.7  Rx         0231  8  D3 80 00 D3 D3 C2 4C 9E 
   965)       530.9  Rx         0233  8  78 A5 00 10 DF 00 00 00 
   966)       531.2  Rx         023D  8  03 00 00 DF 00 93 01 78 
   967)       531.4  Rx         023E  8  02 60 FF 93 01 D1 00 80 
   968)       531.7  Rx         0251  8  10 00 00 20 00 2F 17 87 
   969)       531.9  Rx         02DE  8  0F 08 02 00 A3 87 05 C8 
   970)       532.2  Rx         0253  8  00 4A FF 00 00 00 00 00 
   971)       532.4  Rx         0284  8  00 00 00 00 00 00 BE 44 
   972)       532.6  Rx         0285  8  00 00 00 00 00 00 BE 45 
   973)       532.9  Rx         029E  8  D3 00 00 40 00 FE 02 B3 
   974)       533.1  Rx         02A0  5  C3 7F F5 7F FF 
   975)       533.3  Rx         02D1  7  00 00 00 00 31 07 02 
   976)       533.5  Rx         0551  8  6E A2 00 80 00 02 80 FF 
   977)       533.8  Rx         06F7  8  00 00 00 00 00 00 00 01 
   978)       533.9  Rx         0794  3  00 00 00 
   979)       537.3  Rx         02A5  7  00 00 00 20 00 00 00 
   980)       537.9  Rx         0002  5  73 00 00 07 A9 
   981)       538.1  Rx         035D  8  C0 03 00 00 00 00 00 00 
   982)       540.7  Rx         0280  8  01 00 00 00 00 00 25 40 
   983)       540.9  Rx         01F9  8  20 00 15 C7 00 00 4D 00 
   984)       541.1  Rx         0231  8  D3 90 00 D3 D3 C2 4C 9E 
   985)       541.4  Rx         0233  8  78 A5 00 10 DF 00 00 00 
   986)       541.6  Rx         023D  8  23 00 00 DF 00 94 01 78 
   987)       541.8  Rx         023E  8  02 60 FF 94 01 D1 00 71 
   988)       542.1  Rx         0251  8  10 00 00 20 00 6F 40 00 
   989)       542.3  Rx         02DE  8  0F 08 03 00 A3 BD 05 C8 
   990)       542.6  Rx         0253  8  01 4A FF 00 00 00 00 00 
   991)       542.8  Rx         02D1  7  00 00 00 01 31 07 02 
   992)       543.0  Rx         0551  8  6E A2 00 80 00 02 80 FF 
   993)       543.3  Rx         06F7  8  00 00 00 00 00 00 00 02 
   994)       543.4  Rx         0794  3  00 00 01 
   995)       547.3  Rx         02A5  7  00 00 00 20 00 00 00 
   996)       547.8  Rx         0215  6  FF F0 FF 00 FF FF 
   997)       548.0  Rx         0002  5  74 00 00 07 EA 
   998)       548.1  Rx         0216  1  40 
   999)       548.4  Rx         0625  6  32 00 FF 1D 00 00 
  1000)       550.5  Rx         02DE  8  0F 08 00 00 A3 F3 05 C8 
  1001)       550.7  Rx         02D1  7  00 00 00 02 31 07 02 
  1002)       551.0  Rx         01F9  8  20 00 15 C7 00 00 4D 00 
  1003)       551.2  Rx         0231  8  D3 A0 00 D3 D3 C2 4C 9E 
  1004)       551.5  Rx         0233  8  78 A5 00 10 DF 00 00 00 
  1005)       551.7  Rx         023D  8  43 00 00 DF 00 93 01 78 
  1006)       551.9  Rx         023E  8  02 60 FF 93 01 D1 00 72 
  1007)       552.2  Rx         0251  8  10 00 00 20 00 AF 41 00 
  1008)       552.4  Rx         0284  8  00 00 00 00 00 00 BF 45 
  1009)       552.7  Rx         0253  8  02 4A FF 00 00 00 00 00 
  1010)       552.9  Rx         0285  8  00 00 00 00 00 00 BF 46 
  1011)       553.2  Rx         029E  8  D3 00 00 40 00 FF 03 B5 
  1012)       553.3  Rx         02A0  5  C6 7F F1 7F FF 
  1013)       553.6  Rx         0354  8  00 00 00 00 00 00 14 00 
  1014)       553.8  Rx         0551  8  6E A2 00 80 00 02 80 FF 
  1015)       554.0  Rx         06F7  8  00 00 00 00 00 00 00 03 
  1016)       554.2  Rx         0794  3  00 00 02 
  1017)       557.3  Rx         02A5  7  00 00 00 20 00 00 00 
  1018)       557.6  Rx         0002  5  73 00 00 07 8B 
  1019)       560.5  Rx         0280  8  01 00 00 00 00 00 25 40 
  1020)       560.8  Rx         02DE  8  0F 08 01 00 A4 29 05 C8 
  1021)       561.0  Rx         0251  8  10 00 00 20 00 EF 42 00 
  1022)       561.2  Rx         01F9  8  20 00 15 C7 00 00 4D 00 
  1023)       561.5  Rx         0231  8  D3 B0 00 D3 D3 C2 4C 9E 
  1024)       561.7  Rx         0233  8  78 A5 00 10 DF 00 00 00 
  1025)       561.9  Rx         023D  8  63 00 00 DF 00 93 01 78 
  1026)       562.2  Rx         023E  8  02 60 FF 93 01 D1 00 73 
  1027)       562.4  Rx         0253  8  03 4A FF 00 00 00 00 00 
  1028)       562.7  Rx         02D1  7  00 00 00 03 31 07 02 
  1029)       562.9  Rx         0551  8  6E A2 00 80 00 02 80 FF 
  1030)       563.1  Rx         05C5  8  40 00 00 00 00 0C 00 00 
  1031)       563.4  Rx         06F7  8  00 00 00 00 00 00 00 00 
  1032)       563.5  Rx         0794  3  00 00 03 
  1033)       567.4  Rx         02A5  7  00 00 00 20 00 00 00 
  1034)       567.6  Rx         0002  5  74 00 00 07 8C 
  1035)       567.8  Rx         0215  6  FF F0 FF 00 FF FF 
  1036)       568.0  Rx         0385  7  84 00 B2 9A 92 A2 F0 
  1037)       568.1  Rx         0216  1  40 
  1038)       570.5  Rx         02DE  8  0F 08 02 00 A4 5F 05 C8 
  1039)       570.7  Rx         02D1  7  00 00 00 00 31 07 02 
  1040)       571.0  Rx         0251  8  10 00 00 20 00 2F 43 00 
  1041)       571.2  Rx         0253  8  00 4A FF 00 00 00 00 00 
  1042)       571.5  Rx         01F9  8  20 00 15 E0 00 00 4D 00 
  1043)       571.7  Rx         0231  8  D3 80 00 D3 D3 C2 4C 9E 
  1044)       572.0  Rx         0233  8  78 A5 00 10 E0 00 00 00 
  1045)       572.2  Rx         023D  8  03 00 00 E0 00 93 01 78 
  1046)       572.4  Rx         023E  8  02 60 FF 93 01 D1 00 70 
  1047)       572.7  Rx         0284  8  00 00 00 00 00 00 C0 46 
  1048)       572.9  Rx         0285  8  00 00 00 00 00 00 C0 47 
  1049)       573.2  Rx         029E  8  D3 00 00 40 00 FE 00 B1 
  1050)       573.3  Rx         02A0  5  C4 7F F4 7F FF 
  1051)       573.6  Rx         0551  8  6E A2 00 80 00 02 80 FF 
  1052)       573.8  Rx         0580  8  00 AA 40 00 00 00 00 00 
  1053)       574.1  Rx         06F7  8  00 00 00 00 00 00 00 01 
  1054)       574.2  Rx         0794  3  00 00 00 
  1055)       577.4  Rx         02A5  7  00 00 00 20 00 00 00 
  1056)       577.6  Rx         0002  5  73 00 00 07 ED 
  1057)       580.6  Rx         0280  8  01 00 00 00 00 00 25 40 
  1058)       580.9  Rx         02DE  8  0F 08 03 00 A4 95 05 C8 
  1059)       581.1  Rx         0251  8  10 00 00 20 00 6F 10 52 
  1060)       581.3  Rx         02D1  7  00 00 00 01 31 07 02 
  1061)       581.5  Rx         0253  8  01 4A FF 00 00 00 00 00 
  1062)       581.8  Rx         01F9  8  20 00 15 E0 00 00 4D 00 
  1063)       582.0  Rx         0231  8  D3 90 00 D3 D3 C2 4C 9E 
  1064)       582.3  Rx         0233  8  78 A6 00 10 E0 00 00 00 
  1065)       582.5  Rx         023D  8  23 00 00 E0 00 93 01 78 
  1066)       582.7  Rx         023E  8  02 60 FF 93 01 D1 00 71 
  1067)       583.0  Rx         0551  8  6E A2 00 80 00 02 80 FF 
  1068)       583.2  Rx         06F7  8  00 00 00 00 00 00 00 02 
  1069)       583.4  Rx         0794  3  00 00 01 
  1070)       587.3  Rx         0002  5  73 00 00 07 DE 
  1071)       587.5  Rx         02A5  7  00 00 00 20 00 00 00 
  1072)       587.8  Rx         0215  6  FF F0 FF 00 FF FF 
  1073)       588.0  Rx         0216  1  40 
  1074)       590.5  Rx         02DE  8  0F 08 00 00 A4 CB 05 C8 
  1075)       590.8  Rx         02D1  7  00 00 00 02 31 60 02 
  1076)       591.0  Rx         0251  8  10 00 00 20 00 AF 11 48 
  1077)       591.3  Rx         0253  8  02 4A FF 00 00 00 00 00 
  1078)       591.8  Rx         01F9  8  20 00 15 E0 00 00 4D 00 
  1079)       592.1  Rx         0231  8  D3 A0 00 D3 D3 C2 4C 9E 
  1080)       592.3  Rx         0233  8  78 A6 00 10 E0 00 00 00 
  1081)       592.5  Rx         023D  8  43 00 00 E0 00 93 01 78 
  1082)       592.8  Rx         023E  8  02 60 FF 93 01 D1 00 72 
  1083)       593.0  Rx         0284  8  00 00 00 00 00 00 C1 47 
  1084)       593.2  Rx         0285  8  00 00 00 00 00 00 C1 48 
  1085)       593.5  Rx         029E  8  D3 00 00 40 00 00 01 B4 
  1086)       593.7  Rx         02A0  5  C8 7F F6 80 00 
  1087)       593.9  Rx         0354  8  00 00 00 00 00 00 14 00 
  1088)       594.2  Rx         0551  8  6E A2 00 80 00 02 80 FF 
  1089)       594.4  Rx         06F7  8  00 00 00 00 00 00 00 03 
  1090)       594.6  Rx         0794  3  00 00 02 
  1091)       597.3  Rx         0002  5  74 00 00 07 BF 
  1092)       597.6  Rx         02A5  7  00 00 00 20 00 00 00 
  1093)       597.9  Rx         060D  8  00 06 00 00 00 00 20 00 
  1094)       598.1  Rx         0358  8  01 00 00 00 02 00 00 00 
  1095)       600.6  Rx         0280  8  01 00 00 00 00 00 56 40 
  1096)       600.8  Rx         02DE  8  0F 00 01 00 A5 01 05 C8 
  1097)       601.1  Rx         0251  8  10 00 00 20 00 EF 12 30 
  1098)       601.3  Rx         02D1  7  00 00 00 03 31 60 02 
  1099)       601.5  Rx         0253  8  03 4A FF 00 00 00 00 00 
  1100)       602.1  Rx         01F9  8  20 00 15 E0 00 00 4D 00 
  1101)       602.3  Rx         0231  8  D3 B0 00 D3 D3 C2 4C 9E 
  1102)       602.5  Rx         0233  8  78 A6 00 10 E0 00 00 00 
  1103)       602.8  Rx         023D  8  63 00 00 E0 00 93 01 78 
  1104)       603.0  Rx         023E  8  02 60 FF 93 01 D1 00 73 
  1105)       603.3  Rx         0551  8  6E A2 00 80 00 02 80 FF 
  1106)       603.5  Rx         06F7  8  00 00 00 00 00 00 00 00 
  1107)       603.6  Rx         0794  3  00 00 03 
  1108)       607.3  Rx         0002  5  73 00 00 07 30 
  1109)       607.5  Rx         02A5  7  00 00 00 20 00 00 00 
  1110)       607.8  Rx         0215  6  FF F0 FF 00 FF FF 
  1111)       608.0  Rx         0216  1  40 
  1112)       610.5  Rx         02DE  8  0F 00 02 00 A5 37 05 C8 
  1113)       610.7  Rx         02D1  7  00 00 00 00 31 60 02 
  1114)       611.0  Rx         0251  8  10 00 00 20 00 2F 13 35 
  1115)       611.2  Rx         0253  8  00 4A FF 00 00 00 00 00 
  1116)       612.2  Rx         0284  8  00 00 00 00 00 00 C2 48 
  1117)       612.5  Rx         01F9  8  20 00 15 E0 00 00 4D 00 
  1118)       612.7  Rx         0231  8  D3 80 00 D3 D3 C2 4C 9E 
  1119)       612.9  Rx         0233  8  78 A6 00 10 E0 00 00 00 
  1120)       613.1  Rx         023D  8  03 00 00 E0 00 88 01 78 
  1121)       613.4  Rx         023E  8  02 60 FF 88 01 D1 00 80 
  1122)       613.6  Rx         0285  8  00 00 00 00 00 00 C2 49 
  1123)       613.9  Rx         029E  8  D3 00 00 00 00 FF 02 74 
  1124)       614.1  Rx         02A0  5  C6 7F F3 80 00 
  1125)       614.3  Rx         0551  8  6E A2 00 80 00 02 80 FF 
  1126)       614.6  Rx         06F7  8  00 00 00 00 00 00 00 01 
  1127)       614.7  Rx         0794  3  00 00 00 
  1128)       617.0  Rx         0002  5  73 00 00 07 21 
  1129)       617.4  Rx         02A5  7  00 00 00 20 00 00 00 
  1130)       620.6  Rx         0280  8  01 00 00 00 00 00 56 40 
  1131)       620.9  Rx         02DE  8  0F 00 03 00 A5 6D 05 C8 
  1132)       621.1  Rx         0251  8  10 00 00 20 00 6F 14 31 
  1133)       621.3  Rx         02D1  7  00 00 00 01 31 60 02 
  1134)       621.6  Rx         0253  8  01 4A FF 00 00 00 00 00 
  1135)       622.5  Rx         01F9  8  20 00 15 E0 00 00 4D 00 
  1136)       622.7  Rx         0231  8  D3 90 00 D3 D3 C2 4C 9E 
  1137)       623.0  Rx         0233  8  78 A6 00 10 E0 00 00 00 
  1138)       623.2  Rx         023D  8  23 00 00 E0 00 88 01 78 
  1139)       623.4  Rx         023E  8  02 60 FF 88 01 D1 00 81 
  1140)       623.7  Rx         0551  8  6E A2 00 80 00 02 80 FF 
  1141)       624.0  Rx         06F7  8  00 00 00 00 00 00 00 02 
  1142)       624.1  Rx         0794  3  00 00 01 
  1143)       627.0  Rx         0002  5  74 00 00 07 62 
  1144)       627.5  Rx         02A5  7  00 00 00 20 00 00 00 
  1145)       627.8  Rx         0215  6  FF F0 FF 00 FF FF 
  1146)       628.0  Rx         0216  1  40 
  1147)       630.5  Rx         02DE  8  0F 00 00 00 A5 A3 05 C8 
  1148)       630.8  Rx         02D1  7  00 00 00 02 31 60 02 
  1149)       631.0  Rx         0251  8  10 00 00 20 00 AF 15 37 
  1150)       631.3  Rx         0253  8  02 4A FF 00 00 00 00 00 
  1151)       632.2  Rx         0284  8  00 00 00 00 00 00 C3 49 
  1152)       632.4  Rx         0285  8  00 00 00 00 00 00 C3 4A 
  1153)       632.7  Rx         029E  8  D3 00 00 00 00 FF 03 75 
  1154)       632.9  Rx         01F9  8  20 00 15 E0 00 00 4D 00 
  1155)       633.2  Rx         0231  8  D3 A0 00 D3 D3 C2 4C 9E 
  1156)       633.4  Rx         0233  8  78 A5 00 10 E0 00 00 00 
  1157)       633.6  Rx         023D  8  43 00 00 E0 00 88 01 78 
  1158)       633.8  Rx         023E  8  02 60 FF 88 01 D1 00 72 
  1159)       634.0  Rx         02A0  5  C6 7F F4 80 00 
  1160)       634.3  Rx         0354  8  00 00 00 00 00 00 04 00 
  1161)       634.5  Rx         0551  8  6E A2 00 80 00 02 80 FF 
  1162)       634.8  Rx         06F7  8  00 00 00 00 00 00 00 03 
  1163)       634.9  Rx         0794  3  00 00 02 
  1164)       637.0  Rx         0002  5  73 00 00 07 03 
  1165)       637.5  Rx         02A5  7  00 00 00 20 00 00 00 
  1166)       637.8  Rx         035D  8  C0 03 00 00 00 00 00 00 
  1167)       640.6  Rx         0280  8  01 00 00 00 00 00 56 40 
  1168)       640.8  Rx         02DE  8  0F 00 01 00 A5 D9 05 C8 
  1169)       641.0  Rx         0251  8  10 00 00 20 00 EF 16 DE 
  1170)       641.2  Rx         02D1  7  00 00 00 03 31 60 02 
  1171)       641.5  Rx         0253  8  03 4A FF 00 00 00 00 00 
  1172)       642.6  Rx         06F7  8  00 00 00 00 00 00 00 00 
  1173)       643.2  Rx         01F9  8  20 00 15 E0 00 00 4D 00 
  1174)       643.5  Rx         0231  8  D3 B0 00 D3 D3 C2 4C 9E 
  1175)       643.7  Rx         0233  8  78 A6 00 10 E0 00 00 00 
  1176)       643.9  Rx         023D  8  63 00 00 E0 00 87 01 78 
  1177)       644.2  Rx         023E  8  02 60 FF 87 01 D1 00 83 
  1178)       644.4  Rx         0551  8  6E A2 00 80 00 02 80 FF 
  1179)       644.6  Rx         0794  3  00 00 03 
  1180)       646.8  Rx         0002  5  74 00 01 07 14 
  1181)       647.5  Rx         02A5  7  00 00 00 20 00 00 00 
  1182)       647.8  Rx         0215  6  FF F0 FF 00 FF FF 
  1183)       648.0  Rx         0216  1  40 
  1184)       648.5  Rx         0625  6  32 00 FF 1D 00 00 
  1185)       650.5  Rx         02DE  8  0F 00 02 00 A6 0F 05 C8 
  1186)       650.8  Rx         02D1  7  00 00 00 00 31 60 02 
  1187)       651.0  Rx         0251  8  10 00 00 20 00 2F 17 87 
  1188)       651.2  Rx         0253  8  00 4A FF 00 00 00 00 00 
  1189)       652.1  Rx         0284  8  00 00 00 00 00 00 C4 4A 
  1190)       652.4  Rx         0285  8  00 00 00 00 00 00 C4 4B 
  1191)       652.6  Rx         029E  8  D3 00 00 00 00 00 00 73 
  1192)       652.8  Rx         02A0  5  C8 7F F7 80 00 
  1193)       653.1  Rx         06F7  8  00 00 00 00 00 00 00 01 
  1194)       653.3  Rx         01F9  8  20 00 15 E0 00 00 4D 00 
  1195)       653.5  Rx         0231  8  D3 80 00 D3 D3 C2 4C 9E 
  1196)       653.8  Rx         0233  8  78 A6 00 10 E0 00 00 00 
  1197)       654.0  Rx         023D  8  03 00 00 E0 00 87 01 78 
  1198)       654.2  Rx         023E  8  02 60 FF 87 01 D1 00 80 
  1199)       654.5  Rx         0551  8  6E A3 00 80 00 02 80 FF 
  1200)       654.6  Rx         0794  3  00 00 00 
  1201)       656.7  Rx         0002  5  73 00 01 07 75 
  1202)       657.5  Rx         02A5  7  00 00 00 20 00 00 00 
  1203)       660.6  Rx         0280  8  01 00 00 00 00 00 56 40 
  1204)       660.9  Rx         0251  8  10 00 00 20 00 6F 40 00 
  1205)       661.1  Rx         02DE  8  0F 00 03 00 A6 45 05 C8 
  1206)       661.4  Rx         0253  8  01 4A FF 00 00 00 00 00 
  1207)       661.6  Rx         02D1  7  00 00 00 01 31 60 02 
  1208)       661.8  Rx         05C5  8  40 00 00 00 00 0C 00 00 
  1209)       662.6  Rx         06F7  8  00 00 00 00 00 00 00 02 
  1210)       663.4  Rx         01F9  8  20 00 15 C7 00 00 4D 00 
  1211)       663.7  Rx         0231  8  D3 90 00 D3 D3 C2 4C 9E 
  1212)       663.9  Rx         0233  8  78 A5 00 10 DF 00 00 00 
  1213)       664.2  Rx         023D  8  23 00 00 DF 00 87 01 78 
  1214)       664.4  Rx         023E  8  02 60 FF 87 01 D1 00 71 
  1215)       664.6  Rx         0551  8  6E A3 00 80 00 02 80 FF 
  1216)       664.8  Rx         0794  3  00 00 01 
  1217)       666.7  Rx         0002  5  74 00 00 07 26 
  1218)       667.5  Rx         02A5  7  00 00 00 20 00 00 00 
  1219)       667.7  Rx         0385  7  84 00 B2 9A 92 A2 F0 
  1220)       667.9  Rx         0215  6  FF F0 FF 00 FF FF 
  1221)       668.2  Rx         0216  1  40 
  1222)       670.5  Rx         02DE  8  0F 00 00 00 A6 7B 05 C8 
  1223)       670.8  Rx         02D1  7  00 00 00 02 31 60 02 
  1224)       671.0  Rx         0251  8  10 00 00 20 00 AF 41 00 
  1225)       671.3  Rx         0253  8  02 4A FF 00 00 00 00 00 
  1226)       672.2  Rx         0284  8  00 00 00 00 00 00 C5 4B 
  1227)       672.4  Rx         0285  8  00 00 00 00 00 00 C5 4C 
  1228)       672.6  Rx         029E  8  D3 00 00 00 00 00 01 74 
  1229)       672.8  Rx         02A0  5  C7 7F F4 80 00 
  1230)       673.0  Rx         0354  8  00 00 00 00 00 00 04 00 
  1231)       673.3  Rx         06F7  8  00 00 00 00 00 00 00 03 
  1232)       673.8  Rx         01F9  8  20 00 15 C7 00 00 4D 00 
  1233)       674.0  Rx         0231  8  D3 A0 00 D3 D3 C2 4C 9E 
  1234)       674.3  Rx         0233  8  78 A4 00 10 DF 00 00 00 
  1235)       674.5  Rx         023D  8  43 00 00 DF 00 87 01 78 
  1236)       674.7  Rx         023E  8  02 60 FF 87 01 D1 00 72 
  1237)       675.0  Rx         0551  8  6E A3 00 80 00 02 80 FF 
  1238)       675.2  Rx         0580  8  00 AA 40 00 00 00 00 00 
  1239)       675.4  Rx         0794  3  00 00 02 
  1240)       676.5  Rx         0002  5  73 00 00 07 47 
  1241)       677.5  Rx         02A5  7  00 00 00 20 00 00 00 
  1242)       680.6  Rx         0280  8  01 00 00 00 00 00 56 40 
  1243)       680.8  Rx         02DE  8  0F 00 01 00 A6 B1 05 C8 
  1244)       681.1  Rx         0251  8  10 00 00 20 00 EF 42 00 
  1245)       681.3  Rx         02D1  7  00 00 00 03 31 60 02 
  1246)       681.5  Rx         0253  8  03 4A FF 00 00 00 00 00 
  1247)       682.6  Rx         06F7  8  00 00 00 00 00 00 00 00 
  1248)       684.0  Rx         01F9  8  20 00 15 C7 00 00 4D 00 
  1249)       684.2  Rx         0231  8  D3 B0 00 D3 D3 C2 4C 9E 
  1250)       684.4  Rx         0233  8  78 A5 00 10 DF 00 00 00 
  1251)       684.7  Rx         023D  8  63 00 00 DF 00 87 01 78 
  1252)       684.9  Rx         023E  8  02 60 FF 87 01 D1 00 73 
  1253)       685.2  Rx         0551  8  6E A3 00 80 00 02 80 FF 
  1254)       685.3  Rx         0794  3  00 00 03 
  1255)       686.5  Rx         0002  5  73 00 00 07 B8 
  1256)       687.5  Rx         02A5  7  00 00 00 20 00 00 00 
  1257)       687.8  Rx         0215  6  FF F0 FF 00 FF FF 
  1258)       688.0  Rx         0216  1  40 
  1259)       690.5  Rx         02DE  8  0F 00 02 00 A6 E7 05 C8 
  1260)       690.7  Rx         02D1  7  00 00 00 00 31 A7 02 
  1261)       691.0  Rx         0251  8  10 00 00 20 00 2F 43 00 
  1262)       691.2  Rx         0253  8  00 4A FF 00 00 00 00 00 
  1263)       692.1  Rx         0284  8  00 00 00 00 00 00 C6 4C 
  1264)       692.3  Rx         0285  8  00 00 00 00 00 00 C6 4D 
  1265)       692.6  Rx         029E  8  D3 00 00 00 00 FF 02 74 
  1266)       692.8  Rx         02A0  5  C6 7F F3 80 00 
  1267)       693.0  Rx         06F7  8  00 00 00 00 00 00 00 01 
  1268)       694.1  Rx         01F9  8  20 00 15 C7 00 00 4D 00 
  1269)       694.4  Rx         0231  8  D3 80 00 D3 D3 C2 4C 9E 
  1270)       694.6  Rx         0233  8  78 A5 00 10 DF 00 00 00 
  1271)       694.8  Rx         023D  8  03 00 00 DF 00 90 01 78 
  1272)       695.1  Rx         023E  8  02 60 FF 90 01 D1 00 70 
  1273)       695.3  Rx         0551  8  6E A3 00 80 00 02 80 FF 
  1274)       695.5  Rx         0794  3  00 00 00 
  1275)       696.4  Rx         0002  5  73 00 00 07 A9 
  1276)       697.5  Rx         02A5  7  00 00 00 20 00 00 00 
  1277)       697.8  Rx         0358  8  01 00 00 00 02 00 00 00 
  1278)       698.0  Rx         060D  8  00 06 00 00 00 00 20 00 
  1279)       700.7  Rx         0280  8  01 00 00 00 00 00 80 40 
  1280)       700.9  Rx         0251  8  10 00 00 20 00 6F 10 52 
  1281)       701.1  Rx         02DE  8  0F 00 03 00 A7 1D 05 C8 
  1282)       701.4  Rx         0253  8  01 4A FF 00 00 00 00 00 
  1283)       701.6  Rx         02D1  7  00 00 00 01 31 A7 02 
  1284)       702.6  Rx         06F7  8  00 00 00 00 00 00 00 02 
  1285)       704.5  Rx         01F9  8  20 00 15 C7 00 00 4D 00 
  1286)       704.8  Rx         0231  8  D3 90 00 D3 D3 C2 4C 9E 
  1287)       705.0  Rx         0233  8  78 A5 00 10 DF 00 00 00 
  1288)       705.2  Rx         023D  8  23 00 00 DF 00 91 01 78 
  1289)       705.5  Rx         023E  8  02 60 FF 91 01 D1 00 71 
  1290)       705.7  Rx         0551  8  6E A3 00 80 00 02 80 FF 
  1291)       705.9  Rx         0794  3  00 00 01 
  1292)       706.4  Rx         0002  5  73 00 00 07 9A 
  1293)       707.5  Rx         02A5  7  00 00 00 20 00 00 00 
  1294)       707.8  Rx         0215  6  FF F0 FF 00 FF FF 
  1295)       708.0  Rx         0216  1  40 
  1296)       710.5  Rx         02DE  8  0F 00 00 00 A7 53 05 C8 
  1297)       710.8  Rx         02D1  7  00 00 00 02 31 A7 02 
  1298)       711.0  Rx         0251  8  10 00 00 20 00 AF 11 48 
  1299)       711.3  Rx         0253  8  02 4A FF 00 00 00 00 00 
  1300)       712.1  Rx         0284  8  00 00 00 00 00 00 C7 4D 
  1301)       712.4  Rx         0285  8  00 00 00 00 00 00 C7 4E 
  1302)       712.6  Rx         029E  8  D3 00 00 00 00 00 03 76 
  1303)       712.8  Rx         02A0  5  C8 7F F7 7F FF 
  1304)       713.0  Rx         0354  8  00 00 00 00 00 00 04 00 
  1305)       713.3  Rx         06F7  8  00 00 00 00 00 00 00 03 
  1306)       714.6  Rx         01F9  8  20 00 15 E0 00 00 4D 00 
  1307)       714.8  Rx         0231  8  D3 A0 00 D3 D3 C2 4C 9E 
  1308)       715.1  Rx         0233  8  78 A5 00 10 E0 00 00 00 
  1309)       715.3  Rx         023D  8  43 00 00 E0 00 92 01 78 
  1310)       715.5  Rx         023E  8  02 60 FF 92 01 D1 00 72 
  1311)       715.8  Rx         0551  8  6E A3 00 80 00 02 80 FF 
  1312)       715.9  Rx         0794  3  00 00 02 
  1313)       716.2  Rx         0002  5  73 00 00 07 8B 
  1314)       717.6  Rx         02A5  7  00 00 00 20 00 00 00 
  1315)       720.6  Rx         0280  8  01 00 00 00 00 00 80 40 
  1316)       720.9  Rx         0251  8  10 00 00 20 00 EF 12 30 
  1317)       721.1  Rx         02DE  8  0F 00 01 00 A7 89 05 C8 
  1318)       721.3  Rx         0253  8  03 4A FF 00 00 00 00 00 
  1319)       721.5  Rx         02D1  7  00 00 00 03 31 A7 02 
  1320)       722.7  Rx         06F7  8  00 00 00 00 00 00 00 00 
  1321)       724.9  Rx         01F9  8  20 00 15 E0 00 00 4D 00 
  1322)       725.1  Rx         0231  8  D3 B0 00 D3 D3 C2 4C 9E 
  1323)       725.3  Rx         0233  8  78 A6 00 10 E0 00 00 00 
  1324)       725.6  Rx         023D  8  63 00 00 E0 00 91 01 78 
  1325)       725.8  Rx         023E  8  02 60 FF 91 01 D1 00 83 
  1326)       726.0  Rx         0551  8  6E A3 00 80 00 02 80 FF 
  1327)       726.3  Rx         0002  5  73 00 00 07 FC 
  1328)       726.4  Rx         0794  3  00 00 03 
  1329)       727.6  Rx         02A5  7  00 00 00 20 00 00 00 
  1330)       727.8  Rx         0215  6  FF F0 FF 00 FF FF 
  1331)       728.1  Rx         0216  1  40 
  1332)       730.6  Rx         02DE  8  0F 00 02 00 A7 BF 05 C8 
  1333)       730.8  Rx         02D1  7  00 00 00 00 31 A7 02 
  1334)       731.0  Rx         0251  8  10 00 00 20 00 2F 13 35 
  1335)       731.2  Rx         0253  8  00 4A FF 00 00 00 00 00 
  1336)       732.1  Rx         0284  8  00 00 00 00 00 00 C8 4E 
  1337)       732.3  Rx         0285  8  00 00 00 00 00 00 C8 4F 
  1338)       732.6  Rx         029E  8  D3 00 00 00 00 00 00 73 
  1339)       732.7  Rx         02A0  5  C8 7F F6 7F FF 
  1340)       733.0  Rx         06F7  8  00 00 00 00 00 00 00 01 
  1341)       735.2  Rx         01F9  8  20 00 15 E0 00 00 4D 00 
  1342)       735.4  Rx         0231  8  D3 80 00 D3 D3 C2 4C 9E 
  1343)       735.6  Rx         0233  8  78 A6 00 10 E0 00 00 00 
  1344)       735.9  Rx         023D  8  03 00 00 E0 00 91 01 78 
  1345)       736.1  Rx         023E  8  02 60 FF 91 01 D1 00 80 
  1346)       736.3  Rx         0002  5  73 00 00 07 ED 
  1347)       736.6  Rx         0551  8  6E A3 00 80 00 02 80 FF 
  1348)       736.7  Rx         0794  3  00 00 00 
  1349)       737.5  Rx         035D  8  C0 03 00 00 00 00 00 00 
  1350)       737.8  Rx         02A5  7  00 00 00 20 00 00 00 
  1351)       740.7  Rx         0280  8  01 00 00 00 00 00 80 40 
  1352)       740.9  Rx         0251  8  10 00 00 20 00 6F 14 31 
  1353)       741.1  Rx         02DE  8  0F 00 03 00 A7 F5 05 C8 
  1354)       741.4  Rx         0253  8  01 4A FF 00 00 00 00 00 
  1355)       741.6  Rx         02D1  7  00 00 00 01 31 A7 02 
  1356)       742.7  Rx         06F7  8  00 00 00 00 00 00 00 02 
  1357)       745.5  Rx         01F9  8  20 00 15 C7 00 00 4D 00 
  1358)       745.7  Rx         0231  8  D3 90 00 D3 D3 C2 4C 9E 
  1359)       745.9  Rx         0233  8  78 A5 00 10 DF 00 00 00 
  1360)       746.1  Rx         0002  5  73 00 00 07 DE 
  1361)       746.4  Rx         023D  8  23 00 00 DF 00 91 01 78 
  1362)       746.6  Rx         023E  8  02 60 FF 91 01 D1 00 81 
  1363)       746.8  Rx         0551  8  6E A3 00 80 00 02 80 FF 
  1364)       747.0  Rx         0794  3  00 00 01 
  1365)       747.6  Rx         02A5  7  00 00 00 20 00 00 00 
  1366)       748.0  Rx         0215  6  FF F0 FF 00 FF FF 
  1367)       748.2  Rx         0216  1  40 
  1368)       748.6  Rx         0625  6  32 00 FF 1D 00 00 
  1369)       750.5  Rx         02DE  8  0F 00 00 00 A8 2B 05 C8 
  1370)       750.8  Rx         02D1  7  00 00 00 02 31 A7 02 
  1371)       751.0  Rx         0251  8  10 00 00 20 00 AF 15 37 
  1372)       751.3  Rx         0253  8  02 4A FF 00 00 00 00 00 
  1373)       752.0  Rx         0284  8  00 00 00 00 00 00 C9 4F 
  1374)       752.3  Rx         0285  8  00 00 00 00 00 00 C9 50 
  1375)       752.5  Rx         029E  8  D3 00 00 00 00 00 01 74 
  1376)       752.7  Rx         02A0  5  C8 7F F3 7F FF 
  1377)       753.0  Rx         0354  8  00 00 00 00 00 00 04 00 
  1378)       753.2  Rx         06F7  8  00 00 00 00 00 00 00 03 
  1379)       755.6  Rx         01F9  8  20 00 15 C7 00 00 4D 00 
  1380)       755.8  Rx         0231  8  D3 A0 00 D3 D3 C2 4C 9E 
  1381)       756.0  Rx         0002  5  73 00 00 07 CF 
  1382)       756.3  Rx         0233  8  78 A5 00 10 DF 00 00 00 
  1383)       756.5  Rx         023D  8  43 00 00 DF 00 86 01 78 
  1384)       756.7  Rx         023E  8  02 60 FF 86 01 D1 00 82 
  1385)       757.0  Rx         0551  8  6E A3 00 80 00 02 80 FF 
  1386)       757.1  Rx         0794  3  00 00 02 
  1387)       757.6  Rx         02A5  7  00 00 00 20 00 00 00 
  1388)       760.6  Rx         0280  8  01 00 00 00 00 00 80 40 
  1389)       760.8  Rx         0251  8  10 00 00 20 00 EF 16 DE 
  1390)       761.1  Rx         02DE  8  0F 00 01 00 A8 61 05 C8 
  1391)       761.3  Rx         0253  8  03 4A FF 00 00 00 00 00 
  1392)       761.5  Rx         02D1  7  00 00 00 03 31 A7 02 
  1393)       761.8  Rx         05C5  8  40 00 00 00 00 0C 00 00 
  1394)       762.8  Rx         06F7  8  00 00 00 00 00 00 00 00 
  1395)       765.8  Rx         01F9  8  20 00 15 C7 00 00 4D 00 
  1396)       766.0  Rx         0002  5  74 00 00 07 40 
  1397)       766.3  Rx         0231  8  D3 B0 00 D3 D3 C2 4C 9E 
  1398)       766.5  Rx         0233  8  78 A5 00 10 DF 00 00 00 
  1399)       766.7  Rx         023D  8  63 00 00 DF 00 86 01 78 
  1400)       766.9  Rx         023E  8  02 60 FF 86 01 D1 00 83 
  1401)       767.2  Rx         0551  8  6E A3 00 80 00 02 80 FF 
  1402)       767.4  Rx         0794  3  00 00 03 
  1403)       767.6  Rx         0385  7  84 00 B2 9A 92 A2 F0 
  1404)       767.8  Rx         02A5  7  00 00 00 20 00 00 00 
  1405)       768.0  Rx         0215  6  FF F0 FF 00 FF FF 
  1406)       768.3  Rx         0216  1  40 
  1407)       770.6  Rx         02DE  8  0F 00 02 00 A8 97 05 C8 
  1408)       770.8  Rx         0251  8  10 00 00 20 00 2F 17 87 
  1409)       771.0  Rx         02D1  7  00 00 00 00 31 A7 02 
  1410)       771.2  Rx         0253  8  00 4A FF 00 00 00 00 00 
  1411)       772.1  Rx         0284  8  00 00 00 00 00 00 CA 50 
  1412)       772.3  Rx         0285  8  00 00 00 00 00 00 CA 51 
  1413)       772.5  Rx         029E  8  D3 00 00 00 00 00 02 75 
  1414)       772.7  Rx         02A0  5  C8 7F F5 7F FF 
  1415)       773.0  Rx         06F7  8  00 00 00 00 00 00 00 01 
  1416)       775.6  Rx         0002  5  73 00 00 07 21 
  1417)       776.0  Rx         01F9  8  20 00 15 E0 00 00 4D 00 
  1418)       776.3  Rx         0231  8  D3 80 00 D3 D3 C2 4C 9E 
  1419)       776.5  Rx         0233  8  78 A6 00 10 E0 00 00 00 
  1420)       776.7  Rx         023D  8  03 00 00 E0 00 87 01 78 
  1421)       777.0  Rx         023E  8  02 60 FF 87 01 D1 00 70 
  1422)       777.2  Rx         0551  8  6E A3 00 80 00 02 80 FF 
  1423)       777.5  Rx         0580  8  00 AA 40 00 00 00 00 00 
  1424)       777.7  Rx         02A5  7  00 00 00 20 00 00 00 
  1425)       777.8  Rx         0794  3  00 00 00 
  1426)       780.7  Rx         0280  8  01 00 00 00 00 00 80 40 
  1427)       780.9  Rx         0251  8  10 00 00 20 00 6F 40 00 
  1428)       781.1  Rx         02DE  8  0F 00 03 00 A8 97 05 C8 
  1429)       781.4  Rx         0253  8  01 4A FF 00 00 00 00 00 
  1430)       781.6  Rx         02D1  7  00 00 00 01 31 A7 02 
  1431)       782.8  Rx         06F7  8  00 00 00 00 00 00 00 02 
  1432)       785.6  Rx         0002  5  73 00 00 07 12 
  1433)       786.5  Rx         01F9  8  20 00 15 E0 00 00 4D 00 
  1434)       786.7  Rx         0231  8  D3 90 00 D3 D3 C2 4C 9E 
  1435)       787.0  Rx         0233  8  78 A6 00 10 E0 00 00 00 
  1436)       787.3  Rx         023D  8  23 00 00 E0 00 8F 01 78 
  1437)       787.5  Rx         023E  8  02 60 FF 8F 01 D1 00 71 
  1438)       787.7  Rx         02A5  7  00 00 00 20 00 00 00 
  1439)       787.9  Rx         0215  6  FF F0 FF 00 FF FF 
  1440)       788.1  Rx         0551  8  6E A3 00 80 00 02 80 FF 
  1441)       788.3  Rx         0216  1  40 
  1442)       788.4  Rx         0794  3  00 00 01 
  1443)       790.6  Rx         02DE  8  0F 00 00 00 A9 03 05 C8 
  1444)       790.8  Rx         0251  8  10 00 00 20 00 AF 41 00 
  1445)       791.0  Rx         02D1  7  00 00 00 02 31 5D 02 
  1446)       791.3  Rx         0253  8  02 4A FF 00 00 00 16 00 
  1447)       792.0  Rx         0284  8  00 00 00 00 00 00 CB 51 
  1448)       792.3  Rx         0285  8  00 00 00 00 00 00 CB 52 
  1449)       792.5  Rx         029E  8  D3 00 00 00 00 00 03 76 
  1450)       792.7  Rx         02A0  5  C8 7F F6 7F FE 
  1451)       793.0  Rx         0354  8  00 00 00 00 00 00 04 00 
  1452)       793.2  Rx         06F7  8  00 00 00 00 00 00 00 03 
  1453)       795.6  Rx         0002  5  73 00 00 07 03 
  1454)       796.5  Rx         01F9  8  20 00 15 E0 00 00 4D 00 
  1455)       796.8  Rx         0231  8  D3 A0 00 D3 D3 C2 4C 9E 
  1456)       797.0  Rx         0233  8  78 A6 00 10 E0 00 00 00 
  1457)       797.2  Rx         023D  8  43 00 00 E0 00 90 01 78 
  1458)       797.5  Rx         023E  8  02 60 FF 90 01 D1 00 72 
  1459)       797.7  Rx         0358  8  01 00 00 00 02 00 00 00 
  1460)       797.9  Rx         02A5  7  00 00 00 20 00 00 00 
  1461)       798.2  Rx         0551  8  6E A3 00 80 00 02 80 FF 
  1462)       798.4  Rx         060D  8  00 06 00 00 00 00 20 00 
  1463)       798.6  Rx         0794  3  00 00 02 
  1464)       800.6  Rx         0280  8  01 00 00 00 00 00 58 40 
  1465)       800.9  Rx         0251  8  10 00 00 20 00 EF 42 00 
  1466)       801.1  Rx         02DE  8  0F 00 01 00 A9 39 05 C8 
  1467)       801.3  Rx         0253  8  03 4A FF 00 00 00 16 00 
  1468)       801.5  Rx         02D1  7  00 00 00 03 31 5D 02 
  1469)       802.8  Rx         06F7  8  00 00 00 00 00 00 00 00 
  1470)       805.3  Rx         0002  5  74 00 00 07 04 
  1471)       806.8  Rx         01F9  8  20 00 15 E0 00 00 4D 00 
  1472)       807.0  Rx         0231  8  D3 B0 00 D3 D3 C2 4C 9E 
  1473)       807.2  Rx         0233  8  78 A6 00 10 E0 00 00 00 
  1474)       807.5  Rx         023D  8  63 00 00 E0 00 86 01 78 
  1475)       807.7  Rx         023E  8  02 60 FF 86 01 D1 00 73 
  1476)       808.0  Rx         02A5  7  00 00 00 20 00 00 00 
  1477)       808.2  Rx         0215  6  FF F0 FF 00 FF FF 
  1478)       808.4  Rx         0551  8  6E A4 00 80 00 02 80 FF 
  1479)       808.5  Rx         0216  1  40 
  1480)       808.7  Rx         0794  3  00 00 03 
  1481)       810.5  Rx         02DE  8  0F 00 02 00 A9 39 05 C8 
  1482)       810.8  Rx         0251  8  10 00 00 20 00 2F 43 00 
  1483)       811.0  Rx         02D1  7  00 00 00 00 31 5D 02 
  1484)       811.2  Rx         0253  8  00 4A FF 00 00 00 16 00 
  1485)       812.0  Rx         0284  8  00 00 00 00 00 00 CC 52 
  1486)       812.3  Rx         0285  8  00 00 00 00 00 00 CC 53 
  1487)       812.5  Rx         029E  8  D3 00 00 00 00 00 00 73 
  1488)       812.7  Rx         02A0  5  C8 7F F2 7F FE 
  1489)       812.9  Rx         06F7  8  00 00 00 00 00 00 00 01 
  1490)       815.3  Rx         0002  5  73 00 00 07 65 
  1491)       817.1  Rx         01F9  8  20 00 15 E0 00 00 4D 00 
  1492)       817.3  Rx         0231  8  D3 80 00 D3 D3 C2 4C 9E 
  1493)       817.5  Rx         0233  8  78 A5 00 10 E0 00 00 00 
  1494)       817.8  Rx         023D  8  03 00 00 E0 00 85 01 78 
  1495)       818.1  Rx         023E  8  02 60 FF 85 01 D1 00 70 
  1496)       818.3  Rx         02A5  7  00 00 00 20 00 00 00 
  1497)       818.5  Rx         0551  8  6E A4 00 80 00 02 80 FF 
  1498)       818.7  Rx         0794  3  00 00 00 
  1499)       820.7  Rx         0280  8  01 00 00 00 00 00 58 40 
  1500)       820.9  Rx         0251  8  10 00 00 20 00 6F 10 52 
  1501)       821.1  Rx         02DE  8  0F 00 03 00 A9 A5 05 C8 
  1502)       821.4  Rx         0253  8  01 4A FF 00 00 00 16 00 
  1503)       821.6  Rx         02D1  7  00 00 00 01 31 5D 02 
  1504)       822.8  Rx         06F7  8  00 00 00 00 00 00 00 02 
  1505)       825.3  Rx         0002  5  74 00 00 07 26 
  1506)       827.2  Rx         01F9  8  20 00 15 E0 00 00 4D 00 
  1507)       827.5  Rx         0231  8  D3 90 00 D3 D3 C2 4C 9E 
  1508)       827.7  Rx         0233  8  78 A5 00 10 E0 00 00 00 
  1509)       827.9  Rx         023D  8  23 00 00 E0 00 85 01 78 
  1510)       828.1  Rx         0215  6  FF F0 FF 00 FF FF 
  1511)       828.4  Rx         023E  8  02 60 FF 85 01 D1 00 81 
  1512)       828.5  Rx         0216  1  40 
  1513)       828.7  Rx         02A5  7  00 00 00 20 00 00 00 
  1514)       829.0  Rx         0551  8  6E A4 00 80 00 02 80 FF 
  1515)       829.1  Rx         0794  3  00 00 01 
  1516)       830.6  Rx         02DE  8  0F 00 00 00 A9 DB 05 C8 
  1517)       830.8  Rx         0251  8  10 00 00 20 00 AF 11 48 
  1518)       831.0  Rx         02D1  7  00 00 00 02 31 5D 02 
  1519)       831.3  Rx         0253  8  02 4A FF 00 00 00 16 00 
  1520)       832.0  Rx         0284  8  00 00 00 00 00 00 CD 53 
  1521)       832.2  Rx         0285  8  00 00 00 00 00 00 CD 54 
  1522)       832.5  Rx         029E  8  D3 00 00 00 00 FF 01 73 
  1523)       832.7  Rx         02A0  5  C6 7F F3 7F FE 
  1524)       833.0  Rx         0354  8  00 00 00 00 00 00 04 00 
  1525)       833.2  Rx         06F7  8  00 00 00 00 00 00 00 03 
  1526)       835.1  Rx         0002  5  73 00 00 07 47 
  1527)       837.2  Rx         035D  8  C0 03 00 00 00 00 00 00 
  1528)       837.4  Rx         01F9  8  20 00 15 E0 00 00 4D 00 
  1529)       837.7  Rx         0231  8  D3 A0 00 D3 D3 C2 4C 9E 
  1530)       837.9  Rx         0233  8  78 A5 00 10 E0 00 00 00 
  1531)       838.2  Rx         023D  8  43 00 00 E0 00 85 01 78 
  1532)       838.4  Rx         023E  8  02 60 FF 85 01 D1 00 82 
  1533)       838.6  Rx         02A5  7  00 00 00 20 00 00 00 
  1534)       838.8  Rx         0551  8  6E A4 00 80 00 02 80 FF 
  1535)       839.0  Rx         0794  3  00 00 02 
  1536)       840.6  Rx         0280  8  01 00 00 00 00 00 58 40 
  1537)       840.9  Rx         0251  8  10 00 00 20 00 EF 12 30 
  1538)       841.1  Rx         02DE  8  0F 00 01 00 A9 DB 05 C8 
  1539)       841.3  Rx         0253  8  03 4A FF 00 00 00 16 00 
  1540)       841.5  Rx         02D1  7  00 00 00 03 31 5D 02 
  1541)       842.8  Rx         06F7  8  00 00 00 00 00 00 00 00 
  1542)       845.0  Rx         0002  5  73 00 00 07 B8 
  1543)       847.8  Rx         02A5  7  00 00 00 20 00 00 00 
  1544)       848.0  Rx         0215  6  FF F0 FF 00 FF FF 
  1545)       848.2  Rx         01F9  8  20 00 15 E0 00 00 4D 00 
  1546)       848.3  Rx         0216  1  40 
  1547)       848.6  Rx         0231  8  D3 B0 00 D3 D3 C2 4C 9E 
  1548)       848.8  Rx         0233  8  78 A5 00 10 E0 00 00 00 
  1549)       849.1  Rx         023D  8  63 00 00 E0 00 85 01 78 
  1550)       849.3  Rx         023E  8  02 60 FF 85 01 D1 00 73 
  1551)       849.5  Rx         0551  8  6E A4 00 80 00 02 80 FF 
  1552)       849.7  Rx         0625  6  32 00 FF 1D 00 00 
  1553)       849.9  Rx         0794  3  00 00 03 
  1554)       850.6  Rx         02DE  8  0F 00 02 00 AA 11 05 C8 
  1555)       850.8  Rx         0251  8  10 00 00 20 00 2F 13 35 
  1556)       851.0  Rx         02D1  7  00 00 00 00 31 5D 02 
  1557)       851.3  Rx         0253  8  00 4A FF 00 00 00 1B 00 
  1558)       852.0  Rx         0284  8  00 00 00 00 00 00 CE 54 
  1559)       852.3  Rx         0285  8  00 00 00 00 00 00 CE 55 
  1560)       852.5  Rx         029E  8  D3 00 00 00 00 00 02 75 
  1561)       852.7  Rx         02A0  5  C8 7F F7 7F FE 
  1562)       852.9  Rx         06F7  8  00 00 00 00 00 00 00 01 
  1563)       855.0  Rx         0002  5  73 00 00 07 A9 
  1564)       857.8  Rx         02A5  7  00 00 00 20 00 00 00 
  1565)       858.1  Rx         01F9  8  20 00 15 E0 00 00 4D 00 
  1566)       858.3  Rx         0231  8  D3 80 00 D3 D3 C2 4C 9E 
  1567)       858.5  Rx         0233  8  78 A5 00 10 E0 00 00 00 
  1568)       858.7  Rx         023D  8  03 00 00 E0 00 85 01 78 
  1569)       859.0  Rx         023E  8  02 60 FF 85 01 D1 00 80 
  1570)       859.2  Rx         0551  8  6E A4 00 80 00 02 80 FF 
  1571)       859.4  Rx         0794  3  00 00 00 
