;$FILEVERSION=1.1
;$STARTTIME=45439.4894493519
;
;   Start time: 5/27/2024 11:44:48.424.0
;   Generated by PCAN-View v4.3.4.615
;
;   Message Number
;   |         Time Offset (ms)
;   |         |        Type
;   |         |        |        ID (hex)
;   |         |        |        |     Data Length
;   |         |        |        |     |   Data Bytes (hex) ...
;   |         |        |        |     |   |
;---+--   ----+----  --+--  ----+---  +  -+ -- -- -- -- -- -- --
     1)         0.0  Rx         02DE  8  0F 08 03 00 18 0D 05 D2 
     2)         0.2  Rx         02D1  7  00 00 00 01 31 06 02 
     3)         1.5  Rx         06F7  8  00 00 00 00 00 00 00 03 
     4)         2.3  Rx         0251  8  10 00 00 01 00 6F 10 52 
     5)         2.6  Rx         0253  8  01 3D FF 00 00 00 00 00 
     6)         3.1  Rx         01F9  8  10 00 00 00 00 00 00 00 
     7)         3.4  Rx         0231  8  FE 90 00 FE FE C1 57 9E 
     8)         3.6  Rx         0233  8  48 00 00 18 00 00 00 00 
     9)         3.8  Rx         023D  8  23 00 00 00 00 47 09 48 
    10)         4.1  Rx         023E  8  00 60 FF 47 09 D2 00 51 
    11)         4.3  Rx         0551  8  3E 00 00 A0 00 01 80 FF 
    12)         4.5  Rx         0794  3  00 00 81 
    13)         6.4  Rx         02A5  7  00 00 00 20 00 00 00 
    14)         9.5  Rx         0002  5  1C 00 00 07 E4 
    15)        10.0  Rx         0280  8  03 00 00 00 00 00 0E 40 
    16)        10.3  Rx         02DE  8  0F 08 00 00 18 0D 05 D2 
    17)        10.5  Rx         02D1  7  00 00 00 02 31 08 02 
    18)        11.0  Rx         0215  6  FF F0 FF 00 FF FF 
    19)        11.2  Rx         0216  1  40 
    20)        11.5  Rx         06F7  8  00 00 00 00 00 00 00 00 
    21)        12.4  Rx         0251  8  10 00 00 01 00 AF 11 48 
    22)        12.6  Rx         0253  8  02 3D FF 00 00 00 00 00 
    23)        12.8  Rx         0284  8  00 00 00 00 00 00 26 AC 
    24)        13.1  Rx         0285  8  00 00 00 00 00 00 26 AD 
    25)        13.3  Rx         01F9  8  10 00 00 00 00 00 00 00 
    26)        13.6  Rx         0231  8  FE A0 00 FE FE C1 57 9E 
    27)        13.8  Rx         0233  8  48 00 00 18 00 00 00 00 
    28)        14.0  Rx         023D  8  43 00 00 00 00 47 09 48 
    29)        14.3  Rx         023E  8  00 60 FF 47 09 D2 00 52 
    30)        14.5  Rx         029E  8  FE 00 00 40 00 F3 02 D3 
    31)        14.7  Rx         02A0  5  AD 7F F9 7F FF 
    32)        15.0  Rx         0551  8  3E 00 00 A0 00 01 80 FF 
    33)        15.1  Rx         0794  3  00 00 82 
    34)        16.4  Rx         02A5  7  00 00 00 20 00 00 00 
    35)        19.5  Rx         0002  5  1C 00 00 07 F5 
    36)        20.0  Rx         02DE  8  0F 08 01 00 18 0D 05 D2 
    37)        20.2  Rx         02D1  7  00 00 00 03 31 08 02 
    38)        20.5  Rx         05C5  8  40 00 00 00 00 0C 00 00 
    39)        21.5  Rx         06F7  8  00 00 00 00 00 00 00 01 
    40)        22.3  Rx         0251  8  10 00 00 01 00 EF 12 30 
    41)        22.6  Rx         0253  8  03 3D FF 00 00 00 00 00 
    42)        23.5  Rx         01F9  8  10 00 00 00 00 00 00 00 
    43)        23.7  Rx         0231  8  FE B0 00 FE FE C1 57 9E 
    44)        24.0  Rx         0233  8  48 00 00 18 00 00 00 00 
    45)        24.2  Rx         023D  8  63 00 00 00 00 47 09 48 
    46)        24.4  Rx         023E  8  00 60 FF 47 09 D2 00 53 
    47)        24.7  Rx         0551  8  3E 00 00 A0 00 01 80 FF 
    48)        24.9  Rx         0794  3  00 00 83 
    49)        26.4  Rx         02A5  7  00 00 00 20 00 00 00 
    50)        29.4  Rx         0002  5  1C 00 00 07 C6 
    51)        30.0  Rx         0280  8  03 00 00 00 00 00 0E 40 
    52)        30.3  Rx         02DE  8  0F 08 02 00 18 0D 05 D2 
    53)        30.5  Rx         02D1  7  00 00 00 00 31 08 02 
    54)        31.0  Rx         0215  6  FF F0 FF 00 FF FF 
    55)        31.2  Rx         0216  1  40 
    56)        31.5  Rx         06F7  8  00 00 00 00 00 00 00 02 
    57)        32.3  Rx         0251  8  10 00 00 01 00 2F 13 35 
    58)        32.5  Rx         0385  7  84 00 00 00 00 00 00 
    59)        32.8  Rx         0253  8  00 3D FF 00 00 00 00 00 
    60)        33.0  Rx         0284  8  00 00 00 00 00 00 27 AD 
    61)        33.3  Rx         0285  8  00 00 00 00 00 00 27 AE 
    62)        33.5  Rx         029E  8  FE 00 00 40 00 F3 03 D4 
    63)        33.8  Rx         01F9  8  10 00 00 00 00 00 00 00 
    64)        34.0  Rx         0231  8  FE 80 00 FE FE C1 57 9E 
    65)        34.3  Rx         0233  8  48 00 00 18 00 00 00 00 
    66)        34.5  Rx         023D  8  03 00 00 00 00 47 09 48 
    67)        34.7  Rx         023E  8  00 60 FF 47 09 D2 00 50 
    68)        34.9  Rx         02A0  5  AD 7F F9 7F FF 
    69)        35.2  Rx         0354  8  00 00 00 00 00 00 14 00 
    70)        35.4  Rx         0551  8  3E 00 00 A0 00 01 80 FF 
    71)        35.7  Rx         0580  8  00 00 40 00 00 00 00 00 
    72)        35.8  Rx         0794  3  00 00 80 
    73)        36.4  Rx         02A5  7  00 00 00 20 00 00 00 
    74)        39.4  Rx         0002  5  1C 00 00 07 D7 
    75)        40.1  Rx         02DE  8  0F 08 03 00 18 0D 05 D2 
    76)        40.3  Rx         02D1  7  00 00 00 01 31 08 02 
    77)        41.5  Rx         06F7  8  00 00 00 00 00 00 00 03 
    78)        42.3  Rx         0251  8  10 00 00 01 00 6F 14 31 
    79)        42.6  Rx         0253  8  01 3D FF 00 00 00 00 00 
    80)        44.0  Rx         01F9  8  10 00 00 00 00 00 00 00 
    81)        44.2  Rx         0231  8  FE 90 00 FE FE C1 57 9E 
    82)        44.5  Rx         0233  8  48 00 00 18 00 00 00 00 
    83)        44.7  Rx         023D  8  23 00 00 00 00 47 09 48 
    84)        44.9  Rx         023E  8  00 60 FF 47 09 D2 00 51 
    85)        45.2  Rx         0551  8  3E 00 00 A0 00 01 80 FF 
    86)        45.3  Rx         0794  3  00 00 81 
    87)        46.4  Rx         02A5  7  00 00 00 20 00 00 00 
    88)        49.2  Rx         0002  5  1C 00 00 07 28 
    89)        50.1  Rx         0280  8  03 00 00 00 00 00 0E 40 
    90)        50.3  Rx         02DE  8  0F 08 00 00 18 0D 05 D2 
    91)        50.5  Rx         02D1  7  00 00 00 02 31 08 02 
    92)        51.0  Rx         0215  6  FF F0 FF 00 FF FF 
    93)        51.2  Rx         0216  1  40 
    94)        51.5  Rx         06F7  8  00 00 00 00 00 00 00 00 
    95)        51.7  Rx         0625  6  32 00 FF 9D 00 00 
    96)        52.3  Rx         0251  8  10 00 00 01 00 AF 15 37 
    97)        52.6  Rx         0253  8  02 3D FF 00 00 00 00 00 
    98)        52.8  Rx         0284  8  00 00 00 00 00 00 28 AE 
    99)        53.1  Rx         0285  8  00 00 00 00 00 00 28 AF 
   100)        53.3  Rx         029E  8  FE 00 00 40 00 F3 00 D1 
   101)        53.5  Rx         02A0  5  AD 7F F9 7F FF 
   102)        54.2  Rx         01F9  8  10 00 00 00 00 00 00 00 
   103)        54.4  Rx         0231  8  FE A0 00 FE FE C1 57 9E 
   104)        54.6  Rx         0233  8  48 00 00 18 00 00 00 00 
   105)        54.9  Rx         023D  8  43 00 00 00 00 47 09 48 
   106)        55.1  Rx         023E  8  00 60 FF 47 09 D2 00 52 
   107)        55.4  Rx         0551  8  3E 00 00 A0 00 01 80 FF 
   108)        55.5  Rx         0794  3  00 00 82 
   109)        56.4  Rx         02A5  7  00 00 00 20 00 00 00 
   110)        59.2  Rx         0002  5  1C 00 00 07 39 
   111)        60.0  Rx         02DE  8  0F 08 01 00 18 0D 05 D2 
   112)        60.3  Rx         02D1  7  00 00 00 03 31 08 02 
   113)        61.6  Rx         06F7  8  00 00 00 00 00 00 00 01 
   114)        62.3  Rx         0251  8  10 00 00 01 00 EF 16 DE 
   115)        62.6  Rx         0253  8  03 3D FF 00 00 00 00 00 
   116)        64.4  Rx         01F9  8  10 00 00 00 00 00 00 00 
   117)        64.7  Rx         0231  8  FE B0 00 FE FE C1 57 9E 
   118)        64.9  Rx         0233  8  48 00 00 18 00 00 00 00 
   119)        65.1  Rx         023D  8  63 00 00 00 00 47 09 48 
   120)        65.4  Rx         023E  8  00 60 FF 47 09 D2 00 53 
   121)        65.7  Rx         0551  8  3E 00 00 A0 00 01 80 FF 
   122)        65.8  Rx         0794  3  00 00 83 
   123)        66.5  Rx         02A5  7  00 00 00 20 00 00 00 
   124)        69.0  Rx         0002  5  1C 00 00 07 0A 
   125)        70.1  Rx         0280  8  03 00 00 00 00 00 0E 40 
   126)        70.3  Rx         02DE  8  0F 08 02 00 18 0D 05 D2 
   127)        70.5  Rx         02D1  7  00 00 00 00 31 08 02 
   128)        71.0  Rx         0215  6  FF F0 FF 00 FF FF 
   129)        71.2  Rx         0216  1  40 
   130)        71.6  Rx         06F7  8  00 00 00 00 00 00 00 02 
   131)        72.3  Rx         0251  8  10 00 00 01 00 2F 17 87 
   132)        72.5  Rx         0358  8  01 00 00 20 02 00 00 00 
   133)        72.8  Rx         0253  8  00 3D FF 00 00 00 00 00 
   134)        73.0  Rx         0284  8  00 00 00 00 00 00 29 AF 
   135)        73.3  Rx         0285  8  00 00 00 00 00 00 29 B0 
   136)        73.5  Rx         029E  8  FE 00 00 40 00 F3 01 D2 
   137)        73.7  Rx         02A0  5  AD 7F F9 7F FF 
   138)        73.9  Rx         0354  8  00 00 00 00 00 00 14 00 
   139)        74.6  Rx         01F9  8  10 00 00 00 00 00 00 00 
   140)        74.9  Rx         0231  8  FE 80 00 FE FE C1 57 9E 
   141)        75.2  Rx         0233  8  48 00 00 18 00 00 00 00 
   142)        75.4  Rx         023D  8  03 00 00 00 00 47 09 48 
   143)        75.6  Rx         023E  8  00 60 FF 47 09 D2 00 50 
   144)        75.9  Rx         0551  8  3E 00 00 A0 00 01 80 FF 
   145)        76.0  Rx         0794  3  00 00 80 
   146)        76.5  Rx         02A5  7  00 00 00 20 00 00 00 
   147)        78.8  Rx         0002  5  1C 00 00 07 1B 
   148)        80.1  Rx         02DE  8  0F 08 03 00 18 0D 05 D2 
   149)        80.3  Rx         02D1  7  00 00 00 01 31 08 02 
   150)        81.6  Rx         06F7  8  00 00 00 00 00 00 00 03 
   151)        82.3  Rx         035D  8  C0 03 00 00 00 00 00 00 
   152)        82.5  Rx         0251  8  10 00 00 01 00 6F 40 00 
   153)        82.8  Rx         060D  8  00 06 00 00 00 00 20 00 
   154)        83.0  Rx         0253  8  01 3D FF 00 00 00 00 00 
   155)        84.9  Rx         01F9  8  10 00 00 00 00 00 00 00 
   156)        85.2  Rx         0231  8  FE 90 00 FE FE C1 57 9E 
   157)        85.4  Rx         0233  8  48 00 00 18 00 00 00 00 
   158)        85.6  Rx         023D  8  23 00 00 00 00 47 09 48 
   159)        85.9  Rx         023E  8  00 60 FF 47 09 D2 00 51 
   160)        86.1  Rx         0551  8  3E 00 00 A0 00 01 80 FF 
   161)        86.3  Rx         0794  3  00 00 81 
   162)        86.5  Rx         02A5  7  00 00 00 20 00 00 00 
   163)        88.9  Rx         0002  5  1C 00 00 07 6C 
   164)        90.1  Rx         0280  8  03 00 00 00 00 00 0E 40 
   165)        90.3  Rx         02DE  8  0F 08 00 00 18 0D 05 D2 
   166)        90.5  Rx         02D1  7  00 00 00 02 31 08 02 
   167)        91.0  Rx         0215  6  FF F0 FF 00 FF FF 
   168)        91.2  Rx         0216  1  40 
   169)        91.6  Rx         06F7  8  00 00 00 00 00 00 00 00 
   170)        92.3  Rx         0251  8  10 00 00 01 00 AF 41 00 
   171)        92.6  Rx         0253  8  02 3D FF 00 00 00 00 00 
   172)        92.8  Rx         0284  8  00 00 00 00 00 00 2A B0 
   173)        93.0  Rx         0285  8  00 00 00 00 00 00 2A B1 
   174)        93.3  Rx         029E  8  FE 00 00 40 00 F3 02 D3 
   175)        93.4  Rx         02A0  5  AD 7F F9 7F FF 
   176)        95.1  Rx         01F9  8  10 00 00 00 00 00 00 00 
   177)        95.3  Rx         0231  8  FE A0 00 FE FE C1 57 9E 
   178)        95.6  Rx         0233  8  48 00 00 18 00 00 00 00 
   179)        95.9  Rx         023D  8  43 00 00 00 00 47 09 48 
   180)        96.1  Rx         023E  8  00 60 FF 47 09 D2 00 52 
   181)        96.3  Rx         0551  8  3E 00 00 A0 00 01 80 FF 
   182)        96.5  Rx         02A5  7  00 00 00 20 00 00 00 
   183)        96.7  Rx         0794  3  00 00 82 
   184)        98.7  Rx         0002  5  1C 00 00 07 7D 
   185)       100.1  Rx         02DE  8  0F 08 01 00 18 0D 05 D2 
   186)       100.3  Rx         02D1  7  00 00 00 03 31 08 02 
   187)       101.6  Rx         06F7  8  00 00 00 00 00 00 00 01 
   188)       102.3  Rx         0251  8  10 00 00 01 00 EF 42 00 
   189)       102.6  Rx         0253  8  03 3D FF 00 00 00 00 00 
   190)       105.5  Rx         01F9  8  10 00 00 00 00 00 00 00 
   191)       105.7  Rx         0231  8  FE B0 00 FE FE C1 57 9E 
   192)       105.9  Rx         0233  8  48 00 00 18 00 00 00 00 
   193)       106.2  Rx         023D  8  63 00 00 00 00 47 09 48 
   194)       106.5  Rx         023E  8  00 60 FF 47 09 D2 00 53 
   195)       106.7  Rx         02A5  7  00 00 00 20 00 00 00 
   196)       106.9  Rx         0551  8  3E 00 00 A0 00 01 80 FF 
   197)       107.1  Rx         0794  3  00 00 83 
   198)       108.7  Rx         0002  5  1C 00 00 07 4E 
   199)       110.0  Rx         0280  8  03 00 00 00 00 00 0E 40 
   200)       110.3  Rx         02DE  8  0F 08 02 00 18 0D 05 D2 
   201)       110.5  Rx         02D1  7  00 00 00 00 31 06 02 
   202)       111.0  Rx         0215  6  FF F0 FF 00 FF FF 
   203)       111.2  Rx         0216  1  40 
   204)       111.6  Rx         06F7  8  00 00 00 00 00 00 00 02 
   205)       112.3  Rx         0251  8  10 00 00 01 00 2F 43 00 
   206)       112.5  Rx         0253  8  00 3D FF 00 00 00 00 00 
   207)       112.8  Rx         0284  8  00 00 00 00 00 00 2B B1 
   208)       113.0  Rx         0285  8  00 00 00 00 00 00 2B B2 
   209)       113.3  Rx         029E  8  FE 00 00 40 00 F3 03 D4 
   210)       113.5  Rx         02A0  5  AD 7F F9 7F FF 
   211)       113.7  Rx         0354  8  00 00 00 00 00 00 14 00 
   212)       115.6  Rx         01F9  8  10 00 00 00 00 00 00 00 
   213)       115.9  Rx         0231  8  FE 80 00 FE FE C1 57 9E 
   214)       116.1  Rx         0233  8  48 00 00 18 00 00 00 00 
   215)       116.3  Rx         023D  8  03 00 00 00 00 47 09 48 
   216)       116.6  Rx         023E  8  00 60 FF 47 09 D2 00 50 
   217)       116.8  Rx         02A5  7  00 00 00 20 00 00 00 
   218)       117.1  Rx         0551  8  3E 00 00 A0 00 01 80 FF 
   219)       117.2  Rx         0794  3  00 00 80 
   220)       118.5  Rx         0002  5  1C 00 00 07 5F 
   221)       120.1  Rx         02DE  8  0F 08 03 00 18 0D 05 D2 
   222)       120.3  Rx         02D1  7  00 00 00 01 31 06 02 
   223)       120.6  Rx         05C5  8  40 00 00 00 00 0C 00 00 
   224)       121.7  Rx         06F7  8  00 00 00 00 00 00 00 03 
   225)       122.2  Rx         0251  8  10 00 00 01 00 6F 10 52 
   226)       122.5  Rx         0253  8  01 3D FF 00 00 00 00 00 
   227)       125.9  Rx         01F9  8  10 00 00 00 00 00 00 00 
   228)       126.1  Rx         0231  8  FE 90 00 FE FE C1 57 9E 
   229)       126.3  Rx         0233  8  48 00 00 18 00 00 00 00 
   230)       126.6  Rx         023D  8  23 00 00 00 00 47 09 48 
   231)       126.8  Rx         023E  8  00 60 FF 47 09 D2 00 51 
   232)       127.1  Rx         02A5  7  00 00 00 20 00 00 00 
   233)       127.3  Rx         0551  8  3E 00 00 A0 00 01 80 FF 
   234)       127.4  Rx         0794  3  00 00 81 
   235)       128.5  Rx         0002  5  1C 00 00 07 A0 
   236)       130.1  Rx         0280  8  03 00 00 00 00 00 0E 40 
   237)       130.3  Rx         02DE  8  0F 08 00 00 18 0D 05 D2 
   238)       130.6  Rx         02D1  7  00 00 00 02 31 06 02 
   239)       131.0  Rx         0215  6  FF F0 FF 00 FF FF 
   240)       131.2  Rx         0216  1  40 
   241)       131.7  Rx         06F7  8  00 00 00 00 00 00 00 00 
   242)       132.3  Rx         0251  8  10 00 00 01 00 AF 11 48 
   243)       132.5  Rx         0385  7  84 00 00 00 00 00 00 
   244)       132.7  Rx         0253  8  02 3D FF 00 00 00 00 00 
   245)       133.0  Rx         0284  8  00 00 00 00 00 00 2C B2 
   246)       133.2  Rx         0285  8  00 00 00 00 00 00 2C B3 
   247)       133.4  Rx         029E  8  FE 00 00 40 00 F3 00 D1 
   248)       133.7  Rx         02A0  5  AD 7F F9 7F FF 
   249)       136.1  Rx         01F9  8  10 00 00 00 00 00 00 00 
   250)       136.3  Rx         0231  8  FE A0 00 FE FE C1 57 9E 
   251)       136.6  Rx         0233  8  48 00 00 18 00 00 00 00 
   252)       136.8  Rx         023D  8  43 00 00 00 00 47 09 48 
   253)       137.0  Rx         023E  8  00 60 FF 47 09 D2 00 52 
   254)       137.3  Rx         02A5  7  00 00 00 20 00 00 00 
   255)       137.5  Rx         0551  8  3E 00 00 A0 00 01 80 FF 
   256)       137.7  Rx         0580  8  00 00 40 00 00 00 00 00 
   257)       137.9  Rx         0794  3  00 00 82 
   258)       138.3  Rx         0002  5  1C 00 00 07 B1 
   259)       140.1  Rx         02DE  8  0F 08 01 00 18 0D 05 D2 
   260)       140.3  Rx         02D1  7  00 00 00 03 31 06 02 
   261)       141.7  Rx         06F7  8  00 00 00 00 00 00 00 01 
   262)       142.3  Rx         0251  8  10 00 00 01 00 EF 12 30 
   263)       142.5  Rx         0253  8  03 3D FF 00 00 00 00 00 
   264)       146.4  Rx         01F9  8  10 00 00 00 00 00 00 00 
   265)       146.6  Rx         0231  8  FE B0 00 FE FE C1 57 9E 
   266)       146.8  Rx         0233  8  48 00 00 18 00 00 00 00 
   267)       147.0  Rx         023D  8  63 00 00 00 00 47 09 48 
   268)       147.3  Rx         023E  8  00 60 FF 47 09 D2 00 53 
   269)       147.5  Rx         02A5  7  00 00 00 20 00 00 00 
   270)       147.8  Rx         0551  8  3E 00 00 A0 00 01 80 FF 
   271)       147.9  Rx         0794  3  00 00 83 
   272)       148.4  Rx         0002  5  1C 00 00 07 82 
   273)       150.1  Rx         0280  8  03 00 00 00 00 00 0E 40 
   274)       150.3  Rx         02DE  8  0F 08 02 00 18 0D 05 D2 
   275)       150.5  Rx         02D1  7  00 00 00 00 31 06 02 
   276)       151.0  Rx         0215  6  FF F0 FF 00 FF FF 
   277)       151.3  Rx         0216  1  40 
   278)       151.6  Rx         0625  6  32 00 FF 9D 00 00 
   279)       151.9  Rx         06F7  8  00 00 00 00 00 00 00 02 
   280)       152.2  Rx         0251  8  10 00 00 01 00 2F 13 35 
   281)       152.5  Rx         0253  8  00 3D FF 00 00 00 00 00 
   282)       152.7  Rx         0284  8  00 00 00 00 00 00 2D B3 
   283)       153.0  Rx         0285  8  00 00 00 00 00 00 2D B4 
   284)       153.3  Rx         029E  8  FE 00 00 40 00 F3 01 D2 
   285)       153.4  Rx         02A0  5  AD 7F F9 7F FF 
   286)       153.7  Rx         0354  8  00 00 00 00 00 00 14 00 
   287)       156.5  Rx         01F9  8  10 00 00 00 00 00 00 00 
   288)       156.8  Rx         0231  8  FE 80 00 FE FE C1 57 9E 
   289)       157.1  Rx         0233  8  48 00 00 18 00 00 00 00 
   290)       157.3  Rx         023D  8  03 00 00 00 00 47 09 48 
   291)       157.5  Rx         023E  8  00 60 FF 47 09 D2 00 50 
   292)       157.8  Rx         02A5  7  00 00 00 20 00 00 00 
   293)       158.0  Rx         0551  8  3E 00 00 A0 00 01 80 FF 
   294)       158.1  Rx         0794  3  00 00 80 
   295)       158.3  Rx         0002  5  1C 00 00 07 93 
   296)       160.1  Rx         02DE  8  0F 08 03 00 18 0D 05 D2 
   297)       160.3  Rx         02D1  7  00 00 00 01 31 06 02 
   298)       161.7  Rx         06F7  8  00 00 00 00 00 00 00 03 
   299)       162.2  Rx         0251  8  10 00 00 01 00 6F 14 31 
   300)       162.5  Rx         0253  8  01 3D FF 00 00 00 00 00 
   301)       166.6  Rx         02A5  7  00 00 00 20 00 00 00 
   302)       166.9  Rx         01F9  8  10 00 00 00 00 00 00 00 
   303)       167.1  Rx         0231  8  FE 90 00 FE FE C1 57 9E 
   304)       167.4  Rx         0233  8  48 00 00 18 00 00 00 00 
   305)       167.6  Rx         023D  8  23 00 00 00 00 47 09 48 
   306)       167.9  Rx         023E  8  00 60 FF 47 09 D2 00 51 
   307)       168.1  Rx         0551  8  3E 00 00 A0 00 01 80 FF 
   308)       168.3  Rx         0002  5  1C 00 00 07 E4 
   309)       168.4  Rx         0794  3  00 00 81 
   310)       170.1  Rx         0280  8  03 00 00 00 00 00 0E 40 
   311)       170.3  Rx         02DE  8  0F 08 00 00 18 0D 05 D2 
   312)       170.6  Rx         02D1  7  00 00 00 02 31 06 02 
   313)       171.0  Rx         0215  6  FF F0 FF 00 FF FF 
   314)       171.2  Rx         0216  1  40 
   315)       171.7  Rx         06F7  8  00 00 00 00 00 00 00 00 
   316)       172.2  Rx         0358  8  01 00 00 20 02 00 00 00 
   317)       172.4  Rx         0251  8  10 00 00 01 00 AF 15 37 
   318)       172.7  Rx         0253  8  02 3D FF 00 00 00 00 00 
   319)       172.9  Rx         0284  8  00 00 00 00 00 00 2E B4 
   320)       173.2  Rx         0285  8  00 00 00 00 00 00 2E B5 
   321)       173.4  Rx         029E  8  FE 00 00 40 00 F3 02 D3 
   322)       173.6  Rx         02A0  5  AD 7F F9 7F FF 
   323)       176.6  Rx         02A5  7  00 00 00 20 00 00 00 
   324)       177.0  Rx         01F9  8  10 00 00 00 00 00 00 00 
   325)       177.3  Rx         0231  8  FE A0 00 FE FE C1 57 9E 
   326)       177.5  Rx         0233  8  48 00 00 18 00 00 00 00 
   327)       177.7  Rx         023D  8  43 00 00 00 00 47 09 48 
   328)       178.0  Rx         023E  8  00 60 FF 47 09 D2 00 52 
   329)       178.2  Rx         0002  5  1C 00 00 07 F5 
   330)       178.4  Rx         0551  8  3E 00 00 A0 00 01 80 FF 
   331)       178.6  Rx         0794  3  00 00 82 
   332)       180.1  Rx         02DE  8  0F 08 01 00 18 0D 05 D2 
   333)       180.3  Rx         02D1  7  00 00 00 03 31 06 02 
   334)       181.8  Rx         06F7  8  00 00 00 00 00 00 00 01 
   335)       182.1  Rx         035D  8  C0 03 00 00 00 00 00 00 
   336)       182.4  Rx         0251  8  10 00 00 01 00 EF 16 DE 
   337)       182.6  Rx         060D  8  00 06 00 00 00 00 20 00 
   338)       182.9  Rx         0253  8  03 3D FF 00 00 00 00 00 
   339)       186.7  Rx         02A5  7  00 00 00 20 00 00 00 
   340)       187.3  Rx         01F9  8  10 00 00 00 00 00 00 00 
   341)       187.5  Rx         0231  8  FE B0 00 FE FE C1 57 9E 
   342)       187.8  Rx         0233  8  48 00 00 18 00 00 00 00 
   343)       188.0  Rx         023D  8  63 00 00 00 00 47 09 48 
   344)       188.2  Rx         0002  5  1C 00 00 07 C6 
   345)       188.4  Rx         023E  8  00 60 FF 47 09 D2 00 53 
   346)       188.7  Rx         0551  8  3E 00 00 A0 00 01 80 FF 
   347)       188.9  Rx         0794  3  00 00 83 
   348)       190.1  Rx         0280  8  03 00 00 00 00 00 0E 40 
   349)       190.3  Rx         02DE  8  0F 08 02 00 18 0D 05 D2 
   350)       190.5  Rx         02D1  7  00 00 00 00 31 06 02 
   351)       191.1  Rx         0215  6  FF F0 FF 00 FF FF 
   352)       191.3  Rx         0216  1  40 
   353)       191.8  Rx         06F7  8  00 00 00 00 00 00 00 02 
   354)       192.2  Rx         0251  8  10 00 00 01 00 2F 17 87 
   355)       192.5  Rx         0253  8  00 3D FF 00 00 00 00 00 
   356)       192.7  Rx         0284  8  00 00 00 00 00 00 2F B5 
   357)       193.0  Rx         0285  8  00 00 00 00 00 00 2F B6 
   358)       193.2  Rx         029E  8  FE 00 00 40 00 F3 03 D4 
   359)       193.4  Rx         02A0  5  AD 7F F9 7F FF 
   360)       193.7  Rx         0354  8  00 00 00 00 00 00 14 00 
   361)       196.7  Rx         02A5  7  00 00 00 20 00 00 00 
   362)       197.5  Rx         01F9  8  10 00 00 00 00 00 00 00 
   363)       197.8  Rx         0231  8  FE 80 00 FE FE C1 57 9E 
   364)       197.9  Rx         0002  5  1C 00 00 07 D7 
   365)       198.2  Rx         0233  8  48 00 00 18 00 00 00 00 
   366)       198.4  Rx         023D  8  03 00 00 00 00 47 09 48 
   367)       198.7  Rx         023E  8  00 60 FF 47 09 D2 00 50 
   368)       198.9  Rx         0551  8  3E 00 00 A0 00 01 80 FF 
   369)       199.1  Rx         0794  3  00 00 80 
   370)       200.1  Rx         02DE  8  0F 08 03 00 18 0D 05 D2 
   371)       200.3  Rx         02D1  7  00 00 00 01 31 06 02 
   372)       201.8  Rx         06F7  8  00 00 00 00 00 00 00 03 
   373)       202.2  Rx         0251  8  10 00 00 01 00 6F 40 00 
   374)       202.5  Rx         0253  8  01 3D FF 00 00 00 00 00 
   375)       206.7  Rx         02A5  7  00 00 00 20 00 00 00 
   376)       207.7  Rx         0002  5  1C 00 00 07 28 
   377)       207.9  Rx         01F9  8  10 00 00 00 00 00 00 00 
   378)       208.2  Rx         0231  8  FE 90 00 FE FE C1 57 9E 
   379)       208.4  Rx         0233  8  48 00 00 18 00 00 00 00 
   380)       208.7  Rx         023D  8  23 00 00 00 00 47 09 48 
   381)       208.9  Rx         023E  8  00 60 FF 47 09 D2 00 51 
   382)       209.2  Rx         0551  8  3E 00 00 A0 00 01 80 FF 
   383)       209.3  Rx         0794  3  00 00 81 
   384)       210.1  Rx         0280  8  03 00 00 00 00 00 0E 40 
   385)       210.4  Rx         02DE  8  0F 08 00 00 18 0D 05 D2 
   386)       210.6  Rx         02D1  7  00 00 00 02 31 06 02 
   387)       211.0  Rx         0215  6  FF F0 FF 00 FF FF 
   388)       211.3  Rx         0216  1  40 
   389)       211.8  Rx         06F7  8  00 00 00 00 00 00 00 00 
   390)       212.2  Rx         0251  8  10 00 00 01 00 AF 41 00 
   391)       212.5  Rx         0253  8  02 3D FF 00 00 00 00 00 
   392)       212.7  Rx         0284  8  00 00 00 00 00 00 30 B6 
   393)       213.0  Rx         0285  8  00 00 00 00 00 00 30 B7 
   394)       213.2  Rx         029E  8  FE 00 00 40 00 F3 00 D1 
   395)       213.4  Rx         02A0  5  AD 7F F9 7F FF 
   396)       216.7  Rx         02A5  7  00 00 00 20 00 00 00 
   397)       217.7  Rx         0002  5  1C 00 00 07 39 
   398)       218.0  Rx         01F9  8  10 00 00 00 00 00 00 00 
   399)       218.3  Rx         0231  8  FE A0 00 FE FE C1 57 9E 
   400)       218.5  Rx         0233  8  48 00 00 18 00 00 00 00 
   401)       218.7  Rx         023D  8  43 00 00 00 00 47 09 48 
   402)       219.0  Rx         023E  8  00 60 FF 47 09 D2 00 52 
   403)       219.2  Rx         0551  8  3E 00 00 A0 00 01 80 FF 
   404)       219.4  Rx         0794  3  00 00 82 
   405)       220.1  Rx         02DE  8  0F 08 01 00 18 0D 05 D2 
   406)       220.4  Rx         02D1  7  00 00 00 03 31 06 02 
   407)       220.6  Rx         05C5  8  40 00 00 00 00 0C 00 00 
   408)       221.8  Rx         06F7  8  00 00 00 00 00 00 00 01 
   409)       222.2  Rx         0251  8  10 00 00 01 00 EF 42 00 
   410)       222.5  Rx         0253  8  03 3D FF 00 00 00 00 00 
   411)       226.7  Rx         02A5  7  00 00 00 20 00 00 00 
   412)       227.5  Rx         0002  5  1C 00 00 07 0A 
   413)       228.3  Rx         01F9  8  10 00 00 00 00 00 00 00 
   414)       228.5  Rx         0231  8  FE B0 00 FE FE C1 57 9E 
   415)       228.7  Rx         0233  8  48 00 00 18 00 00 00 00 
   416)       229.0  Rx         023D  8  63 00 00 00 00 47 09 48 
   417)       229.2  Rx         023E  8  00 60 FF 47 09 D2 00 53 
   418)       229.4  Rx         0551  8  3E 00 00 A0 00 01 80 FF 
   419)       229.6  Rx         0794  3  00 00 83 
   420)       230.1  Rx         0280  8  03 00 00 00 00 00 0E 40 
   421)       230.3  Rx         02DE  8  0F 08 02 00 18 0D 05 D2 
   422)       230.6  Rx         02D1  7  00 00 00 00 31 06 02 
   423)       231.0  Rx         0215  6  FF F0 FF 00 FF FF 
   424)       231.3  Rx         0216  1  40 
   425)       231.9  Rx         06F7  8  00 00 00 00 00 00 00 02 
   426)       232.1  Rx         0385  7  84 00 00 00 00 00 00 
   427)       232.4  Rx         0251  8  10 00 00 01 00 2F 43 00 
   428)       232.7  Rx         0253  8  00 3D FF 00 00 00 00 00 
   429)       232.9  Rx         0284  8  00 00 00 00 00 00 31 B7 
   430)       233.2  Rx         0285  8  00 00 00 00 00 00 31 B8 
   431)       233.4  Rx         029E  8  FE 00 00 40 00 F3 01 D2 
   432)       233.5  Rx         02A0  5  AD 7F F9 7F FF 
   433)       233.8  Rx         0354  8  00 00 00 00 00 00 14 00 
   434)       236.8  Rx         02A5  7  00 00 00 20 00 00 00 
   435)       237.6  Rx         0002  5  1C 00 00 07 1B 
   436)       238.5  Rx         01F9  8  10 00 00 00 00 00 00 00 
   437)       238.7  Rx         0231  8  FE 80 00 FE FE C1 57 9E 
   438)       238.9  Rx         0233  8  48 00 00 18 00 00 00 00 
   439)       239.2  Rx         023D  8  03 00 00 00 00 47 09 48 
   440)       239.5  Rx         023E  8  00 60 FF 47 09 D2 00 50 
   441)       239.7  Rx         0551  8  3E 00 00 A0 00 01 80 FF 
   442)       239.9  Rx         0580  8  00 00 40 00 00 00 00 00 
   443)       240.2  Rx         02DE  8  0F 08 03 00 18 0D 05 D2 
   444)       240.4  Rx         02D1  7  00 00 00 01 31 06 02 
   445)       240.6  Rx         0794  3  00 00 80 
   446)       241.9  Rx         06F7  8  00 00 00 00 00 00 00 03 
   447)       242.2  Rx         0251  8  10 00 00 01 00 6F 10 52 
   448)       242.5  Rx         0253  8  01 3D FF 00 00 00 00 00 
   449)       246.8  Rx         02A5  7  00 00 00 20 00 00 00 
   450)       247.4  Rx         0002  5  1C 00 00 07 6C 
   451)       248.7  Rx         01F9  8  10 00 00 00 00 00 00 00 
   452)       249.0  Rx         0231  8  FE 90 00 FE FE C1 57 9E 
   453)       249.2  Rx         0233  8  48 00 00 18 00 00 00 00 
   454)       249.5  Rx         023D  8  23 00 00 00 00 47 09 48 
   455)       249.7  Rx         023E  8  00 60 FF 47 09 D2 00 51 
   456)       249.9  Rx         0551  8  3E 00 00 A0 00 01 80 FF 
   457)       250.1  Rx         0794  3  00 00 81 
   458)       250.4  Rx         0280  8  03 00 00 00 00 00 0E 40 
   459)       250.6  Rx         02DE  8  0F 08 00 00 18 0D 05 D2 
   460)       250.8  Rx         02D1  7  00 00 00 02 31 06 02 
   461)       251.2  Rx         0215  6  FF F0 FF 00 FF FF 
   462)       251.4  Rx         0216  1  40 
   463)       251.9  Rx         06F7  8  00 00 00 00 00 00 00 00 
   464)       252.1  Rx         0625  6  32 00 FF 9D 00 00 
   465)       252.3  Rx         0251  8  10 00 00 01 00 AF 11 48 
   466)       252.6  Rx         0253  8  02 3D FF 00 00 00 00 00 
   467)       252.8  Rx         0284  8  00 00 00 00 00 00 32 B8 
   468)       253.1  Rx         0285  8  00 00 00 00 00 00 32 B9 
   469)       253.3  Rx         029E  8  FE 00 00 40 00 F3 02 D3 
   470)       253.5  Rx         02A0  5  AD 7F F9 7F FF 
   471)       256.8  Rx         02A5  7  00 00 00 20 00 00 00 
   472)       257.4  Rx         0002  5  1C 00 00 07 7D 
   473)       259.0  Rx         01F9  8  10 00 00 00 00 00 00 00 
   474)       259.2  Rx         0231  8  FE A0 00 FE FE C1 57 9E 
   475)       259.4  Rx         0233  8  48 00 00 18 00 00 00 00 
   476)       259.7  Rx         023D  8  43 00 00 00 00 47 09 48 
   477)       259.9  Rx         023E  8  00 60 FF 47 09 D2 00 52 
   478)       260.1  Rx         0551  8  3E 00 00 A0 00 01 80 FF 
   479)       260.3  Rx         0794  3  00 00 82 
   480)       260.5  Rx         02DE  8  0F 08 01 00 18 0D 05 D2 
   481)       260.8  Rx         02D1  7  00 00 00 03 31 06 02 
   482)       261.9  Rx         06F7  8  00 00 00 00 00 00 00 01 
   483)       262.2  Rx         0251  8  10 00 00 01 00 EF 12 30 
   484)       262.4  Rx         0253  8  03 3D FF 00 00 00 00 00 
   485)       266.8  Rx         02A5  7  00 00 00 20 00 00 00 
   486)       267.2  Rx         0002  5  1C 00 00 07 4E 
   487)       269.2  Rx         01F9  8  10 00 00 00 00 00 00 00 
   488)       269.4  Rx         0231  8  FE B0 00 FE FE C1 57 9E 
   489)       269.7  Rx         0233  8  48 00 00 18 00 00 00 00 
   490)       269.9  Rx         023D  8  63 00 00 00 00 47 09 48 
   491)       270.2  Rx         023E  8  00 60 FF 47 09 D2 00 53 
   492)       270.4  Rx         0551  8  3E 00 00 A0 00 01 80 FF 
   493)       270.6  Rx         0794  3  00 00 83 
   494)       270.8  Rx         0280  8  03 00 00 00 00 00 0E 40 
   495)       271.0  Rx         02DE  8  0F 08 02 00 18 0D 05 D2 
   496)       271.3  Rx         0215  6  FF F0 FF 00 FF FF 
   497)       271.5  Rx         02D1  7  00 00 00 00 31 06 02 
   498)       271.6  Rx         0216  1  40 
   499)       271.9  Rx         06F7  8  00 00 00 00 00 00 00 02 
   500)       272.2  Rx         0358  8  01 00 00 20 02 00 00 00 
   501)       272.4  Rx         0251  8  10 00 00 01 00 2F 13 35 
   502)       272.7  Rx         0253  8  00 3D FF 00 00 00 00 00 
   503)       272.9  Rx         0284  8  00 00 00 00 00 00 33 B9 
   504)       273.2  Rx         0285  8  00 00 00 00 00 00 33 BA 
   505)       273.4  Rx         029E  8  FE 00 00 40 00 F3 03 D4 
   506)       273.6  Rx         02A0  5  AD 7F F9 7F FF 
   507)       273.8  Rx         0354  8  00 00 00 00 00 00 14 00 
   508)       276.8  Rx         02A5  7  00 00 00 20 00 00 00 
   509)       277.3  Rx         0002  5  1C 00 00 07 5F 
   510)       279.5  Rx         01F9  8  10 00 00 00 00 00 00 00 
   511)       279.7  Rx         0231  8  FE 80 00 FE FE C1 57 9E 
   512)       279.9  Rx         0233  8  48 00 00 18 00 00 00 00 
   513)       280.2  Rx         023D  8  03 00 00 00 00 47 09 48 
   514)       280.4  Rx         023E  8  00 60 FF 47 09 D2 00 50 
   515)       280.6  Rx         02DE  8  0F 08 03 00 18 0D 05 D2 
   516)       280.8  Rx         02D1  7  00 00 00 01 31 06 02 
   517)       281.1  Rx         0551  8  3E 00 00 A0 00 01 80 FF 
   518)       281.3  Rx         0794  3  00 00 80 
   519)       281.8  Rx         035D  8  C0 03 00 00 00 00 00 00 
   520)       282.1  Rx         060D  8  00 06 00 00 00 00 20 00 
   521)       282.3  Rx         0251  8  10 00 00 01 00 6F 14 31 
   522)       282.6  Rx         06F7  8  00 00 00 00 00 00 00 03 
   523)       282.8  Rx         0253  8  01 3D FF 00 00 00 00 00 
   524)       286.8  Rx         02A5  7  00 00 00 20 00 00 00 
   525)       287.1  Rx         0002  5  1C 00 00 07 A0 
   526)       289.7  Rx         01F9  8  10 00 00 00 00 00 00 00 
   527)       289.9  Rx         0231  8  FE 90 00 FE FE C1 57 9E 
   528)       290.2  Rx         0233  8  48 00 00 18 00 00 00 00 
   529)       290.4  Rx         023D  8  23 00 00 00 00 47 09 48 
   530)       290.6  Rx         023E  8  00 60 FF 47 09 D2 00 51 
   531)       290.9  Rx         0280  8  03 00 00 00 00 00 0E 40 
   532)       291.1  Rx         0215  6  FF F0 FF 00 FF FF 
   533)       291.3  Rx         02DE  8  0F 08 00 00 18 0D 05 D2 
   534)       291.4  Rx         0216  1  40 
   535)       291.7  Rx         02D1  7  00 00 00 02 31 06 02 
   536)       291.9  Rx         0551  8  3E 00 00 A0 00 01 80 FF 
   537)       292.2  Rx         06F7  8  00 00 00 00 00 00 00 00 
   538)       292.4  Rx         0251  8  10 00 00 01 00 AF 15 37 
   539)       292.5  Rx         0794  3  00 00 81 
   540)       292.8  Rx         0253  8  02 3D FF 00 00 00 00 00 
   541)       293.1  Rx         0284  8  00 00 00 00 00 00 34 BA 
   542)       293.3  Rx         0285  8  00 00 00 00 00 00 34 BB 
   543)       293.5  Rx         029E  8  FE 00 00 40 00 F3 00 D1 
   544)       293.7  Rx         02A0  5  AD 7F F9 7F FF 
   545)       296.9  Rx         02A5  7  00 00 00 20 00 00 00 
   546)       297.1  Rx         0002  5  1C 00 00 07 B1 
   547)       299.9  Rx         01F9  8  10 00 00 00 00 00 00 00 
   548)       300.1  Rx         0231  8  FE A0 00 FE FE C1 57 9E 
   549)       300.4  Rx         0233  8  48 00 00 18 00 00 00 00 
   550)       300.6  Rx         023D  8  43 00 00 00 00 47 09 48 
   551)       300.9  Rx         023E  8  00 60 FF 47 09 D2 00 52 
   552)       301.1  Rx         02DE  8  0F 08 01 00 18 0D 05 D2 
   553)       301.3  Rx         02D1  7  00 00 00 03 31 06 02 
   554)       301.5  Rx         0551  8  3E 00 00 A0 00 01 80 FF 
   555)       301.7  Rx         0794  3  00 00 82 
   556)       302.0  Rx         06F7  8  00 00 00 00 00 00 00 01 
   557)       302.2  Rx         0251  8  10 00 00 01 00 EF 16 DE 
   558)       302.5  Rx         0253  8  03 3D FF 00 00 00 00 00 
   559)       306.9  Rx         02A5  7  00 00 00 20 00 00 00 
   560)       307.1  Rx         0002  5  1C 00 00 07 82 
   561)       310.1  Rx         0280  8  03 00 00 00 00 00 0F 40 
   562)       310.4  Rx         01F9  8  10 00 00 00 00 00 00 00 
   563)       310.6  Rx         0231  8  FE B0 00 FE FE C1 57 9E 
   564)       310.9  Rx         0233  8  48 00 00 18 00 00 00 00 
   565)       311.1  Rx         023D  8  63 00 00 00 00 47 09 48 
   566)       311.3  Rx         0215  6  FF F0 FF 00 FF FF 
   567)       311.6  Rx         023E  8  00 60 FF 47 09 D2 00 53 
   568)       311.7  Rx         0216  1  40 
   569)       311.9  Rx         02DE  8  0F 08 02 00 18 0D 05 D2 
   570)       312.1  Rx         02D1  7  00 00 00 00 31 0A 02 
   571)       312.4  Rx         0251  8  10 00 00 01 00 2F 17 87 
   572)       312.6  Rx         0551  8  3E 00 00 A0 00 01 80 FF 
   573)       312.9  Rx         0253  8  00 3D FF 00 00 00 00 00 
   574)       313.1  Rx         0284  8  00 00 00 00 00 00 35 BB 
   575)       313.3  Rx         0285  8  00 00 00 00 00 00 35 BC 
   576)       313.6  Rx         029E  8  FE 00 00 40 00 F3 01 D2 
   577)       313.7  Rx         02A0  5  AD 7F F9 7F FF 
   578)       314.0  Rx         0354  8  00 00 00 00 00 00 14 00 
   579)       314.3  Rx         06F7  8  00 00 00 00 00 00 00 02 
   580)       314.4  Rx         0794  3  00 00 83 
   581)       316.9  Rx         02A5  7  00 00 00 20 00 00 00 
   582)       317.1  Rx         0002  5  1C 00 00 07 93 
   583)       320.2  Rx         02DE  8  0F 08 03 00 18 0D 05 D2 
   584)       320.4  Rx         02D1  7  00 00 00 01 31 0A 02 
   585)       320.6  Rx         01F9  8  10 00 00 00 00 00 00 00 
   586)       320.9  Rx         0231  8  FE 80 00 FE FE C1 57 9E 
   587)       321.1  Rx         0233  8  48 00 00 18 00 00 00 00 
   588)       321.3  Rx         023D  8  03 00 00 00 00 47 09 48 
   589)       321.6  Rx         023E  8  00 60 FF 47 09 D2 00 50 
   590)       321.8  Rx         0551  8  3E 00 00 A0 00 01 80 FF 
   591)       322.1  Rx         05C5  8  40 00 00 00 00 0C 00 00 
   592)       322.3  Rx         0251  8  10 00 00 01 00 6F 40 00 
   593)       322.6  Rx         06F7  8  00 00 00 00 00 00 00 03 
   594)       322.8  Rx         0253  8  01 3D FF 00 00 00 00 00 
   595)       323.0  Rx         0794  3  00 00 80 
   596)       326.8  Rx         0002  5  1C 00 00 07 E4 
   597)       327.0  Rx         02A5  7  00 00 00 20 00 00 00 
   598)       330.1  Rx         0280  8  03 00 00 00 00 00 0F 40 
   599)       330.4  Rx         02DE  8  0F 08 00 00 18 0D 05 D2 
   600)       330.6  Rx         02D1  7  00 00 00 02 31 0A 02 
   601)       330.9  Rx         01F9  8  10 00 00 00 00 00 00 00 
   602)       331.1  Rx         0231  8  FE 90 00 FE FE C1 57 9E 
   603)       331.3  Rx         0215  6  FF F0 FF 00 FF FF 
   604)       331.5  Rx         0233  8  48 00 00 18 00 00 00 00 
   605)       331.7  Rx         0216  1  40 
   606)       331.9  Rx         023D  8  23 00 00 00 00 47 09 48 
   607)       332.1  Rx         023E  8  00 60 FF 47 09 D2 00 51 
   608)       332.4  Rx         0251  8  10 00 00 01 00 AF 41 00 
   609)       332.6  Rx         0385  7  84 00 00 00 00 00 00 
   610)       332.8  Rx         0253  8  02 3D FF 00 00 00 00 00 
   611)       333.1  Rx         0284  8  00 00 00 00 00 00 36 BC 
   612)       333.3  Rx         0285  8  00 00 00 00 00 00 36 BD 
   613)       333.6  Rx         029E  8  FE 00 00 40 00 F3 02 D3 
   614)       333.8  Rx         02A0  5  AD 7F F9 7F FF 
   615)       334.0  Rx         0551  8  3E 00 00 A0 00 01 80 FF 
   616)       334.2  Rx         06F7  8  00 00 00 00 00 00 00 00 
   617)       334.4  Rx         0794  3  00 00 81 
   618)       336.8  Rx         0002  5  1C 00 00 07 F5 
   619)       337.0  Rx         02A5  7  00 00 00 20 00 00 00 
   620)       340.1  Rx         02DE  8  0F 08 01 00 18 0D 05 D2 
   621)       340.4  Rx         02D1  7  00 00 00 03 31 0A 02 
   622)       340.9  Rx         01F9  8  10 00 00 00 00 00 00 00 
   623)       341.1  Rx         0231  8  FE A0 00 FE FE C1 57 9E 
   624)       341.3  Rx         0233  8  48 00 00 18 00 00 00 00 
   625)       341.6  Rx         023D  8  43 00 00 00 00 47 09 48 
   626)       341.8  Rx         023E  8  00 60 FF 47 09 D2 00 52 
   627)       342.0  Rx         0551  8  3E 00 00 A0 00 01 80 FF 
   628)       342.3  Rx         0251  8  10 00 00 01 00 EF 42 00 
   629)       342.6  Rx         0580  8  00 00 40 00 00 00 00 00 
   630)       342.8  Rx         0253  8  03 3D FF 00 00 00 00 00 
   631)       343.1  Rx         06F7  8  00 00 00 00 00 00 00 01 
   632)       343.2  Rx         0794  3  00 00 82 
   633)       346.6  Rx         0002  5  1C 00 00 07 C6 
   634)       346.9  Rx         02A5  7  00 00 00 20 00 00 00 
   635)       350.2  Rx         0280  8  03 00 00 00 00 00 0F 40 
   636)       350.4  Rx         02DE  8  0F 08 02 00 18 0D 05 D2 
   637)       350.6  Rx         02D1  7  00 00 00 00 31 0A 02 
   638)       351.1  Rx         01F9  8  10 00 00 00 00 00 00 00 
   639)       351.3  Rx         0215  6  FF F0 FF 00 FF FF 
   640)       351.5  Rx         0231  8  FE B0 00 FE FE C1 57 9E 
   641)       351.7  Rx         0216  1  40 
   642)       351.9  Rx         0233  8  48 00 00 18 00 00 00 00 
   643)       352.1  Rx         023D  8  63 00 00 00 00 47 09 48 
   644)       352.4  Rx         023E  8  00 60 FF 47 09 D2 00 53 
   645)       352.6  Rx         0251  8  10 00 00 01 00 2F 43 00 
   646)       352.9  Rx         0284  8  00 00 00 00 00 00 37 BD 
   647)       353.2  Rx         0253  8  00 3D FF 00 00 00 00 00 
   648)       353.4  Rx         0285  8  00 00 00 00 00 00 37 BE 
   649)       353.6  Rx         029E  8  FE 00 00 40 00 F3 03 D4 
   650)       353.8  Rx         02A0  5  AD 7F F9 7F FF 
   651)       354.0  Rx         0354  8  00 00 00 00 00 00 14 00 
   652)       354.3  Rx         0551  8  3E 00 00 A0 00 01 80 FF 
   653)       354.5  Rx         0625  6  32 00 FF 9D 00 00 
   654)       354.7  Rx         06F7  8  00 00 00 00 00 00 00 02 
   655)       354.9  Rx         0794  3  00 00 83 
   656)       356.6  Rx         0002  5  1C 00 00 07 D7 
   657)       357.0  Rx         02A5  7  00 00 00 20 00 00 00 
   658)       360.2  Rx         02DE  8  0F 08 03 00 18 0D 05 D2 
   659)       360.4  Rx         02D1  7  00 00 00 01 31 0A 02 
   660)       361.3  Rx         01F9  8  10 00 00 00 00 00 00 00 
   661)       361.6  Rx         0231  8  FE 80 00 FE FE C1 57 9E 
   662)       361.8  Rx         0233  8  48 00 00 18 00 00 00 00 
   663)       362.1  Rx         023D  8  03 00 00 00 00 47 09 48 
   664)       362.3  Rx         023E  8  00 60 FF 47 09 D2 00 50 
   665)       362.5  Rx         0251  8  10 00 00 01 00 6F 10 52 
   666)       362.8  Rx         0551  8  3E 00 00 A0 00 01 80 FF 
   667)       363.0  Rx         0253  8  01 3D FF 00 00 00 00 00 
   668)       363.2  Rx         06F7  8  00 00 00 00 00 00 00 03 
   669)       363.4  Rx         0794  3  00 00 80 
   670)       366.4  Rx         0002  5  1C 00 00 07 28 
   671)       367.0  Rx         02A5  7  00 00 00 20 00 00 00 
   672)       370.1  Rx         0280  8  03 00 00 00 00 00 0F 40 
   673)       370.4  Rx         02DE  8  0F 08 00 00 18 0D 05 D2 
   674)       370.6  Rx         02D1  7  00 00 00 02 31 0A 02 
   675)       371.1  Rx         0215  6  FF F0 FF 00 FF FF 
   676)       371.3  Rx         0216  1  40 
   677)       371.6  Rx         01F9  8  10 00 00 00 00 00 00 00 
   678)       371.9  Rx         0231  8  FE 90 00 FE FE C1 57 9E 
   679)       372.1  Rx         0233  8  48 00 00 18 00 00 00 00 
   680)       372.3  Rx         023D  8  23 00 00 00 00 47 09 48 
   681)       372.6  Rx         023E  8  00 60 FF 47 09 D2 00 51 
   682)       372.8  Rx         0251  8  10 00 00 01 00 AF 11 48 
   683)       373.0  Rx         0284  8  00 00 00 00 00 00 38 BE 
   684)       373.3  Rx         0253  8  02 3D FF 00 00 00 00 00 
   685)       373.6  Rx         0285  8  00 00 00 00 00 00 38 BF 
   686)       373.8  Rx         029E  8  FE 00 00 40 00 F3 00 D1 
   687)       374.0  Rx         02A0  5  AD 7F F9 7F FF 
   688)       374.2  Rx         0358  8  01 00 00 20 02 00 00 00 
   689)       374.5  Rx         0551  8  3E 00 00 A0 00 01 80 FF 
   690)       374.7  Rx         06F7  8  00 00 00 00 00 00 00 00 
   691)       374.9  Rx         0794  3  00 00 81 
   692)       376.2  Rx         0002  5  1C 00 00 07 39 
   693)       377.0  Rx         02A5  7  00 00 00 20 00 00 00 
   694)       380.2  Rx         02DE  8  0F 08 01 00 18 0D 05 D2 
   695)       380.4  Rx         02D1  7  00 00 00 03 31 0A 02 
   696)       381.7  Rx         035D  8  C0 03 00 00 00 00 00 00 
   697)       381.9  Rx         01F9  8  10 00 00 00 00 00 00 00 
   698)       382.2  Rx         0231  8  FE A0 00 FE FE C1 57 9E 
   699)       382.4  Rx         0233  8  48 00 00 18 00 00 00 00 
   700)       382.6  Rx         023D  8  43 00 00 00 00 47 09 48 
   701)       382.9  Rx         023E  8  00 60 FF 47 09 D2 00 52 
   702)       383.1  Rx         0251  8  10 00 00 01 00 EF 12 30 
   703)       383.4  Rx         0551  8  3E 00 00 A0 00 01 80 FF 
   704)       383.6  Rx         0253  8  03 3D FF 00 00 00 00 00 
   705)       383.9  Rx         060D  8  00 06 00 00 00 00 20 00 
   706)       384.1  Rx         06F7  8  00 00 00 00 00 00 00 01 
   707)       384.3  Rx         0794  3  00 00 82 
   708)       386.3  Rx         0002  5  1C 00 00 07 0A 
   709)       387.0  Rx         02A5  7  00 00 00 20 00 00 00 
   710)       390.2  Rx         0280  8  03 00 00 00 00 00 0F 40 
   711)       390.4  Rx         02DE  8  0F 08 02 00 18 0D 05 D2 
   712)       390.6  Rx         02D1  7  00 00 00 00 31 0A 02 
   713)       391.1  Rx         0215  6  FF F0 FF 00 FF FF 
   714)       391.3  Rx         0216  1  40 
   715)       392.1  Rx         01F9  8  10 00 00 00 00 00 00 00 
   716)       392.3  Rx         0231  8  FE B0 00 FE FE C1 57 9E 
   717)       392.6  Rx         0233  8  48 00 00 18 00 00 00 00 
   718)       392.8  Rx         023D  8  63 00 00 00 00 47 09 48 
   719)       393.0  Rx         023E  8  00 60 FF 47 09 D2 00 53 
   720)       393.3  Rx         0251  8  10 00 00 01 00 2F 13 35 
   721)       393.5  Rx         0284  8  00 00 00 00 00 00 39 BF 
   722)       393.8  Rx         0253  8  00 3D FF 00 00 00 00 00 
   723)       394.0  Rx         0285  8  00 00 00 00 00 00 39 C0 
   724)       394.2  Rx         029E  8  FE 00 00 40 00 F3 01 D2 
   725)       394.4  Rx         02A0  5  AD 7F F9 7F FF 
   726)       394.7  Rx         0354  8  00 00 00 00 00 00 14 00 
   727)       394.9  Rx         0551  8  3E 00 00 A0 00 01 80 FF 
   728)       395.2  Rx         06F7  8  00 00 00 00 00 00 00 02 
   729)       395.3  Rx         0794  3  00 00 83 
   730)       396.1  Rx         0002  5  1C 00 00 07 1B 
   731)       397.0  Rx         02A5  7  00 00 00 20 00 00 00 
   732)       400.2  Rx         02DE  8  0F 08 03 00 18 0D 05 D2 
   733)       400.4  Rx         02D1  7  00 00 00 01 31 0A 02 
   734)       402.1  Rx         0251  8  10 00 00 01 00 6F 14 31 
   735)       402.4  Rx         01F9  8  10 00 00 00 00 00 00 00 
   736)       402.6  Rx         0231  8  FE 80 00 FE FE C1 57 9E 
   737)       402.9  Rx         0233  8  48 00 00 18 00 00 00 00 
   738)       403.1  Rx         023D  8  03 00 00 00 00 47 09 48 
   739)       403.3  Rx         023E  8  00 60 FF 47 09 D2 00 50 
   740)       403.6  Rx         0253  8  01 3D FF 00 00 00 00 00 
   741)       403.8  Rx         0551  8  3E 00 00 A0 00 01 80 FF 
   742)       404.0  Rx         06F7  8  00 00 00 00 00 00 00 03 
   743)       404.2  Rx         0794  3  00 00 80 
   744)       406.1  Rx         0002  5  1C 00 00 07 6C 
   745)       407.0  Rx         02A5  7  00 00 00 20 00 00 00 
   746)       410.2  Rx         0280  8  03 00 00 00 00 00 0E 40 
   747)       410.4  Rx         02DE  8  0F 08 00 00 18 0D 05 D2 
   748)       410.6  Rx         02D1  7  00 00 00 02 31 06 02 
   749)       411.1  Rx         0215  6  FF F0 FF 00 FF FF 
   750)       411.4  Rx         0216  1  40 
   751)       412.1  Rx         0251  8  10 00 00 01 00 AF 15 37 
   752)       412.4  Rx         06F7  8  00 00 00 00 00 00 00 00 
   753)       412.6  Rx         0253  8  02 3D FF 00 00 00 00 00 
   754)       412.8  Rx         01F9  8  10 00 00 00 00 00 00 00 
   755)       413.1  Rx         0231  8  FE 90 00 FE FE C1 57 9E 
   756)       413.3  Rx         0233  8  48 00 00 18 00 00 00 00 
   757)       413.6  Rx         023D  8  23 00 00 00 00 47 09 48 
   758)       413.8  Rx         023E  8  00 60 FF 47 09 D2 00 51 
   759)       414.1  Rx         0284  8  00 00 00 00 00 00 3A C0 
   760)       414.3  Rx         0285  8  00 00 00 00 00 00 3A C1 
   761)       414.5  Rx         029E  8  FE 00 00 40 00 F3 02 D3 
   762)       414.7  Rx         02A0  5  AD 7F F9 7F FF 
   763)       414.9  Rx         0551  8  3E 00 00 A0 00 01 80 FF 
   764)       415.1  Rx         0794  3  00 00 81 
   765)       415.9  Rx         0002  5  1C 00 00 07 7D 
   766)       417.1  Rx         02A5  7  00 00 00 20 00 00 00 
   767)       420.2  Rx         02DE  8  0F 08 01 00 18 0D 05 D2 
   768)       420.4  Rx         02D1  7  00 00 00 03 31 06 02 
   769)       420.7  Rx         05C5  8  40 00 00 00 00 0C 00 00 
   770)       422.1  Rx         0251  8  10 00 00 01 00 EF 16 DE 
   771)       422.3  Rx         06F7  8  00 00 00 00 00 00 00 01 
   772)       422.6  Rx         0253  8  03 3D FF 00 00 00 00 00 
   773)       422.8  Rx         01F9  8  10 00 00 00 00 00 00 00 
   774)       423.1  Rx         0231  8  FE A0 00 FE FE C1 57 9E 
   775)       423.3  Rx         0233  8  48 00 00 18 00 00 00 00 
   776)       423.6  Rx         023D  8  43 00 00 00 00 47 09 48 
   777)       423.8  Rx         023E  8  00 60 FF 47 09 D2 00 52 
   778)       424.0  Rx         0551  8  3E 00 00 A0 00 01 80 FF 
   779)       424.2  Rx         0794  3  00 00 82 
   780)       425.9  Rx         0002  5  1C 00 00 07 4E 
   781)       427.1  Rx         02A5  7  00 00 00 20 00 00 00 
   782)       430.2  Rx         0280  8  03 00 00 00 00 00 0E 40 
   783)       430.4  Rx         02DE  8  0F 08 02 00 18 0D 05 D2 
   784)       430.7  Rx         02D1  7  00 00 00 00 31 06 02 
   785)       431.1  Rx         0215  6  FF F0 FF 00 FF FF 
   786)       431.3  Rx         0216  1  40 
   787)       431.6  Rx         0385  7  84 00 00 00 00 00 00 
   788)       432.1  Rx         0251  8  10 00 00 01 00 2F 17 87 
   789)       432.3  Rx         06F7  8  00 00 00 00 00 00 00 02 
   790)       432.6  Rx         0253  8  00 3D FF 00 00 00 00 00 
   791)       432.9  Rx         0284  8  00 00 00 00 00 00 3B C1 
   792)       433.1  Rx         01F9  8  10 00 00 00 00 00 00 00 
   793)       433.3  Rx         0231  8  FE B0 00 FE FE C1 57 9E 
   794)       433.6  Rx         0233  8  48 00 00 18 00 00 00 00 
   795)       433.8  Rx         023D  8  63 00 00 00 00 47 09 48 
   796)       434.0  Rx         023E  8  00 60 FF 47 09 D2 00 53 
   797)       434.3  Rx         0285  8  00 00 00 00 00 00 3B C2 
   798)       434.5  Rx         029E  8  FE 00 00 40 00 F3 03 D4 
   799)       434.7  Rx         02A0  5  AD 7F F8 7F FF 
   800)       435.0  Rx         0354  8  00 00 00 00 00 00 14 00 
   801)       435.2  Rx         0551  8  3E 00 00 A0 00 01 80 FF 
   802)       435.3  Rx         0794  3  00 00 83 
   803)       435.8  Rx         0002  5  1C 00 00 07 5F 
   804)       437.1  Rx         02A5  7  00 00 00 20 00 00 00 
   805)       440.2  Rx         02DE  8  0F 08 03 00 18 0D 05 D2 
   806)       440.4  Rx         02D1  7  00 00 00 01 31 06 02 
   807)       442.1  Rx         0251  8  10 00 00 01 00 6F 40 00 
   808)       442.4  Rx         06F7  8  00 00 00 00 00 00 00 03 
   809)       442.6  Rx         0253  8  01 3D FF 00 00 00 00 00 
   810)       443.2  Rx         01F9  8  10 00 00 00 00 00 00 00 
   811)       443.5  Rx         0231  8  FE 80 00 FE FE C1 57 9E 
   812)       443.7  Rx         0233  8  48 00 00 18 00 00 00 00 
   813)       444.0  Rx         023D  8  03 00 00 00 00 47 09 48 
   814)       444.2  Rx         023E  8  00 60 FF 47 09 D2 00 50 
   815)       444.4  Rx         0551  8  3E 00 00 A0 00 01 80 FF 
   816)       444.7  Rx         0580  8  00 00 40 00 00 00 00 00 
   817)       444.8  Rx         0794  3  00 00 80 
   818)       445.8  Rx         0002  5  1C 00 00 07 A0 
   819)       447.1  Rx         02A5  7  00 00 00 20 00 00 00 
   820)       450.2  Rx         0280  8  03 00 00 00 00 00 0E 40 
   821)       450.4  Rx         02DE  8  0F 08 00 00 18 0D 05 D2 
   822)       450.7  Rx         02D1  7  00 00 00 02 31 06 02 
   823)       451.1  Rx         0215  6  FF F0 FF 00 FF FF 
   824)       451.4  Rx         0216  1  40 
   825)       451.8  Rx         0625  6  32 00 FF 9D 00 00 
   826)       452.1  Rx         0251  8  10 00 00 01 00 AF 41 00 
   827)       452.3  Rx         06F7  8  00 00 00 00 00 00 00 00 
   828)       452.6  Rx         0253  8  02 3D FF 00 00 00 00 00 
   829)       452.8  Rx         0284  8  00 00 00 00 00 00 3C C2 
   830)       453.1  Rx         0285  8  00 00 00 00 00 00 3C C3 
   831)       453.3  Rx         029E  8  FE 00 00 40 00 F3 00 D1 
   832)       453.5  Rx         01F9  8  10 00 00 00 00 00 00 00 
   833)       453.8  Rx         0231  8  FE 90 00 FE FE C1 57 9E 
   834)       454.1  Rx         0233  8  48 00 00 18 00 00 00 00 
   835)       454.3  Rx         023D  8  23 00 00 00 00 47 09 48 
   836)       454.5  Rx         023E  8  00 60 FF 47 09 D2 00 51 
   837)       454.7  Rx         02A0  5  AD 7F F9 7F FF 
   838)       454.9  Rx         0551  8  3E 00 00 A0 00 01 80 FF 
   839)       455.1  Rx         0794  3  00 00 81 
   840)       455.6  Rx         0002  5  1C 00 00 07 B1 
   841)       457.1  Rx         02A5  7  00 00 00 20 00 00 00 
   842)       460.2  Rx         02DE  8  0F 08 01 00 18 0D 05 D2 
   843)       460.4  Rx         02D1  7  00 00 00 03 31 06 02 
   844)       462.1  Rx         0251  8  10 00 00 01 00 EF 42 00 
   845)       462.3  Rx         06F7  8  00 00 00 00 00 00 00 01 
   846)       462.6  Rx         0253  8  03 3D FF 00 00 00 00 00 
   847)       463.7  Rx         01F9  8  10 00 00 00 00 00 00 00 
   848)       463.9  Rx         0231  8  FE A0 00 FE FE C1 57 9E 
   849)       464.2  Rx         0233  8  48 00 00 18 00 00 00 00 
   850)       464.4  Rx         023D  8  43 00 00 00 00 47 09 48 
   851)       464.7  Rx         023E  8  00 60 FF 47 09 D2 00 52 
   852)       464.9  Rx         0551  8  3E 00 00 A0 00 01 80 FF 
   853)       465.1  Rx         0794  3  00 00 82 
   854)       465.6  Rx         0002  5  1C 00 00 07 82 
   855)       467.1  Rx         02A5  7  00 00 00 20 00 00 00 
   856)       470.2  Rx         0280  8  03 00 00 00 00 00 0E 40 
   857)       470.4  Rx         02DE  8  0F 08 02 00 18 0D 05 D2 
   858)       470.7  Rx         02D1  7  00 00 00 00 31 06 02 
   859)       471.1  Rx         0215  6  FF F0 FF 00 FF FF 
   860)       471.4  Rx         0216  1  40 
   861)       471.6  Rx         0358  8  01 00 00 20 02 00 00 00 
   862)       472.1  Rx         0251  8  10 00 00 01 00 2F 43 00 
   863)       472.3  Rx         06F7  8  00 00 00 00 00 00 00 02 
   864)       472.6  Rx         0253  8  00 3D FF 00 00 00 00 00 
   865)       472.8  Rx         0284  8  00 00 00 00 00 00 3D C3 
   866)       473.1  Rx         0285  8  00 00 00 00 00 00 3D C4 
   867)       473.3  Rx         029E  8  FE 00 00 40 00 F3 01 D2 
   868)       473.5  Rx         02A0  5  AD 7F F8 7F FF 
   869)       473.7  Rx         0354  8  00 00 00 00 00 00 14 00 
   870)       474.0  Rx         01F9  8  10 00 00 00 00 00 00 00 
   871)       474.2  Rx         0231  8  FE B0 00 FE FE C1 57 9E 
   872)       474.5  Rx         0233  8  48 00 00 18 00 00 00 00 
   873)       474.7  Rx         023D  8  63 00 00 00 00 47 09 48 
   874)       475.0  Rx         023E  8  00 60 FF 47 09 D2 00 53 
   875)       475.2  Rx         0551  8  3E 00 00 A0 00 01 80 FF 
   876)       475.3  Rx         0794  3  00 00 83 
   877)       475.6  Rx         0002  5  1C 00 00 07 93 
   878)       477.2  Rx         02A5  7  00 00 00 20 00 00 00 
   879)       480.2  Rx         02DE  8  0F 08 03 00 18 0D 05 D2 
   880)       480.5  Rx         02D1  7  00 00 00 01 31 06 02 
   881)       481.4  Rx         035D  8  C0 03 00 00 00 00 00 00 
   882)       481.6  Rx         060D  8  00 06 00 00 00 00 20 00 
   883)       482.1  Rx         0251  8  10 00 00 01 00 6F 10 52 
   884)       482.3  Rx         06F7  8  00 00 00 00 00 00 00 03 
   885)       482.6  Rx         0253  8  01 3D FF 00 00 00 00 00 
   886)       484.2  Rx         01F9  8  10 00 00 00 00 00 00 00 
   887)       484.4  Rx         0231  8  FE 80 00 FE FE C1 57 9E 
   888)       484.7  Rx         0233  8  48 00 00 18 00 00 00 00 
   889)       484.9  Rx         023D  8  03 00 00 00 00 47 09 48 
   890)       485.1  Rx         023E  8  00 60 FF 47 09 D2 00 50 
   891)       485.4  Rx         0551  8  3E 00 00 A0 00 01 80 FF 
   892)       485.6  Rx         0002  5  1C 00 00 07 E4 
   893)       485.7  Rx         0794  3  00 00 80 
   894)       487.2  Rx         02A5  7  00 00 00 20 00 00 00 
   895)       490.2  Rx         0280  8  03 00 00 00 00 00 0E 40 
   896)       490.5  Rx         02DE  8  0F 08 00 00 18 0D 05 D2 
   897)       490.7  Rx         02D1  7  00 00 00 02 31 06 02 
   898)       491.1  Rx         0215  6  FF F0 FF 00 FF FF 
   899)       491.3  Rx         0216  1  40 
   900)       492.1  Rx         0251  8  10 00 00 01 00 AF 11 48 
   901)       492.3  Rx         06F7  8  00 00 00 00 00 00 00 00 
   902)       492.5  Rx         0253  8  02 3D FF 00 00 00 00 00 
   903)       492.8  Rx         0284  8  00 00 00 00 00 00 3E C4 
   904)       493.0  Rx         0285  8  00 00 00 00 00 00 3E C5 
   905)       493.3  Rx         029E  8  FE 00 00 40 00 F3 02 D3 
   906)       493.5  Rx         02A0  5  AD 7F F9 7F FF 
   907)       494.5  Rx         01F9  8  10 00 00 00 00 00 00 00 
   908)       494.7  Rx         0231  8  FE 90 00 FE FE C1 57 9E 
   909)       495.0  Rx         0233  8  48 00 00 18 00 00 00 00 
   910)       495.2  Rx         023D  8  23 00 00 00 00 47 09 48 
   911)       495.4  Rx         0002  5  1C 00 00 07 F5 
   912)       495.6  Rx         023E  8  00 60 FF 47 09 D2 00 51 
   913)       495.9  Rx         0551  8  3E 00 00 A0 00 01 80 FF 
   914)       496.0  Rx         0794  3  00 00 81 
   915)       497.2  Rx         02A5  7  00 00 00 20 00 00 00 
   916)       500.3  Rx         02DE  8  0F 08 01 00 18 0D 05 D2 
   917)       500.5  Rx         02D1  7  00 00 00 03 31 06 02 
   918)       502.0  Rx         0251  8  10 00 00 01 00 EF 12 30 
   919)       502.3  Rx         0253  8  03 3D FF 00 00 00 00 00 
   920)       502.6  Rx         06F7  8  00 00 00 00 00 00 00 01 
   921)       504.7  Rx         01F9  8  10 00 00 00 00 00 00 00 
   922)       504.9  Rx         0231  8  FE A0 00 FE FE C1 57 9E 
   923)       505.1  Rx         0233  8  48 00 00 18 00 00 00 00 
   924)       505.3  Rx         0002  5  1C 00 00 07 C6 
   925)       505.6  Rx         023D  8  43 00 00 00 00 47 09 48 
   926)       505.8  Rx         023E  8  00 60 FF 47 09 D2 00 52 
   927)       506.0  Rx         0551  8  3E 00 00 A0 00 01 80 FF 
   928)       506.2  Rx         0794  3  00 00 82 
   929)       507.2  Rx         02A5  7  00 00 00 20 00 00 00 
   930)       510.2  Rx         0280  8  03 00 00 00 00 00 0E 40 
   931)       510.4  Rx         02DE  8  0F 08 02 00 18 0D 05 D2 
   932)       510.7  Rx         02D1  7  00 00 00 00 31 06 02 
   933)       511.1  Rx         0215  6  FF F0 FF 00 FF FF 
   934)       511.4  Rx         0216  1  40 
   935)       512.0  Rx         0251  8  10 00 00 01 00 2F 13 35 
   936)       512.3  Rx         0253  8  00 3D FF 00 00 00 00 00 
   937)       512.6  Rx         06F7  8  00 00 00 00 00 00 00 02 
   938)       512.8  Rx         0284  8  00 00 00 00 00 00 3F C5 
   939)       513.1  Rx         0285  8  00 00 00 00 00 00 3F C6 
   940)       513.3  Rx         029E  8  FE 00 00 40 00 F3 03 D4 
   941)       513.5  Rx         02A0  5  AD 7F F9 7F FF 
   942)       513.7  Rx         0354  8  00 00 00 00 00 00 14 00 
   943)       515.0  Rx         01F9  8  10 00 00 00 00 00 00 00 
   944)       515.3  Rx         0002  5  1C 00 00 07 D7 
   945)       515.5  Rx         0231  8  FE B0 00 FE FE C1 57 9E 
   946)       515.7  Rx         0233  8  48 00 00 18 00 00 00 00 
   947)       516.0  Rx         023D  8  63 00 00 00 00 47 09 48 
   948)       516.2  Rx         023E  8  00 60 FF 47 09 D2 00 53 
   949)       516.4  Rx         0551  8  3E 00 00 A0 00 01 80 FF 
   950)       516.6  Rx         0794  3  00 00 83 
   951)       517.2  Rx         02A5  7  00 00 00 20 00 00 00 
   952)       520.2  Rx         02DE  8  0F 08 03 00 18 0D 05 D2 
   953)       520.5  Rx         02D1  7  00 00 00 01 31 06 02 
   954)       520.7  Rx         05C5  8  40 00 00 00 00 0C 00 00 
   955)       522.1  Rx         0251  8  10 00 00 01 00 6F 14 31 
   956)       522.3  Rx         0253  8  01 3D FF 00 00 00 00 00 
   957)       522.6  Rx         06F7  8  00 00 00 00 00 00 00 03 
   958)       524.9  Rx         0002  5  1C 00 00 07 28 
   959)       525.2  Rx         01F9  8  10 00 00 00 00 00 00 00 
   960)       525.4  Rx         0231  8  FE 80 00 FE FE C1 57 9E 
   961)       525.6  Rx         0233  8  48 00 00 18 00 00 00 00 
   962)       525.9  Rx         023D  8  03 00 00 00 00 47 09 48 
   963)       526.2  Rx         023E  8  00 60 FF 47 09 D2 00 50 
   964)       526.4  Rx         0551  8  3E 00 00 A0 00 01 80 FF 
   965)       526.5  Rx         0794  3  00 00 80 
   966)       527.3  Rx         02A5  7  00 00 00 20 00 00 00 
   967)       530.2  Rx         0280  8  03 00 00 00 00 00 0E 40 
   968)       530.5  Rx         02DE  8  0F 08 00 00 18 0D 05 D2 
   969)       530.7  Rx         02D1  7  00 00 00 02 31 06 02 
   970)       531.1  Rx         0215  6  FF F0 FF 00 FF FF 
   971)       531.4  Rx         0385  7  84 00 00 00 00 00 00 
   972)       531.5  Rx         0216  1  40 
   973)       532.0  Rx         0251  8  10 00 00 01 00 AF 15 37 
   974)       532.3  Rx         0253  8  02 3D FF 00 00 00 00 00 
   975)       532.5  Rx         06F7  8  00 00 00 00 00 00 00 00 
   976)       532.8  Rx         0284  8  00 00 00 00 00 00 40 C6 
   977)       533.0  Rx         0285  8  00 00 00 00 00 00 40 C7 
   978)       533.2  Rx         029E  8  FE 00 00 40 00 F3 00 D1 
   979)       533.5  Rx         02A0  5  AD 7F F9 7F FF 
   980)       534.9  Rx         0002  5  1C 00 00 07 39 
   981)       535.4  Rx         01F9  8  10 00 00 00 00 00 00 00 
   982)       535.7  Rx         0231  8  FE 90 00 FE FE C1 57 9E 
   983)       535.9  Rx         0233  8  48 00 00 18 00 00 00 00 
   984)       536.2  Rx         023D  8  23 00 00 00 00 47 09 48 
   985)       536.4  Rx         023E  8  00 60 FF 47 09 D2 00 51 
   986)       536.6  Rx         0551  8  3E 00 00 A0 00 01 80 FF 
   987)       536.8  Rx         0794  3  00 00 81 
   988)       537.3  Rx         02A5  7  00 00 00 20 00 00 00 
   989)       540.2  Rx         02DE  8  0F 08 01 00 18 0D 05 D2 
   990)       540.5  Rx         02D1  7  00 00 00 03 31 06 02 
   991)       542.0  Rx         0251  8  10 00 00 01 00 EF 16 DE 
   992)       542.3  Rx         0253  8  03 3D FF 00 00 00 00 00 
   993)       542.5  Rx         06F7  8  00 00 00 00 00 00 00 01 
   994)       544.8  Rx         0002  5  1C 00 00 07 0A 
   995)       545.6  Rx         01F9  8  10 00 00 00 00 00 00 00 
   996)       545.8  Rx         0231  8  FE A0 00 FE FE C1 57 9E 
   997)       546.1  Rx         0233  8  48 00 00 18 00 00 00 00 
   998)       546.3  Rx         023D  8  43 00 00 00 00 47 09 48 
   999)       546.6  Rx         023E  8  00 60 FF 47 09 D2 00 52 
  1000)       546.8  Rx         0551  8  3E 00 00 A0 00 01 80 FF 
  1001)       547.1  Rx         0580  8  00 00 40 00 00 00 00 00 
  1002)       547.3  Rx         02A5  7  00 00 00 20 00 00 00 
  1003)       547.4  Rx         0794  3  00 00 82 
  1004)       550.2  Rx         0280  8  03 00 00 00 00 00 0E 40 
  1005)       550.4  Rx         02DE  8  0F 08 02 00 18 0D 05 D2 
  1006)       550.7  Rx         02D1  7  00 00 00 00 31 06 02 
  1007)       551.2  Rx         0215  6  FF F0 FF 00 FF FF 
  1008)       551.4  Rx         0216  1  40 
  1009)       551.8  Rx         0625  6  32 00 FF 9D 00 00 
  1010)       552.0  Rx         0251  8  10 00 00 01 00 2F 17 87 
  1011)       552.3  Rx         0253  8  00 3D FF 00 00 00 00 00 
  1012)       552.5  Rx         06F7  8  00 00 00 00 00 00 00 02 
  1013)       552.8  Rx         0284  8  00 00 00 00 00 00 41 C7 
  1014)       553.0  Rx         0285  8  00 00 00 00 00 00 41 C8 
  1015)       553.3  Rx         029E  8  FE 00 00 40 00 F3 01 D2 
  1016)       553.4  Rx         02A0  5  AD 7F F9 7F FF 
  1017)       553.7  Rx         0354  8  00 00 00 00 00 00 14 00 
  1018)       554.8  Rx         0002  5  1C 00 00 07 1B 
  1019)       555.9  Rx         01F9  8  10 00 00 00 00 00 00 00 
  1020)       556.1  Rx         0231  8  FE B0 00 FE FE C1 57 9E 
  1021)       556.4  Rx         0233  8  48 00 00 18 00 00 00 00 
  1022)       556.6  Rx         023D  8  63 00 00 00 00 47 09 48 
  1023)       556.9  Rx         023E  8  00 60 FF 47 09 D2 00 53 
  1024)       557.1  Rx         0551  8  3E 00 00 A0 00 01 80 FF 
  1025)       557.3  Rx         02A5  7  00 00 00 20 00 00 00 
  1026)       557.5  Rx         0794  3  00 00 83 
  1027)       560.2  Rx         02DE  8  0F 08 03 00 18 0D 05 D2 
  1028)       560.4  Rx         02D1  7  00 00 00 01 31 06 02 
  1029)       562.0  Rx         0251  8  10 00 00 01 00 6F 40 00 
  1030)       562.3  Rx         0253  8  01 3D FF 00 00 00 00 00 
  1031)       562.6  Rx         06F7  8  00 00 00 00 00 00 00 03 
  1032)       564.6  Rx         0002  5  1C 00 00 07 6C 
  1033)       566.1  Rx         01F9  8  10 00 00 00 00 00 00 00 
  1034)       566.3  Rx         0231  8  FE 80 00 FE FE C1 57 9E 
  1035)       566.6  Rx         0233  8  48 00 00 18 00 00 00 00 
  1036)       566.8  Rx         023D  8  03 00 00 00 00 47 09 48 
  1037)       567.0  Rx         023E  8  00 60 FF 47 09 D2 00 50 
  1038)       567.3  Rx         0551  8  3E 00 00 A0 00 01 80 FF 
  1039)       567.5  Rx         02A5  7  00 00 00 20 00 00 00 
  1040)       567.7  Rx         0794  3  00 00 80 
  1041)       570.2  Rx         0280  8  03 00 00 00 00 00 0E 40 
  1042)       570.5  Rx         02DE  8  0F 08 00 00 18 0D 05 D2 
  1043)       570.7  Rx         02D1  7  00 00 00 02 31 06 02 
  1044)       571.2  Rx         0215  6  FF F0 FF 00 FF FF 
  1045)       571.4  Rx         0358  8  01 00 00 20 02 00 00 00 
  1046)       571.5  Rx         0216  1  40 
  1047)       572.0  Rx         0251  8  10 00 00 01 00 AF 41 00 
  1048)       572.3  Rx         0253  8  02 3D FF 00 00 00 00 00 
  1049)       572.5  Rx         06F7  8  00 00 00 00 00 00 00 00 
  1050)       572.8  Rx         0284  8  00 00 00 00 00 00 42 C8 
  1051)       573.0  Rx         0285  8  00 00 00 00 00 00 42 C9 
  1052)       573.2  Rx         029E  8  FE 00 00 40 00 F3 02 D3 
  1053)       573.5  Rx         02A0  5  AE 7F F9 7F FF 
  1054)       574.6  Rx         0002  5  1C 00 00 07 7D 
  1055)       576.4  Rx         01F9  8  10 00 00 00 00 00 00 00 
  1056)       576.6  Rx         0231  8  FE 90 00 FE FE C1 57 9E 
  1057)       576.9  Rx         0233  8  48 00 00 18 00 00 00 00 
  1058)       577.1  Rx         023D  8  23 00 00 00 00 47 09 48 
  1059)       577.3  Rx         023E  8  00 60 FF 47 09 D2 00 51 
  1060)       577.6  Rx         02A5  7  00 00 00 20 00 00 00 
  1061)       577.8  Rx         0551  8  3E 00 00 A0 00 01 80 FF 
  1062)       578.0  Rx         0794  3  00 00 81 
  1063)       580.3  Rx         02DE  8  0F 08 01 00 18 0D 05 D2 
  1064)       580.5  Rx         02D1  7  00 00 00 03 31 06 02 
  1065)       581.2  Rx         035D  8  C0 03 00 00 00 00 00 00 
  1066)       581.4  Rx         060D  8  00 06 00 00 00 00 20 00 
  1067)       582.0  Rx         0251  8  10 00 00 01 00 EF 42 00 
  1068)       582.3  Rx         0253  8  03 3D FF 00 00 00 00 00 
  1069)       582.5  Rx         06F7  8  00 00 00 00 00 00 00 01 
  1070)       584.4  Rx         0002  5  1C 00 00 07 4E 
  1071)       586.6  Rx         01F9  8  10 00 00 00 00 00 00 00 
  1072)       586.8  Rx         0231  8  FE A0 00 FE FE C1 57 9E 
  1073)       587.1  Rx         0233  8  48 00 00 18 00 00 00 00 
  1074)       587.3  Rx         023D  8  43 00 00 00 00 47 09 48 
  1075)       587.5  Rx         023E  8  00 60 FF 47 09 D2 00 52 
  1076)       587.8  Rx         02A5  7  00 00 00 20 00 00 00 
  1077)       588.0  Rx         0551  8  3E 00 00 A0 00 01 80 FF 
  1078)       588.2  Rx         0794  3  00 00 82 
  1079)       590.3  Rx         0280  8  03 00 00 00 00 00 0E 40 
  1080)       590.5  Rx         02DE  8  0F 08 02 00 18 0D 05 D2 
  1081)       590.7  Rx         02D1  7  00 00 00 00 31 06 02 
  1082)       591.2  Rx         0215  6  FF F0 FF 00 FF FF 
  1083)       591.4  Rx         0216  1  40 
  1084)       592.0  Rx         0251  8  10 00 00 01 00 2F 43 00 
  1085)       592.3  Rx         0253  8  00 3D FF 00 00 00 00 00 
  1086)       592.5  Rx         06F7  8  00 00 00 00 00 00 00 02 
  1087)       592.8  Rx         0284  8  00 00 00 00 00 00 43 C9 
  1088)       593.0  Rx         0285  8  00 00 00 00 00 00 43 CA 
  1089)       593.2  Rx         029E  8  FE 00 00 40 00 F3 03 D4 
  1090)       593.4  Rx         02A0  5  AD 7F F9 7F FF 
  1091)       593.7  Rx         0354  8  00 00 00 00 00 00 14 00 
  1092)       594.5  Rx         0002  5  1C 00 00 07 5F 
  1093)       596.9  Rx         01F9  8  10 00 00 00 00 00 00 00 
  1094)       597.1  Rx         0231  8  FE B0 00 FE FE C1 57 9E 
  1095)       597.4  Rx         0233  8  48 00 00 18 00 00 00 00 
  1096)       597.6  Rx         023D  8  63 00 00 00 00 47 09 48 
  1097)       597.8  Rx         023E  8  00 60 FF 47 09 D2 00 53 
  1098)       598.0  Rx         02A5  7  00 00 00 20 00 00 00 
  1099)       598.3  Rx         0551  8  3E 00 00 A0 00 01 80 FF 
  1100)       598.4  Rx         0794  3  00 00 83 
  1101)       600.3  Rx         02DE  8  0F 08 03 00 18 0D 05 D2 
  1102)       600.5  Rx         02D1  7  00 00 00 01 31 06 02 
  1103)       602.0  Rx         0251  8  10 00 00 01 00 6F 10 52 
  1104)       602.3  Rx         0253  8  01 3D FF 00 00 00 00 00 
  1105)       602.5  Rx         06F7  8  00 00 00 00 00 00 00 03 
  1106)       604.3  Rx         0002  5  1C 00 00 07 A0 
  1107)       607.0  Rx         01F9  8  10 00 00 00 00 00 00 00 
  1108)       607.3  Rx         0231  8  FE 80 00 FE FE C1 57 9E 
  1109)       607.5  Rx         0233  8  48 00 00 18 00 00 00 00 
  1110)       607.8  Rx         023D  8  03 00 00 00 00 47 09 48 
  1111)       608.0  Rx         023E  8  00 60 FF 47 09 D2 00 50 
  1112)       608.2  Rx         02A5  7  00 00 00 20 00 00 00 
  1113)       608.5  Rx         0551  8  3E 00 00 A0 00 01 80 FF 
  1114)       608.6  Rx         0794  3  00 00 80 
  1115)       610.2  Rx         0280  8  03 00 00 00 00 00 0E 40 
  1116)       610.5  Rx         02DE  8  0F 08 00 00 18 0D 05 D2 
  1117)       610.7  Rx         02D1  7  00 00 00 02 31 06 02 
  1118)       611.2  Rx         0215  6  FF F0 FF 00 FF FF 
  1119)       611.4  Rx         0216  1  40 
  1120)       612.0  Rx         0251  8  10 00 00 01 00 AF 11 48 
  1121)       612.2  Rx         0253  8  02 3D FF 00 00 00 00 00 
  1122)       612.5  Rx         06F7  8  00 00 00 00 00 00 00 00 
  1123)       612.7  Rx         0284  8  00 00 00 00 00 00 44 CA 
  1124)       613.0  Rx         0285  8  00 00 00 00 00 00 44 CB 
  1125)       613.2  Rx         029E  8  FE 00 00 40 00 F3 00 D1 
  1126)       613.4  Rx         02A0  5  AD 7F F9 7F FF 
  1127)       614.3  Rx         0002  5  1C 00 00 07 B1 
  1128)       617.4  Rx         02A5  7  00 00 00 20 00 00 00 
  1129)       617.7  Rx         01F9  8  10 00 00 00 00 00 00 00 
  1130)       617.9  Rx         0231  8  FE 90 00 FE FE C1 57 9E 
  1131)       618.1  Rx         0233  8  48 00 00 18 00 00 00 00 
  1132)       618.4  Rx         023D  8  23 00 00 00 00 47 09 48 
  1133)       618.6  Rx         023E  8  00 60 FF 47 09 D2 00 51 
  1134)       618.9  Rx         0551  8  3E 00 00 A0 00 01 80 FF 
  1135)       619.0  Rx         0794  3  00 00 81 
  1136)       620.3  Rx         02DE  8  0F 08 01 00 18 0D 05 D2 
  1137)       620.5  Rx         02D1  7  00 00 00 03 31 06 02 
  1138)       620.7  Rx         05C5  8  40 00 00 00 00 0C 00 00 
  1139)       622.0  Rx         0251  8  10 00 00 01 00 EF 12 30 
  1140)       622.2  Rx         0253  8  03 3D FF 00 00 00 00 00 
  1141)       622.5  Rx         06F7  8  00 00 00 00 00 00 00 01 
  1142)       624.1  Rx         0002  5  1C 00 00 07 82 
  1143)       627.4  Rx         02A5  7  00 00 00 20 00 00 00 
  1144)       627.7  Rx         01F9  8  10 00 00 00 00 00 00 00 
  1145)       627.9  Rx         0231  8  FE A0 00 FE FE C1 57 9E 
  1146)       628.2  Rx         0233  8  48 00 00 18 00 00 00 00 
  1147)       628.4  Rx         023D  8  43 00 00 00 00 47 09 48 
  1148)       628.7  Rx         023E  8  00 60 FF 47 09 D2 00 52 
  1149)       628.9  Rx         0551  8  3E 00 00 A0 00 01 80 FF 
  1150)       629.0  Rx         0794  3  00 00 82 
  1151)       630.3  Rx         0280  8  03 00 00 00 00 00 0E 40 
  1152)       630.5  Rx         02DE  8  0F 08 02 00 18 0D 05 D2 
  1153)       630.7  Rx         02D1  7  00 00 00 00 31 06 02 
  1154)       631.2  Rx         0215  6  FF F0 FF 00 FF FF 
  1155)       631.4  Rx         0385  7  84 00 00 00 00 00 00 
  1156)       631.5  Rx         0216  1  40 
  1157)       632.0  Rx         0251  8  10 00 00 01 00 2F 13 35 
  1158)       632.2  Rx         0253  8  00 3D FF 00 00 00 00 00 
  1159)       632.5  Rx         0284  8  00 00 00 00 00 00 45 CB 
  1160)       632.8  Rx         0285  8  00 00 00 00 00 00 45 CC 
  1161)       633.0  Rx         029E  8  FE 00 00 40 00 F3 01 D2 
  1162)       633.2  Rx         02A0  5  AD 7F F9 7F FF 
  1163)       633.4  Rx         0354  8  00 00 00 00 00 00 14 00 
  1164)       633.7  Rx         06F7  8  00 00 00 00 00 00 00 02 
  1165)       634.1  Rx         0002  5  1C 00 00 07 93 
  1166)       637.4  Rx         02A5  7  00 00 00 20 00 00 00 
  1167)       637.8  Rx         01F9  8  10 00 00 00 00 00 00 00 
  1168)       638.0  Rx         0231  8  FE B0 00 FE FE C1 57 9E 
  1169)       638.3  Rx         0233  8  48 00 00 18 00 00 00 00 
  1170)       638.5  Rx         023D  8  63 00 00 00 00 47 09 48 
  1171)       638.8  Rx         023E  8  00 60 FF 47 09 D2 00 53 
  1172)       639.0  Rx         0551  8  3E 00 00 A0 00 01 80 FF 
  1173)       639.2  Rx         0794  3  00 00 83 
  1174)       640.3  Rx         02DE  8  0F 08 03 00 18 0D 05 D2 
  1175)       640.5  Rx         02D1  7  00 00 00 01 31 06 02 
  1176)       642.0  Rx         0251  8  10 00 00 01 00 6F 14 31 
  1177)       642.2  Rx         0253  8  01 3D FF 00 00 00 00 00 
  1178)       642.6  Rx         06F7  8  00 00 00 00 00 00 00 03 
  1179)       643.9  Rx         0002  5  1C 00 00 07 E4 
  1180)       647.5  Rx         02A5  7  00 00 00 20 00 00 00 
  1181)       648.0  Rx         01F9  8  10 00 00 00 00 00 00 00 
  1182)       648.3  Rx         0231  8  FE 80 00 FE FE C1 57 9E 
  1183)       648.5  Rx         0233  8  48 00 00 18 00 00 00 00 
  1184)       648.7  Rx         023D  8  03 00 00 00 00 47 09 48 
  1185)       649.0  Rx         023E  8  00 60 FF 47 09 D2 00 50 
  1186)       649.2  Rx         0551  8  3E 00 00 A0 00 01 80 FF 
  1187)       649.4  Rx         0580  8  00 00 40 00 00 00 00 00 
  1188)       649.6  Rx         0794  3  00 00 80 
  1189)       650.3  Rx         0280  8  03 00 00 00 00 00 0E 40 
  1190)       650.5  Rx         02DE  8  0F 08 00 00 18 0D 05 D2 
  1191)       650.7  Rx         02D1  7  00 00 00 02 31 06 02 
  1192)       651.2  Rx         0215  6  FF F0 FF 00 FF FF 
  1193)       651.4  Rx         0216  1  40 
  1194)       651.8  Rx         0625  6  32 00 FF 9D 00 00 
  1195)       652.1  Rx         0251  8  10 00 00 01 00 AF 15 37 
  1196)       652.3  Rx         0253  8  02 3D FF 00 00 00 00 00 
  1197)       652.6  Rx         0284  8  00 00 00 00 00 00 46 CC 
  1198)       652.8  Rx         0285  8  00 00 00 00 00 00 46 CD 
  1199)       653.0  Rx         029E  8  FE 00 00 40 00 F3 02 D3 
  1200)       653.2  Rx         02A0  5  AD 7F F9 7F FF 
  1201)       653.5  Rx         06F7  8  00 00 00 00 00 00 00 00 
  1202)       654.0  Rx         0002  5  1C 00 00 07 F5 
  1203)       657.5  Rx         02A5  7  00 00 00 20 00 00 00 
  1204)       658.3  Rx         01F9  8  10 00 00 00 00 00 00 00 
  1205)       658.5  Rx         0231  8  FE 90 00 FE FE C1 57 9E 
  1206)       658.8  Rx         0233  8  48 00 00 18 00 00 00 00 
  1207)       659.0  Rx         023D  8  23 00 00 00 00 47 09 48 
  1208)       659.3  Rx         023E  8  00 60 FF 47 09 D2 00 51 
  1209)       659.5  Rx         0551  8  3E 00 00 A0 00 01 80 FF 
  1210)       659.7  Rx         0794  3  00 00 81 
  1211)       660.3  Rx         02DE  8  0F 08 01 00 18 0D 05 D2 
  1212)       660.5  Rx         02D1  7  00 00 00 03 31 06 02 
  1213)       662.0  Rx         0251  8  10 00 00 01 00 EF 16 DE 
  1214)       662.2  Rx         0253  8  03 3D FF 00 00 00 00 00 
  1215)       662.6  Rx         06F7  8  00 00 00 00 00 00 00 01 
  1216)       663.8  Rx         0002  5  1C 00 00 07 C6 
  1217)       667.5  Rx         02A5  7  00 00 00 20 00 00 00 
  1218)       668.5  Rx         01F9  8  10 00 00 00 00 00 00 00 
  1219)       668.7  Rx         0231  8  FE A0 00 FE FE C1 57 9E 
  1220)       669.0  Rx         0233  8  48 00 00 18 00 00 00 00 
  1221)       669.2  Rx         023D  8  43 00 00 00 00 47 09 48 
  1222)       669.4  Rx         023E  8  00 60 FF 47 09 D1 00 52 
  1223)       669.7  Rx         0551  8  3E 00 00 A0 00 01 80 FF 
  1224)       669.8  Rx         0794  3  00 00 82 
  1225)       670.3  Rx         0280  8  03 00 00 00 00 00 0E 40 
  1226)       670.5  Rx         02DE  8  0F 08 02 00 18 0D 05 D2 
  1227)       670.7  Rx         02D1  7  00 00 00 00 31 06 02 
  1228)       671.2  Rx         0358  8  01 00 00 20 02 00 00 00 
  1229)       671.4  Rx         0215  6  FF F0 FF 00 FF FF 
  1230)       671.7  Rx         0216  1  40 
  1231)       672.0  Rx         0251  8  10 00 00 01 00 2F 17 87 
  1232)       672.2  Rx         0253  8  00 3D FF 00 00 00 00 00 
  1233)       672.5  Rx         0284  8  00 00 00 00 00 00 47 CD 
  1234)       672.8  Rx         0285  8  00 00 00 00 00 00 47 CE 
  1235)       673.0  Rx         029E  8  FE 00 00 40 00 F3 03 D4 
  1236)       673.2  Rx         02A0  5  AD 7F F9 7F FF 
  1237)       673.4  Rx         0354  8  00 00 00 00 00 00 14 00 
  1238)       673.6  Rx         0002  5  1C 00 00 07 D7 
  1239)       673.9  Rx         06F7  8  00 00 00 00 00 00 00 02 
  1240)       677.5  Rx         02A5  7  00 00 00 20 00 00 00 
  1241)       678.8  Rx         01F9  8  10 00 00 00 00 00 00 00 
  1242)       679.0  Rx         0231  8  FE B0 00 FE FE C1 57 9E 
  1243)       679.3  Rx         0233  8  48 00 00 18 00 00 00 00 
  1244)       679.5  Rx         023D  8  63 00 00 00 00 47 09 48 
  1245)       679.7  Rx         023E  8  00 60 FF 47 09 D1 00 53 
  1246)       680.0  Rx         0551  8  3E 00 00 A0 00 01 80 FF 
  1247)       680.1  Rx         0794  3  00 00 83 
  1248)       680.4  Rx         02DE  8  0F 08 03 00 18 0D 05 D2 
  1249)       680.6  Rx         02D1  7  00 00 00 01 31 06 02 
  1250)       680.9  Rx         035D  8  C0 03 00 00 00 00 00 00 
  1251)       681.2  Rx         060D  8  00 06 00 00 00 00 20 00 
  1252)       682.0  Rx         0251  8  10 00 00 01 00 6F 40 00 
  1253)       682.2  Rx         0253  8  01 3D FF 00 00 00 00 00 
  1254)       682.6  Rx         06F7  8  00 00 00 00 00 00 00 03 
  1255)       683.6  Rx         0002  5  1C 00 00 07 28 
  1256)       687.5  Rx         02A5  7  00 00 00 20 00 00 00 
  1257)       689.0  Rx         01F9  8  10 00 00 00 00 00 00 00 
  1258)       689.2  Rx         0231  8  FE 80 00 FE FE C1 57 9E 
  1259)       689.4  Rx         0233  8  48 00 00 18 00 00 00 00 
  1260)       689.7  Rx         023D  8  03 00 00 00 00 47 09 48 
  1261)       689.9  Rx         023E  8  00 60 FF 47 09 D1 00 50 
  1262)       690.2  Rx         0551  8  3E 00 00 A0 00 01 80 FF 
  1263)       690.3  Rx         0794  3  00 00 80 
  1264)       690.6  Rx         0280  8  03 00 00 00 00 00 0E 40 
  1265)       690.8  Rx         02DE  8  0F 08 00 00 18 0D 05 D2 
  1266)       691.0  Rx         02D1  7  00 00 00 02 31 06 02 
  1267)       691.3  Rx         0215  6  FF F0 FF 00 FF FF 
  1268)       691.6  Rx         0216  1  40 
  1269)       692.0  Rx         0251  8  10 00 00 01 00 AF 41 00 
  1270)       692.2  Rx         0253  8  02 3D FF 00 00 00 00 00 
  1271)       692.5  Rx         0284  8  00 00 00 00 00 00 48 CE 
  1272)       692.8  Rx         0285  8  00 00 00 00 00 00 48 CF 
  1273)       693.0  Rx         029E  8  FE 00 00 40 00 F3 00 D1 
  1274)       693.2  Rx         02A0  5  AD 7F F9 7F FF 
  1275)       693.4  Rx         06F7  8  00 00 00 00 00 00 00 00 
  1276)       693.6  Rx         0002  5  1C 00 00 07 39 
  1277)       697.5  Rx         02A5  7  00 00 00 20 00 00 00 
  1278)       699.3  Rx         01F9  8  10 00 00 00 00 00 00 00 
  1279)       699.5  Rx         0231  8  FE 90 00 FE FE C1 57 9E 
  1280)       699.7  Rx         0233  8  48 00 00 18 00 00 00 00 
  1281)       700.0  Rx         023D  8  23 00 00 00 00 47 09 48 
  1282)       700.2  Rx         023E  8  00 60 FF 47 09 D1 00 51 
  1283)       700.5  Rx         0551  8  3E 00 00 A0 00 01 80 FF 
  1284)       700.6  Rx         0794  3  00 00 81 
  1285)       700.8  Rx         02DE  8  0F 08 01 00 18 0D 05 D2 
  1286)       701.1  Rx         02D1  7  00 00 00 03 31 06 02 
  1287)       701.9  Rx         0251  8  10 00 00 01 00 EF 42 00 
  1288)       702.2  Rx         0253  8  03 3D FF 00 00 00 00 00 
  1289)       702.7  Rx         06F7  8  00 00 00 00 00 00 00 01 
  1290)       703.5  Rx         0002  5  1C 00 00 07 0A 
  1291)       707.6  Rx         02A5  7  00 00 00 20 00 00 00 
  1292)       709.4  Rx         01F9  8  10 00 00 00 00 00 00 00 
  1293)       709.7  Rx         0231  8  FE A0 00 FE FE C1 57 9E 
  1294)       709.9  Rx         0233  8  48 00 00 18 00 00 00 00 
  1295)       710.1  Rx         023D  8  43 00 00 00 00 47 09 48 
  1296)       710.4  Rx         023E  8  00 60 FF 47 09 D1 00 52 
  1297)       710.6  Rx         0551  8  3E 00 00 A0 00 01 80 FF 
  1298)       710.8  Rx         0794  3  00 00 82 
  1299)       711.0  Rx         0280  8  03 00 00 00 00 00 0E 40 
  1300)       711.2  Rx         0215  6  FF F0 FF 00 FF FF 
  1301)       711.5  Rx         02DE  8  0F 08 02 00 18 0D 05 D2 
  1302)       711.6  Rx         0216  1  40 
  1303)       711.8  Rx         02D1  7  00 00 00 00 31 06 02 
  1304)       712.1  Rx         0251  8  10 00 00 01 00 2F 43 00 
  1305)       712.3  Rx         0253  8  00 3D FF 00 00 00 00 00 
  1306)       712.5  Rx         0284  8  00 00 00 00 00 00 49 CF 
  1307)       712.8  Rx         0285  8  00 00 00 00 00 00 49 D0 
  1308)       713.0  Rx         029E  8  FE 00 00 40 00 F3 01 D2 
  1309)       713.2  Rx         02A0  5  AD 7F F9 7F FF 
  1310)       713.4  Rx         0002  5  1C 00 00 07 1B 
  1311)       713.7  Rx         0354  8  00 00 00 00 00 00 14 00 
  1312)       713.9  Rx         06F7  8  00 00 00 00 00 00 00 02 
  1313)       717.6  Rx         02A5  7  00 00 00 20 00 00 00 
  1314)       719.9  Rx         01F9  8  10 00 00 00 00 00 00 00 
  1315)       720.1  Rx         0231  8  FE B0 00 FE FE C1 57 9E 
  1316)       720.4  Rx         0233  8  48 00 00 18 00 00 00 00 
  1317)       720.6  Rx         023D  8  63 00 00 00 00 47 09 48 
  1318)       720.8  Rx         023E  8  00 60 FF 47 09 D1 00 53 
  1319)       721.1  Rx         02DE  8  0F 08 03 00 18 0D 05 D2 
  1320)       721.3  Rx         02D1  7  00 00 00 01 31 07 02 
  1321)       721.5  Rx         0551  8  3E 00 00 A0 00 01 80 FF 
  1322)       721.8  Rx         05C5  8  40 00 00 00 00 0C 00 00 
  1323)       722.0  Rx         0251  8  10 00 00 01 00 6F 10 52 
  1324)       722.2  Rx         0794  3  00 00 83 
  1325)       722.4  Rx         0253  8  01 3D FF 00 00 00 00 00 
  1326)       722.7  Rx         06F7  8  00 00 00 00 00 00 00 03 
  1327)       723.4  Rx         0002  5  1C 00 00 07 6C 
  1328)       727.6  Rx         02A5  7  00 00 00 20 00 00 00 
  1329)       729.9  Rx         01F9  8  10 00 00 00 00 00 00 00 
  1330)       730.2  Rx         0231  8  FE 80 00 FE FE C1 57 9E 
  1331)       730.4  Rx         0233  8  48 00 00 18 00 00 00 00 
  1332)       730.7  Rx         023D  8  03 00 00 00 00 47 09 48 
  1333)       730.9  Rx         023E  8  00 60 FF 47 09 D1 00 50 
  1334)       731.1  Rx         0280  8  03 00 00 00 00 00 0E 40 
  1335)       731.4  Rx         0215  6  FF F0 FF 00 FF FF 
  1336)       731.6  Rx         02DE  8  0F 08 00 00 18 0D 05 D2 
  1337)       731.7  Rx         0216  1  40 
  1338)       731.9  Rx         0251  8  10 00 00 01 00 AF 11 48 
  1339)       732.2  Rx         02D1  7  00 00 00 02 31 07 02 
  1340)       732.4  Rx         0253  8  02 3D FF 00 00 00 00 00 
  1341)       732.6  Rx         0284  8  00 00 00 00 00 00 4A D0 
  1342)       732.9  Rx         0285  8  00 00 00 00 00 00 4A D1 
  1343)       733.2  Rx         029E  8  FE 00 00 40 00 F2 02 D2 
  1344)       733.3  Rx         0002  5  1C 00 00 07 7D 
  1345)       733.5  Rx         02A0  5  AD 7F F9 7F FF 
  1346)       733.7  Rx         0385  7  84 00 00 00 00 00 00 
  1347)       734.0  Rx         0551  8  3E 00 00 A0 00 01 80 FF 
  1348)       734.2  Rx         06F7  8  00 00 00 00 00 00 00 00 
  1349)       734.4  Rx         0794  3  00 00 80 
  1350)       737.6  Rx         02A5  7  00 00 00 20 00 00 00 
  1351)       740.2  Rx         01F9  8  10 00 00 00 00 00 00 00 
  1352)       740.5  Rx         0231  8  FE 90 00 FE FE C1 57 9E 
  1353)       740.7  Rx         0233  8  48 00 00 18 00 00 00 00 
  1354)       740.9  Rx         023D  8  23 00 00 00 00 47 09 48 
  1355)       741.2  Rx         023E  8  00 60 FF 47 09 D1 00 51 
  1356)       741.4  Rx         02DE  8  0F 08 01 00 18 0D 05 D2 
  1357)       741.6  Rx         02D1  7  00 00 00 03 31 07 02 
  1358)       741.9  Rx         0551  8  3E 00 00 A0 00 01 80 FF 
  1359)       742.1  Rx         0251  8  10 00 00 01 00 EF 12 30 
  1360)       742.3  Rx         0794  3  00 00 81 
  1361)       742.5  Rx         0253  8  03 3D FF 00 00 00 00 00 
  1362)       742.7  Rx         06F7  8  00 00 00 00 00 00 00 01 
  1363)       743.2  Rx         0002  5  1C 00 00 07 4E 
  1364)       747.7  Rx         02A5  7  00 00 00 20 00 00 00 
  1365)       750.3  Rx         0280  8  03 00 00 00 00 00 0E 40 
  1366)       750.6  Rx         01F9  8  10 00 00 00 00 00 00 00 
  1367)       750.8  Rx         0231  8  FE A0 00 FE FE C1 57 9E 
  1368)       751.1  Rx         0233  8  48 00 00 18 00 00 00 00 
  1369)       751.3  Rx         023D  8  43 00 00 00 00 47 09 48 
  1370)       751.5  Rx         0215  6  FF F0 FF 00 FF FF 
  1371)       751.8  Rx         023E  8  00 60 FF 47 09 D1 00 52 
  1372)       751.9  Rx         0216  1  40 
  1373)       752.1  Rx         0251  8  10 00 00 01 00 2F 13 35 
  1374)       752.4  Rx         02DE  8  0F 08 02 00 18 0D 05 D2 
  1375)       752.6  Rx         0253  8  00 3D FF 00 00 00 00 00 
  1376)       752.8  Rx         0284  8  00 00 00 00 00 00 4B D1 
  1377)       753.0  Rx         0002  5  1C 00 00 07 5F 
  1378)       753.2  Rx         0285  8  00 00 00 00 00 00 4B D2 
  1379)       753.5  Rx         029E  8  FE 00 00 40 00 F3 03 D4 
  1380)       753.7  Rx         02A0  5  AD 7F F9 7F FF 
  1381)       753.9  Rx         02D1  7  00 00 00 00 31 07 02 
  1382)       754.2  Rx         0354  8  00 00 00 00 00 00 14 00 
  1383)       754.4  Rx         0551  8  3E 00 00 A0 00 01 80 FF 
  1384)       754.6  Rx         0580  8  00 00 40 00 00 00 00 00 
  1385)       754.8  Rx         0625  6  32 00 FF 9D 00 00 
  1386)       755.1  Rx         06F7  8  00 00 00 00 00 00 00 02 
  1387)       755.3  Rx         0794  3  00 00 82 
  1388)       757.7  Rx         02A5  7  00 00 00 20 00 00 00 
  1389)       760.4  Rx         02DE  8  0F 08 03 00 18 0D 05 D2 
  1390)       760.6  Rx         02D1  7  00 00 00 01 31 07 02 
  1391)       760.8  Rx         01F9  8  10 00 00 00 00 00 00 00 
  1392)       761.1  Rx         0231  8  FE B0 00 FE FE C1 57 9E 
  1393)       761.4  Rx         0233  8  48 00 00 18 00 00 00 00 
  1394)       761.6  Rx         023D  8  63 00 00 00 00 47 09 48 
  1395)       761.8  Rx         023E  8  00 60 FF 47 09 D2 00 53 
  1396)       762.1  Rx         0251  8  10 00 00 01 00 6F 14 31 
  1397)       762.3  Rx         0551  8  3E 00 00 A0 00 01 80 FF 
  1398)       762.5  Rx         0253  8  01 3D FF 00 00 00 00 00 
  1399)       762.7  Rx         0794  3  00 00 83 
  1400)       763.0  Rx         06F7  8  00 00 00 00 00 00 00 03 
  1401)       763.1  Rx         0002  5  1C 00 00 07 A0 
  1402)       767.7  Rx         02A5  7  00 00 00 20 00 00 00 
  1403)       770.3  Rx         0280  8  03 00 00 00 00 00 0E 40 
  1404)       770.6  Rx         02DE  8  0F 08 00 00 18 0D 05 D2 
  1405)       770.8  Rx         02D1  7  00 00 00 02 31 07 02 
  1406)       771.1  Rx         01F9  8  10 00 00 00 00 00 00 00 
  1407)       771.3  Rx         0215  6  FF F0 FF 00 FF FF 
  1408)       771.5  Rx         0231  8  FE 80 00 FE FE C1 57 9E 
  1409)       771.6  Rx         0216  1  40 
  1410)       771.9  Rx         0233  8  48 00 00 18 00 00 00 00 
  1411)       772.1  Rx         023D  8  03 00 00 00 00 47 09 48 
  1412)       772.3  Rx         023E  8  00 60 FF 47 09 D2 00 50 
  1413)       772.6  Rx         0251  8  10 00 00 01 00 AF 15 37 
  1414)       772.8  Rx         0284  8  00 00 00 00 00 00 4C D2 
  1415)       773.0  Rx         0002  5  1C 00 00 07 B1 
  1416)       773.3  Rx         0253  8  02 3D FF 00 00 00 00 00 
  1417)       773.5  Rx         0285  8  00 00 00 00 00 00 4C D3 
  1418)       773.7  Rx         029E  8  FE 00 00 40 00 F3 00 D1 
  1419)       773.9  Rx         02A0  5  AD 7F F9 7F FF 
  1420)       774.2  Rx         0358  8  01 00 00 20 02 00 00 00 
  1421)       774.4  Rx         0551  8  3E 00 00 A0 00 01 80 FF 
  1422)       774.7  Rx         06F7  8  00 00 00 00 00 00 00 00 
  1423)       774.8  Rx         0794  3  00 00 80 
  1424)       777.7  Rx         02A5  7  00 00 00 20 00 00 00 
  1425)       780.4  Rx         02DE  8  0F 08 01 00 18 0D 05 D2 
  1426)       780.6  Rx         02D1  7  00 00 00 03 31 07 02 
  1427)       780.8  Rx         035D  8  C0 03 00 00 00 00 00 00 
  1428)       781.1  Rx         060D  8  00 06 00 00 00 00 20 00 
  1429)       781.3  Rx         01F9  8  10 00 00 00 00 00 00 00 
  1430)       781.6  Rx         0231  8  FE 90 00 FE FE C1 57 9E 
  1431)       781.8  Rx         0233  8  48 00 00 18 00 00 00 00 
  1432)       782.0  Rx         023D  8  23 00 00 00 00 47 09 48 
  1433)       782.3  Rx         023E  8  00 60 FF 47 09 D2 00 51 
  1434)       782.5  Rx         0251  8  10 00 00 01 00 EF 16 DE 
  1435)       782.8  Rx         0551  8  3E 00 00 A0 00 01 80 FF 
  1436)       783.0  Rx         0002  5  1C 00 00 07 82 
  1437)       783.2  Rx         0253  8  03 3D FF 00 00 00 00 00 
  1438)       783.4  Rx         06F7  8  00 00 00 00 00 00 00 01 
  1439)       783.6  Rx         0794  3  00 00 81 
  1440)       787.7  Rx         02A5  7  00 00 00 20 00 00 00 
  1441)       790.3  Rx         0280  8  03 00 00 00 00 00 0E 40 
  1442)       790.6  Rx         02DE  8  0F 08 02 00 18 0D 05 D2 
  1443)       790.8  Rx         02D1  7  00 00 00 00 31 07 02 
  1444)       791.3  Rx         0215  6  FF F0 FF 00 FF FF 
  1445)       791.5  Rx         01F9  8  10 00 00 00 00 00 00 00 
  1446)       791.6  Rx         0216  1  40 
  1447)       791.9  Rx         0231  8  FE A0 00 FE FE C1 57 9E 
  1448)       792.1  Rx         0233  8  48 00 00 18 00 00 00 00 
  1449)       792.4  Rx         023D  8  43 00 00 00 00 47 09 48 
  1450)       792.6  Rx         023E  8  00 60 FF 47 09 D2 00 52 
  1451)       792.8  Rx         0002  5  1C 00 00 07 93 
  1452)       793.0  Rx         0251  8  10 00 00 01 00 2F 17 87 
  1453)       793.3  Rx         0284  8  00 00 00 00 00 00 4D D3 
  1454)       793.5  Rx         0253  8  00 3D FF 00 00 00 00 00 
  1455)       793.7  Rx         0285  8  00 00 00 00 00 00 4D D4 
  1456)       794.0  Rx         029E  8  FE 00 00 40 00 F3 01 D2 
  1457)       794.2  Rx         02A0  5  AD 7F F9 7F FF 
  1458)       794.4  Rx         0354  8  00 00 00 00 00 00 14 00 
  1459)       794.7  Rx         0551  8  3E 00 00 A0 00 01 80 FF 
  1460)       794.9  Rx         06F7  8  00 00 00 00 00 00 00 02 
  1461)       795.1  Rx         0794  3  00 00 82 
  1462)       797.8  Rx         02A5  7  00 00 00 20 00 00 00 
  1463)       800.4  Rx         02DE  8  0F 08 03 00 18 0D 05 D2 
  1464)       800.6  Rx         02D1  7  00 00 00 01 31 07 02 
  1465)       801.6  Rx         01F9  8  10 00 00 00 00 00 00 00 
  1466)       801.9  Rx         0231  8  FE B0 00 FE FE C1 57 9E 
  1467)       802.2  Rx         0233  8  48 00 00 18 00 00 00 00 
  1468)       802.4  Rx         023D  8  63 00 00 00 00 47 09 48 
  1469)       802.6  Rx         023E  8  00 60 FF 47 09 D2 00 53 
  1470)       802.8  Rx         0002  5  1C 00 00 07 E4 
  1471)       803.0  Rx         0251  8  10 00 00 01 00 6F 40 00 
  1472)       803.3  Rx         0551  8  3E 00 00 A0 00 01 80 FF 
  1473)       803.5  Rx         0253  8  01 3D FF 00 00 00 00 00 
  1474)       803.8  Rx         06F7  8  00 00 00 00 00 00 00 03 
  1475)       804.0  Rx         0794  3  00 00 83 
  1476)       807.8  Rx         02A5  7  00 00 00 20 00 00 00 
  1477)       810.3  Rx         0280  8  03 00 00 00 00 00 0E 40 
  1478)       810.6  Rx         02DE  8  0F 08 00 00 18 0D 05 D2 
  1479)       810.8  Rx         02D1  7  00 00 00 02 31 07 02 
  1480)       811.3  Rx         0215  6  FF F0 FF 00 FF FF 
  1481)       811.5  Rx         0216  1  40 
  1482)       811.9  Rx         01F9  8  10 00 00 00 00 00 00 00 
  1483)       812.1  Rx         0231  8  FE 80 00 FE FE C1 57 9E 
  1484)       812.3  Rx         0233  8  48 00 00 18 00 00 00 00 
  1485)       812.6  Rx         023D  8  03 00 00 00 00 47 09 48 
  1486)       812.8  Rx         0002  5  1C 00 00 07 F5 
  1487)       813.0  Rx         023E  8  00 60 FF 47 09 D2 00 50 
  1488)       813.3  Rx         0251  8  10 00 00 01 00 AF 41 00 
  1489)       813.5  Rx         0284  8  00 00 00 00 00 00 4E D4 
  1490)       813.7  Rx         0253  8  02 3D FF 00 00 00 00 00 
  1491)       814.0  Rx         0285  8  00 00 00 00 00 00 4E D5 
  1492)       814.2  Rx         029E  8  FE 00 00 40 00 F3 02 D3 
  1493)       814.4  Rx         02A0  5  AD 7F F9 7F FF 
  1494)       814.7  Rx         0551  8  3E 00 00 A0 00 01 80 FF 
  1495)       814.9  Rx         06F7  8  00 00 00 00 00 00 00 00 
  1496)       815.1  Rx         0794  3  00 00 80 
  1497)       817.8  Rx         02A5  7  00 00 00 20 00 00 00 
  1498)       820.4  Rx         02DE  8  0F 08 01 00 18 0D 05 D2 
  1499)       820.6  Rx         02D1  7  00 00 00 03 31 09 02 
  1500)       820.9  Rx         05C5  8  40 00 00 00 00 0C 00 00 
  1501)       821.9  Rx         0251  8  10 00 00 01 00 EF 42 00 
  1502)       822.2  Rx         0253  8  03 3D FF 00 00 00 00 00 
  1503)       822.3  Rx         0002  5  1C 00 00 07 C6 
  1504)       822.6  Rx         01F9  8  10 00 00 00 00 00 00 00 
  1505)       822.8  Rx         0231  8  FE 90 00 FE FE C1 57 9E 
  1506)       823.1  Rx         0233  8  48 00 00 18 00 00 00 00 
  1507)       823.3  Rx         023D  8  23 00 00 00 00 47 09 48 
  1508)       823.6  Rx         023E  8  00 60 FF 47 09 D2 00 51 
  1509)       823.8  Rx         0551  8  3E 00 00 A0 00 01 80 FF 
  1510)       824.1  Rx         06F7  8  00 00 00 00 00 00 00 01 
  1511)       824.2  Rx         0794  3  00 00 81 
  1512)       827.8  Rx         02A5  7  00 00 00 20 00 00 00 
  1513)       830.4  Rx         0280  8  03 00 00 00 00 00 0E 40 
  1514)       830.6  Rx         02DE  8  0F 08 02 00 18 0D 05 D2 
  1515)       830.8  Rx         02D1  7  00 00 00 00 31 09 02 
  1516)       831.1  Rx         0385  7  84 00 00 00 00 00 00 
  1517)       831.3  Rx         0215  6  FF F0 FF 00 FF FF 
  1518)       831.5  Rx         0216  1  40 
  1519)       831.9  Rx         0251  8  10 00 00 01 00 2F 43 00 
  1520)       832.2  Rx         0253  8  00 3D FF 00 00 00 00 00 
  1521)       832.4  Rx         01F9  8  10 00 00 00 00 00 00 00 
  1522)       832.6  Rx         0002  5  1C 00 00 07 D7 
  1523)       832.9  Rx         0231  8  FE A0 00 FE FE C1 57 9E 
  1524)       833.1  Rx         0233  8  48 00 00 18 00 00 00 00 
  1525)       833.3  Rx         023D  8  43 00 00 00 00 47 09 48 
  1526)       833.6  Rx         023E  8  00 60 FF 47 09 D2 00 52 
  1527)       833.8  Rx         0284  8  00 00 00 00 00 00 4F D5 
  1528)       834.1  Rx         0285  8  00 00 00 00 00 00 4F D6 
  1529)       834.3  Rx         029E  8  FE 00 00 40 00 F3 03 D4 
  1530)       834.5  Rx         02A0  5  AD 7F F9 7F FF 
  1531)       834.7  Rx         0354  8  00 00 00 00 00 00 14 00 
  1532)       835.0  Rx         0551  8  3E 00 00 A0 00 01 80 FF 
  1533)       835.2  Rx         06F7  8  00 00 00 00 00 00 00 02 
  1534)       835.4  Rx         0794  3  00 00 82 
  1535)       837.8  Rx         02A5  7  00 00 00 20 00 00 00 
  1536)       840.4  Rx         02DE  8  0F 08 03 00 18 0D 05 D2 
  1537)       840.6  Rx         02D1  7  00 00 00 01 31 09 02 
  1538)       841.9  Rx         0251  8  10 00 00 01 00 6F 10 52 
  1539)       842.1  Rx         0253  8  01 3D FF 00 00 00 00 00 
  1540)       842.4  Rx         0002  5  1C 00 00 07 28 
  1541)       842.6  Rx         01F9  8  10 00 00 00 00 00 00 00 
  1542)       842.9  Rx         0231  8  FE B0 00 FE FE C1 57 9E 
  1543)       843.1  Rx         0233  8  48 00 00 18 00 00 00 00 
  1544)       843.3  Rx         023D  8  63 00 00 00 00 47 09 48 
  1545)       843.6  Rx         023E  8  00 60 FF 47 09 D2 00 53 
  1546)       843.8  Rx         0551  8  3E 00 00 A0 00 01 80 FF 
  1547)       844.1  Rx         06F7  8  00 00 00 00 00 00 00 03 
  1548)       844.2  Rx         0794  3  00 00 83 
  1549)       847.9  Rx         02A5  7  00 00 00 20 00 00 00 
  1550)       850.4  Rx         0280  8  03 00 00 00 00 00 0E 40 
  1551)       850.6  Rx         02DE  8  0F 08 00 00 18 0D 05 D2 
  1552)       850.8  Rx         02D1  7  00 00 00 02 31 09 02 
  1553)       851.3  Rx         0215  6  FF F0 FF 00 FF FF 
  1554)       851.5  Rx         0216  1  40 
  1555)       851.9  Rx         0251  8  10 00 00 01 00 AF 11 48 
  1556)       852.1  Rx         0625  6  32 00 FF 9D 00 00 
  1557)       852.3  Rx         0002  5  1C 00 00 07 39 
  1558)       852.5  Rx         0253  8  02 3D FF 00 00 00 00 00 
  1559)       852.8  Rx         0284  8  00 00 00 00 00 00 50 D6 
  1560)       853.0  Rx         01F9  8  10 00 00 00 00 00 00 00 
  1561)       853.3  Rx         0231  8  FE 80 00 FE FE C1 57 9E 
  1562)       853.5  Rx         0233  8  48 00 00 18 00 00 00 00 
  1563)       853.8  Rx         023D  8  03 00 00 00 00 47 09 48 
  1564)       854.0  Rx         023E  8  00 60 FF 47 09 D2 00 50 
  1565)       854.2  Rx         0285  8  00 00 00 00 00 00 50 D7 
  1566)       854.5  Rx         029E  8  FE 00 00 40 00 F3 00 D1 
  1567)       854.7  Rx         02A0  5  AE 7F F9 7F FF 
  1568)       854.9  Rx         0551  8  3E 00 00 A0 00 01 80 FF 
  1569)       855.2  Rx         0580  8  00 00 40 00 00 00 00 00 
  1570)       855.4  Rx         06F7  8  00 00 00 00 00 00 00 00 
  1571)       855.5  Rx         0794  3  00 00 80 
