;$FILEVERSION=1.1
;$STARTTIME=45333.4746251273
;
;   Start time: 11.02.2024 11:23:27.611.0
;   Generated by PCAN-View v4.3.4.615
;
;   Message Number
;   |         Time Offset (ms)
;   |         |        Type
;   |         |        |        ID (hex)
;   |         |        |        |     Data Length
;   |         |        |        |     |   Data Bytes (hex) ...
;   |         |        |        |     |   |
;---+--   ----+----  --+--  ----+---  +  -+ -- -- -- -- -- -- --
     1)         0.1  Rx         0540  8  F0 00 FF 00 FE 00 10 2F 
     2)         0.4  Rx         0280  8  01 0D CC 0C 0F 00 33 0F 
     3)         0.9  Rx         0288  8  2C 67 10 04 00 51 8E 0F 
     4)         1.3  Rx         0380  8  00 53 00 47 20 00 00 0D 
     5)         1.7  Rx         0488  8  41 1C 1C 7E FE FF 3E 00 
     6)         2.6  Rx         05DC  8  77 18 C0 3F 1E 00 30 42 
     7)         3.5  Rx         0480  8  1C 00 C5 AD 19 00 06 6B 
     8)         4.5  Rx         0588  8  1A 7E 7E 01 00 00 00 00 
     9)         5.1  Rx         01A0  8  00 42 00 00 00 FE 00 50 
    10)         5.5  Rx         056A  8  A1 00 08 00 1A 00 02 B1 
    11)         5.9  Rx         01AC  8  A4 08 00 00 69 01 16 D2 
    12)         6.2  Rx         0440  8  00 80 00 FE 80 00 00 00 
    13)         6.4  Rx         04A0  8  00 00 00 00 00 00 00 00 
    14)         6.9  Rx         04A8  8  00 00 00 10 00 00 80 90 
    15)         7.2  Rx         05A0  8  7C 00 00 82 00 00 10 AB 
    16)         9.5  Rx         0760  6  A1 0F 8A FF 4A FF 
    17)        10.1  Rx         0540  8  00 00 FF 00 FE 00 10 2F 
    18)        10.8  Rx         0280  8  01 0D CC 0C 0F 00 33 0F 
    19)        11.2  Rx         0288  8  2C 67 10 04 00 51 8E 0F 
    20)        11.6  Rx         0380  8  00 53 00 47 20 00 00 0D 
    21)        12.1  Rx         0488  8  4A 1C 1C 7E FE FF 25 10 
    22)        13.0  Rx         01A0  8  00 42 00 00 00 FE 00 51 
    23)        13.4  Rx         04A0  8  00 00 00 00 00 00 00 00 
    24)        13.7  Rx         038A  4  85 01 84 00 
    25)        16.1  Rx         0440  8  00 80 00 FE 80 00 08 00 
    26)        20.1  Rx         0540  8  10 00 FF 00 FE 00 10 2F 
    27)        26.1  Rx         0440  8  00 80 00 FE 80 00 10 00 
    28)        27.0  Rx         0280  8  01 0D CC 0C 0F 00 33 0F 
    29)        27.4  Rx         0288  8  2C 67 10 04 00 51 8E 0F 
    30)        28.3  Rx         0380  8  00 53 00 47 20 00 00 0D 
    31)        28.7  Rx         0488  8  19 1C 1C 7E FE FF 46 20 
    32)        30.0  Rx         01A0  8  00 42 00 00 00 FE 00 52 
    33)        30.3  Rx         0540  8  20 00 FF 00 FE 00 10 2F 
    34)        30.9  Rx         01AC  8  A6 09 00 00 69 01 15 D2 
    35)        31.3  Rx         0480  8  1C 00 CB AD 19 00 06 65 
    36)        32.1  Rx         04A0  8  00 00 00 00 00 00 00 00 
    37)        32.6  Rx         056A  8  D1 00 08 00 1A 00 02 C1 
    38)        33.0  Rx         04A8  8  00 00 00 10 00 00 90 80 
    39)        34.7  Rx         0588  8  1A 7E 7E 80 00 00 00 00 
    40)        35.3  Rx         05A0  8  7C 00 00 92 00 00 10 AB 
    41)        36.1  Rx         0440  8  00 80 00 FE 80 00 18 00 
    42)        36.7  Rx         0280  8  01 0D C9 0C 0F 00 33 0F 
    43)        37.1  Rx         0288  8  2C 67 10 04 00 51 8E 0F 
    44)        37.6  Rx         0380  8  00 53 00 47 20 00 00 0D 
    45)        38.1  Rx         0488  8  47 1C 1C 7E FE FF 08 30 
    46)        39.0  Rx         01A0  8  00 42 00 00 00 FE 00 53 
    47)        39.4  Rx         04A0  8  00 00 00 00 00 00 00 00 
    48)        39.7  Rx         038A  4  95 01 94 00 
    49)        40.2  Rx         0540  8  30 00 FF 00 FE 00 10 26 
    50)        44.3  Rx         0280  8  01 0D C9 0C 0F 00 33 0F 
    51)        44.7  Rx         0288  8  64 67 10 04 00 51 8E 0F 
    52)        45.3  Rx         0380  8  00 53 00 47 20 00 00 0D 
    53)        46.0  Rx         0488  8  19 1C 1C 7E FE FF 26 40 
    54)        46.2  Rx         0440  8  00 80 00 FE 80 00 20 00 
    55)        46.9  Rx         01A0  8  00 42 00 00 00 FE 00 54 
    56)        47.6  Rx         01AC  8  A5 0A 00 00 69 01 15 D2 
    57)        48.8  Rx         0480  8  1C 00 D2 AD 19 00 06 7C 
    58)        49.3  Rx         04A0  8  00 00 00 00 00 00 00 00 
    59)        49.7  Rx         056A  8  C1 00 08 00 1A 00 02 D1 
    60)        50.1  Rx         0540  8  40 00 FF 00 FE 00 10 26 
    61)        50.4  Rx         04A8  8  06 80 00 10 00 00 A0 36 
    62)        51.0  Rx         0588  8  1A 7E 7E 00 00 00 00 00 
    63)        51.5  Rx         05A0  8  7C 00 00 A2 00 00 10 AB 
    64)        54.0  Rx         0280  8  01 0D C9 0C 0F 00 33 0F 
    65)        54.5  Rx         0288  8  64 67 10 04 00 51 8E 0F 
    66)        55.1  Rx         0380  8  00 53 00 47 20 00 00 0D 
    67)        55.5  Rx         0488  8  D0 1C 1C 7E FE FF FF 50 
    68)        56.2  Rx         0440  8  00 80 00 FE 80 00 28 00 
    69)        56.7  Rx         01A0  8  00 42 00 00 00 FE 00 55 
    70)        57.1  Rx         04A0  8  00 00 00 00 00 00 00 00 
    71)        57.4  Rx         038A  4  A5 01 A4 00 
    72)        59.7  Rx         0280  8  01 0D C9 0C 0F 00 33 0F 
    73)        60.2  Rx         0540  8  50 00 FF 00 FE 00 10 26 
    74)        60.4  Rx         0288  8  64 67 10 04 00 51 8E 0F 
    75)        60.8  Rx         0380  8  00 53 00 47 20 00 00 0D 
    76)        61.2  Rx         0488  8  E0 1C 1C 7E FE FF FF 60 
    77)        62.9  Rx         01A0  8  00 42 00 00 00 FE 00 56 
    78)        63.4  Rx         01AC  8  A2 0B 00 00 69 01 13 D2 
    79)        64.3  Rx         0480  8  54 00 D8 AD 19 00 06 3E 
    80)        65.3  Rx         04A0  8  00 00 00 00 00 00 00 00 
    81)        65.7  Rx         04A8  8  1F 00 00 10 00 00 B0 BF 
    82)        66.1  Rx         0440  8  00 80 00 FE 80 00 30 00 
    83)        67.3  Rx         056A  8  F1 00 08 00 1A 00 02 E1 
    84)        67.8  Rx         0588  8  1A 7E 7E 04 00 00 00 00 
    85)        68.3  Rx         05A0  8  7B 00 00 B2 00 00 10 AB 
    86)        70.1  Rx         0540  8  60 00 FF 00 FE 00 10 26 
    87)        70.3  Rx         0280  8  01 0D DA 0C 0F 00 33 0F 
    88)        70.6  Rx         0288  8  64 67 10 04 00 51 8E 0F 
    89)        71.1  Rx         0380  8  00 53 00 49 20 00 00 0D 
    90)        71.5  Rx         0488  8  F0 1C 1C 7E FE FF FF 70 
    91)        72.5  Rx         01A0  8  00 42 00 00 00 FE 00 57 
    92)        72.9  Rx         04A0  8  00 00 00 00 00 00 00 00 
    93)        73.2  Rx         038A  4  B5 01 B4 00 
    94)        76.1  Rx         0440  8  00 80 00 FE 80 00 38 00 
    95)        80.1  Rx         0540  8  70 00 FF 00 FE 00 10 2F 
    96)        85.6  Rx         0280  8  01 0D DA 0C 0F 00 33 0F 
    97)        86.1  Rx         0288  8  8A 67 10 04 00 51 8E 0F 
    98)        86.3  Rx         0440  8  00 80 00 FE 80 00 40 00 
    99)        86.6  Rx         0380  8  00 53 00 49 20 00 00 0D 
   100)        87.4  Rx         0488  8  00 1C 1C 7E FE FF FF 80 
   101)        88.2  Rx         0520  8  60 44 00 93 7A 57 33 03 
   102)        89.1  Rx         01A0  8  00 42 00 00 00 FE 00 58 
   103)        89.5  Rx         01AC  8  A2 0C 00 00 69 01 14 D2 
   104)        90.1  Rx         0540  8  80 00 FF 00 FE 00 10 2F 
   105)        90.9  Rx         0480  8  54 00 DE AD 19 00 06 38 
   106)        91.3  Rx         04A0  8  00 00 00 00 00 00 00 00 
   107)        91.8  Rx         056A  8  E1 00 08 00 1A 00 02 F1 
   108)        92.3  Rx         04A8  8  06 80 00 10 00 00 C0 56 
   109)        92.7  Rx         0588  8  1A 7E 7E 00 00 00 00 00 
   110)        93.1  Rx         05A0  8  7C 00 00 C2 00 00 10 AB 
   111)        94.7  Rx         0390  8  6A 40 51 00 00 00 20 00 
   112)        96.0  Rx         0440  8  00 80 00 FE 80 00 48 00 
   113)        96.3  Rx         0280  8  01 0D DA 0C 0F 00 33 0F 
   114)        96.7  Rx         0288  8  8A 67 10 04 00 51 8E 0F 
   115)        97.2  Rx         0380  8  00 53 00 47 20 00 00 0D 
   116)        97.6  Rx         0488  8  10 1C 1C 7E FE FF FF 90 
   117)        98.1  Rx         05D0  8  C0 04 51 AF 29 48 01 00 
   118)        99.4  Rx         01A0  8  00 42 00 00 00 FE 00 59 
   119)       100.0  Rx         04A0  8  00 00 00 00 00 00 00 00 
   120)       100.2  Rx         0540  8  90 00 FF 00 FE 00 10 2F 
   121)       100.4  Rx         038A  4  C5 01 C4 00 
   122)       103.1  Rx         0280  8  01 0D E9 0C 0F 00 33 0F 
   123)       103.5  Rx         0288  8  8A 67 10 04 00 51 8E 0F 
   124)       104.0  Rx         0380  8  00 53 00 47 20 00 00 0D 
   125)       105.1  Rx         0488  8  20 1C 1C 7E FE FF FF A0 
   126)       105.5  Rx         05DC  8  77 18 C0 3F 1E 00 30 42 
   127)       106.1  Rx         0440  8  00 80 00 FE 80 00 50 00 
   128)       106.8  Rx         01A0  8  00 42 00 00 00 FE 00 5A 
   129)       107.2  Rx         01AC  8  A0 0D 00 00 69 01 17 D2 
   130)       108.0  Rx         0480  8  54 00 E7 AD 19 00 06 01 
   131)       108.9  Rx         04A0  8  00 00 00 00 00 00 00 00 
   132)       109.4  Rx         04A8  8  06 80 00 10 00 00 D0 46 
   133)       109.8  Rx         056A  8  11 00 08 00 1A 00 02 01 
   134)       110.1  Rx         0540  8  A0 00 FF 00 FE 00 10 2F 
   135)       110.4  Rx         0588  8  1A 7B 7E 03 00 00 00 00 
   136)       110.9  Rx         05A0  8  7C 00 00 D2 00 00 10 AB 
   137)       113.3  Rx         0280  8  01 0D E9 0C 0F 00 33 0F 
   138)       113.8  Rx         0288  8  8A 67 10 04 00 51 8E 0F 
   139)       114.3  Rx         0380  8  00 53 00 47 20 00 00 0D 
   140)       114.7  Rx         0488  8  37 1C 1B 7E FE FF FF B0 
   141)       115.7  Rx         01A0  8  00 42 00 00 00 FE 00 5B 
   142)       116.1  Rx         0440  8  00 80 00 FE 80 00 58 00 
   143)       116.4  Rx         04A0  8  00 00 00 00 00 00 00 00 
   144)       116.6  Rx         038A  4  D5 01 D4 00 
   145)       119.2  Rx         0280  8  01 0D E9 0C 0F 00 33 0F 
   146)       119.6  Rx         0288  8  E8 67 10 04 00 51 8E 0F 
   147)       120.1  Rx         0540  8  B0 00 FF 00 FE 00 10 26 
   148)       120.4  Rx         0380  8  00 53 00 47 20 00 00 0D 
   149)       120.7  Rx         0488  8  47 1C 1B 7E FE FF FF C0 
   150)       122.0  Rx         01A0  8  00 42 00 00 00 FE 00 5C 
   151)       122.8  Rx         01AC  8  A1 0E 00 00 69 01 15 D2 
   152)       123.7  Rx         0480  8  54 00 F0 AD 19 00 06 16 
   153)       124.7  Rx         04A0  8  00 00 00 00 00 00 00 00 
   154)       125.6  Rx         04A8  8  00 00 00 10 00 00 E0 F0 
   155)       126.0  Rx         056A  8  01 00 08 00 1A 00 02 11 
   156)       126.3  Rx         0440  8  00 80 00 FE 80 00 60 00 
   157)       126.5  Rx         0588  8  1A 7B 7E 00 00 00 00 00 
   158)       127.0  Rx         05A0  8  7C 00 00 E2 00 00 10 AB 
   159)       129.5  Rx         0280  8  01 0D E9 0C 0F 00 33 0F 
   160)       130.0  Rx         0288  8  E8 67 10 04 00 50 8E 0F 
   161)       130.3  Rx         0540  8  C0 00 FF 00 FE 00 10 26 
   162)       130.6  Rx         0380  8  00 53 00 45 20 00 00 0D 
   163)       131.0  Rx         0488  8  50 1B 1B 7E FE FF FF D0 
   164)       131.9  Rx         01A0  8  00 42 00 00 00 FE 00 5D 
   165)       136.1  Rx         0440  8  00 80 00 FE 80 00 68 00 
   166)       140.1  Rx         0540  8  D0 00 FF 00 FE 00 10 26 
   167)       142.4  Rx         04A0  8  00 00 00 00 00 00 00 00 
   168)       142.9  Rx         038A  4  E5 01 E4 00 
   169)       146.1  Rx         0440  8  00 80 00 FE 80 00 70 00 
   170)       148.4  Rx         0280  8  01 0D E2 0C 0F 00 33 0F 
   171)       148.8  Rx         0288  8  E8 67 10 04 00 50 8E 0F 
   172)       149.3  Rx         0380  8  00 53 00 45 20 00 00 0D 
   173)       149.7  Rx         0488  8  60 1B 1B 7E FE FF FF E0 
   174)       150.1  Rx         0540  8  E0 00 FF 00 FE 00 10 26 
   175)       151.1  Rx         0480  8  84 00 F9 AD 19 00 06 CF 
   176)       151.9  Rx         0588  8  1A 7B 7E 81 00 00 00 00 
   177)       152.4  Rx         01A0  8  00 42 00 00 00 FE 00 5E 
   178)       152.8  Rx         01AC  8  A1 0F 00 00 69 01 14 D2 
   179)       153.6  Rx         04A0  8  00 00 00 00 00 00 00 00 
   180)       154.1  Rx         056A  8  31 00 08 00 1A 00 02 21 
   181)       154.5  Rx         04A8  8  00 00 00 10 00 00 F0 E0 
   182)       155.1  Rx         05A0  8  7B 00 00 F2 00 00 10 AB 
   183)       156.1  Rx         0440  8  00 80 00 FE 80 00 78 00 
   184)       157.6  Rx         0280  8  01 0D E2 0C 0F 00 33 0F 
   185)       158.2  Rx         0288  8  E8 67 10 04 00 50 8E 0F 
   186)       158.6  Rx         0380  8  00 53 00 40 20 00 00 0D 
   187)       159.1  Rx         0488  8  70 1B 1B 7E FE FF FF F0 
   188)       160.1  Rx         01A0  8  00 42 00 00 00 FE 00 5F 
   189)       160.3  Rx         0540  8  F0 00 FF 00 FE 00 10 2F 
   190)       160.6  Rx         04A0  8  00 00 00 00 00 00 00 00 
   191)       160.9  Rx         038A  4  F5 01 F4 00 
   192)       163.7  Rx         0280  8  01 0D E2 0C 0F 00 33 0F 
   193)       164.2  Rx         0288  8  2C 67 10 04 00 50 8E 0F 
   194)       164.7  Rx         0380  8  00 53 00 40 20 00 00 0D 
   195)       165.3  Rx         0488  8  41 1B 1B 7E FE FF 3E 00 
   196)       166.1  Rx         0440  8  00 80 00 FE 80 00 00 00 
   197)       166.6  Rx         01A0  8  00 42 00 00 00 FE 00 50 
   198)       167.0  Rx         01AC  8  A9 00 00 00 69 01 13 D2 
   199)       167.4  Rx         04A0  8  00 00 00 00 00 00 00 00 
   200)       168.7  Rx         0480  8  84 00 03 AE 19 00 06 36 
   201)       169.1  Rx         04A8  8  0C 00 00 10 00 00 00 1C 
   202)       169.5  Rx         056A  8  21 00 08 00 1A 00 02 31 
   203)       170.0  Rx         0540  8  00 00 FF 00 FE 00 10 2F 
   204)       170.3  Rx         0588  8  1A 7B 7E 00 00 00 00 00 
   205)       170.6  Rx         05A0  8  7C 00 00 02 00 00 10 AB 
   206)       173.5  Rx         0280  8  01 0D D1 0C 0F 00 33 0F 
   207)       173.9  Rx         0288  8  2C 67 10 04 00 50 8E 0F 
   208)       174.4  Rx         0380  8  00 53 00 40 20 00 00 0D 
   209)       175.4  Rx         0488  8  4A 1B 1B 7E FE FF 25 10 
   210)       176.1  Rx         0440  8  00 80 00 FE 80 00 08 00 
   211)       176.4  Rx         01A0  8  00 42 00 00 00 FE 00 51 
   212)       176.9  Rx         04A0  8  00 00 00 00 00 00 00 00 
   213)       177.2  Rx         038A  4  05 01 04 00 
   214)       179.7  Rx         0280  8  01 0D D1 0C 0F 00 33 0F 
   215)       180.1  Rx         0540  8  10 00 FF 00 FE 00 10 2F 
   216)       180.4  Rx         0288  8  2C 67 10 04 00 50 8E 0F 
   217)       180.9  Rx         0380  8  00 53 00 40 20 00 00 0D 
   218)       181.4  Rx         0488  8  19 1B 1B 7E FE FF 46 20 
   219)       184.3  Rx         0480  8  84 00 0C AE 19 00 06 39 
   220)       185.0  Rx         01A0  8  00 42 00 00 00 FE 00 52 
   221)       185.4  Rx         0588  8  1A 7B 7E 84 00 00 00 00 
   222)       185.8  Rx         01AC  8  AE 01 00 00 69 01 15 D2 
   223)       186.1  Rx         0440  8  00 80 00 FE 80 00 10 00 
   224)       186.7  Rx         04A0  8  00 00 00 00 00 00 00 00 
   225)       187.1  Rx         056A  8  51 00 08 00 1A 00 02 41 
   226)       187.5  Rx         04A8  8  0C 00 00 10 00 00 10 0C 
   227)       188.0  Rx         05A0  8  7C 00 00 12 00 00 10 AB 
   228)       189.6  Rx         0390  8  6A 40 51 00 00 00 20 00 
   229)       190.0  Rx         0540  8  20 00 FF 00 FE 00 10 2F 
   230)       191.2  Rx         0280  8  01 0D D1 0C 0F 00 33 0F 
   231)       191.6  Rx         0288  8  2C 67 10 04 00 50 8E 0F 
   232)       192.1  Rx         0380  8  00 53 00 40 20 00 00 0D 
   233)       192.5  Rx         0488  8  47 1B 1B 7E FE FF 08 30 
   234)       193.0  Rx         05D0  8  C0 04 51 AF 29 48 01 00 
   235)       193.9  Rx         01A0  8  00 42 00 00 00 FE 00 53 
   236)       194.3  Rx         04A0  8  00 00 00 00 00 00 00 00 
   237)       194.6  Rx         038A  4  15 01 14 00 
   238)       196.0  Rx         0440  8  00 80 00 FE 80 00 18 00 
   239)       200.1  Rx         0540  8  30 00 FF 00 FE 00 10 26 
   240)       206.0  Rx         0440  8  00 80 00 FE 80 00 20 00 
   241)       207.2  Rx         0280  8  01 0D D1 0C 0F 00 33 0F 
   242)       207.7  Rx         0288  8  64 67 10 04 00 50 8E 0F 
   243)       208.2  Rx         0380  8  00 53 00 40 20 00 00 0D 
   244)       208.6  Rx         0488  8  19 1B 1B 7E FE FF 26 40 
   245)       209.0  Rx         05DC  8  77 18 C0 3F 1E 00 30 42 
   246)       210.0  Rx         0480  8  84 00 15 AE 19 00 06 20 
   247)       210.3  Rx         0540  8  40 00 FF 00 FE 00 10 26 
   248)       211.2  Rx         01A0  8  00 42 00 00 00 FE 00 54 
   249)       211.7  Rx         0588  8  1A 7B 7E 00 00 00 00 00 
   250)       212.2  Rx         01AC  8  AC 02 00 00 69 01 14 D2 
   251)       213.0  Rx         04A0  8  00 00 00 00 00 00 00 00 
   252)       213.4  Rx         056A  8  41 00 08 00 1A 00 02 51 
   253)       213.8  Rx         04A8  8  06 00 00 10 00 00 20 36 
   254)       214.3  Rx         05A0  8  7B 00 00 22 00 00 10 AB 
   255)       216.0  Rx         0440  8  00 80 00 FE 80 00 28 00 
   256)       217.0  Rx         0280  8  01 0D C2 0C 0F 00 33 0F 
   257)       217.5  Rx         0288  8  64 67 10 04 00 50 8E 0F 
   258)       217.9  Rx         0380  8  00 53 00 42 20 00 00 0D 
   259)       218.5  Rx         0488  8  D0 1B 1B 7E FE FF FF 50 
   260)       219.3  Rx         01A0  8  00 42 00 00 00 FE 00 55 
   261)       219.7  Rx         04A0  8  00 00 00 00 00 00 00 00 
   262)       220.1  Rx         0540  8  50 00 FF 00 FE 00 10 26 
   263)       220.3  Rx         038A  4  25 01 24 00 
   264)       223.0  Rx         0280  8  01 0D C2 0C 0F 00 33 0F 
   265)       223.4  Rx         0288  8  64 67 10 04 00 50 8E 0F 
   266)       223.9  Rx         0380  8  00 53 00 42 20 00 00 0D 
   267)       224.5  Rx         0488  8  E0 1B 1B 7E FE FF FF 60 
   268)       225.9  Rx         0480  8  C2 00 1E AE 19 00 06 6D 
   269)       226.1  Rx         0440  8  00 80 00 FE 80 00 30 00 
   270)       226.7  Rx         01A0  8  00 42 00 00 00 FE 00 56 
   271)       227.5  Rx         01AC  8  AF 03 00 00 69 01 16 D2 
   272)       227.9  Rx         056A  8  71 00 08 00 1A 00 02 61 
   273)       228.5  Rx         04A0  8  00 00 00 00 00 00 00 00 
   274)       229.5  Rx         04A8  8  0C 00 00 10 00 00 30 2C 
   275)       230.1  Rx         0540  8  60 00 FF 00 FE 00 10 26 
   276)       230.3  Rx         0588  8  1A 7B 7E 83 00 00 00 00 
   277)       230.6  Rx         05A0  8  7C 00 00 32 00 00 10 AB 
   278)       233.2  Rx         0280  8  01 0D C2 0C 0F 00 33 0F 
   279)       233.6  Rx         0288  8  64 67 10 04 00 50 8E 0F 
   280)       234.0  Rx         0380  8  00 53 00 42 20 00 00 0D 
   281)       234.6  Rx         0488  8  F7 1C 1B 7E FE FF FF 70 
   282)       235.6  Rx         01A0  8  00 42 00 00 00 FE 00 57 
   283)       236.1  Rx         04A0  8  00 00 00 00 00 00 00 00 
   284)       236.3  Rx         0440  8  00 80 00 FE 80 00 38 00 
   285)       236.5  Rx         038A  4  35 01 34 00 
   286)       240.1  Rx         0540  8  70 00 FF 00 FE 00 10 2F 
   287)       240.4  Rx         0280  8  01 0D C2 0C 0F 00 33 0F 
   288)       240.8  Rx         0288  8  8A 67 10 04 00 50 8E 0F 
   289)       241.2  Rx         0380  8  00 53 00 42 20 00 00 0D 
   290)       241.7  Rx         0488  8  07 1C 1B 7E FE FF FF 80 
   291)       242.7  Rx         01A0  8  00 42 00 00 00 FE 00 58 
   292)       243.1  Rx         01AC  8  AA 04 00 00 69 01 14 D2 
   293)       243.6  Rx         04A0  8  00 00 00 00 00 00 00 00 
   294)       245.6  Rx         0480  8  C2 00 28 AE 19 00 06 5B 
   295)       246.1  Rx         0440  8  00 80 00 FE 80 00 40 00 
   296)       246.3  Rx         04A8  8  0C 00 00 10 00 00 40 5C 
   297)       246.8  Rx         056A  8  61 00 08 00 1A 00 02 71 
   298)       247.2  Rx         0588  8  1A 7B 7E 84 00 00 00 00 
   299)       247.8  Rx         05A0  8  7B 00 00 42 00 00 10 AB 
   300)       250.0  Rx         0540  8  80 00 FF 00 FE 00 10 2F 
   301)       250.7  Rx         0280  8  01 0D B1 0C 0F 00 33 0F 
   302)       251.1  Rx         0288  8  8A 67 10 04 00 50 8E 0F 
   303)       251.6  Rx         0380  8  00 53 00 44 20 00 00 0D 
   304)       252.0  Rx         0488  8  17 1C 1B 7E FE FF FF 90 
   305)       252.9  Rx         01A0  8  00 42 00 00 00 FE 00 59 
   306)       253.4  Rx         04A0  8  00 00 00 00 00 00 00 00 
   307)       253.7  Rx         038A  4  45 01 44 00 
   308)       256.0  Rx         0440  8  00 80 00 FE 80 00 48 00 
   309)       260.1  Rx         0540  8  90 00 FF 00 FE 00 10 2F 
   310)       266.0  Rx         0440  8  00 80 00 FE 80 00 50 00 
   311)       266.6  Rx         0280  8  01 0D B1 0C 0F 00 33 0F 
   312)       267.0  Rx         0288  8  8A 67 10 04 00 50 8D 0F 
   313)       267.4  Rx         0380  8  00 53 00 44 20 00 00 0D 
   314)       267.8  Rx         0488  8  27 1C 1B 7E FE FF FF A0 
   315)       268.8  Rx         0480  8  C2 00 31 AE 19 00 06 42 
   316)       269.2  Rx         01A0  8  00 42 00 00 00 FE 00 5A 
   317)       270.1  Rx         0540  8  A0 00 FF 00 FE 00 10 2F 
   318)       270.3  Rx         01AC  8  AB 05 00 00 69 01 14 D2 
   319)       270.7  Rx         0588  8  1A 7B 7E 00 00 00 00 00 
   320)       271.5  Rx         04A0  8  00 00 00 00 00 00 00 00 
   321)       271.9  Rx         056A  8  91 00 08 00 1A 00 02 81 
   322)       272.7  Rx         04A8  8  0C 00 00 10 00 00 50 4C 
   323)       273.2  Rx         05A0  8  7C 00 00 52 00 00 10 AB 
   324)       276.0  Rx         0440  8  00 80 00 FE 80 00 58 00 
   325)       276.7  Rx         0280  8  01 0D B1 0C 0F 00 33 0F 
   326)       277.1  Rx         0288  8  8A 67 10 04 00 50 8D 0F 
   327)       277.5  Rx         0380  8  00 53 00 44 20 00 00 0D 
   328)       278.0  Rx         0488  8  30 1C 1C 7E FE FF FF B0 
   329)       278.9  Rx         01A0  8  00 42 00 00 00 FE 00 5B 
   330)       279.3  Rx         04A0  8  00 00 00 00 00 00 00 00 
   331)       279.6  Rx         038A  4  55 01 54 00 
   332)       280.1  Rx         0540  8  B0 00 FF 00 FE 00 10 26 
   333)       282.6  Rx         0280  8  01 0D B1 0C 0F 00 33 0F 
   334)       283.0  Rx         0288  8  E8 67 10 04 00 50 8D 0F 
   335)       283.5  Rx         0380  8  00 53 00 44 20 00 00 0D 
   336)       284.0  Rx         0488  8  40 1C 1C 7E FE FF FF C0 
   337)       285.1  Rx         0520  8  A6 87 00 93 7A 57 33 03 
   338)       286.0  Rx         01A0  8  00 42 00 00 00 FE 00 5C 
   339)       286.2  Rx         0440  8  00 80 00 FE 80 00 60 00 
   340)       286.5  Rx         01AC  8  A9 06 00 00 69 01 15 D2 
   341)       286.9  Rx         04A0  8  00 00 00 00 00 00 00 00 
   342)       288.1  Rx         0480  8  C2 00 3A AE 19 00 06 49 
   343)       288.6  Rx         04A8  8  00 00 00 10 00 00 60 70 
   344)       289.3  Rx         056A  8  81 00 08 00 1A 00 02 91 
   345)       289.9  Rx         0588  8  1A 7B 7E 81 00 00 00 00 
   346)       290.2  Rx         0540  8  C0 00 FF 00 FE 00 10 26 
   347)       290.4  Rx         05A0  8  7B 00 00 62 00 00 10 AB 
   348)       292.0  Rx         0390  8  6A 40 51 00 00 00 20 00 
   349)       293.4  Rx         0280  8  01 0D AC 0C 0F 00 33 0F 
   350)       293.8  Rx         0288  8  E8 67 10 04 00 50 8D 0F 
   351)       294.3  Rx         0380  8  00 53 00 46 20 00 00 0D 
   352)       294.9  Rx         0488  8  50 1C 1C 7E FE FF FF D0 
   353)       295.3  Rx         05D0  8  C0 04 51 AF 29 48 01 00 
   354)       296.0  Rx         0440  8  00 80 00 FE 80 00 68 00 
   355)       296.7  Rx         01A0  8  00 42 00 00 00 FE 00 5D 
   356)       297.1  Rx         04A0  8  00 00 00 00 00 00 00 00 
   357)       297.4  Rx         038A  4  65 01 64 00 
   358)       300.0  Rx         0540  8  D0 00 FF 00 FE 00 10 26 
   359)       300.3  Rx         0280  8  01 0D AC 0C 0F 00 33 0F 
   360)       300.7  Rx         0288  8  E8 67 10 04 00 50 8D 0F 
   361)       301.1  Rx         0380  8  00 53 00 46 20 00 00 0D 
   362)       301.6  Rx         0488  8  60 1C 1C 7E FE FF FF E0 
   363)       302.0  Rx         05DC  8  77 18 C0 3F 1E 00 30 42 
   364)       303.0  Rx         01A0  8  00 42 00 00 00 FE 00 5E 
   365)       303.5  Rx         01AC  8  A9 07 00 00 69 01 14 D2 
   366)       304.0  Rx         04A0  8  00 00 00 00 00 00 00 00 
   367)       305.4  Rx         0480  8  1C 00 44 AE 19 00 06 E9 
   368)       305.9  Rx         04A8  8  00 00 00 10 00 00 70 60 
   369)       306.1  Rx         0440  8  00 80 00 FE 80 00 70 00 
   370)       306.4  Rx         0588  8  1A 80 7E 00 00 00 00 00 
   371)       308.2  Rx         056A  8  B1 00 08 00 1A 00 02 A1 
   372)       308.7  Rx         05A0  8  7C 00 00 72 00 00 10 AB 
   373)       310.0  Rx         0540  8  E0 00 FF 00 FE 00 10 26 
   374)       310.3  Rx         0280  8  01 0D AC 0C 0F 00 33 0F 
   375)       310.7  Rx         0288  8  E8 67 10 04 00 50 8D 0F 
   376)       311.1  Rx         0380  8  00 53 00 47 20 00 00 0D 
   377)       311.6  Rx         0488  8  70 1C 1C 7E FE FF FF F0 
   378)       312.5  Rx         01A0  8  00 42 00 00 00 FE 00 5F 
   379)       312.9  Rx         04A0  8  00 00 00 00 00 00 00 00 
   380)       316.0  Rx         0440  8  00 80 00 FE 80 00 78 00 
   381)       320.0  Rx         0540  8  F0 00 FF 00 FE 00 10 2F 
   382)       323.0  Rx         038A  4  75 01 74 00 
   383)       326.0  Rx         0440  8  00 80 00 FE 80 00 00 00 
   384)       326.4  Rx         0280  8  01 0D A0 0C 0F 00 33 0F 
   385)       326.8  Rx         0288  8  2C 67 10 04 00 50 8D 0F 
   386)       327.2  Rx         0380  8  00 53 00 47 20 00 00 0D 
   387)       327.7  Rx         0488  8  41 1C 1C 7E FE FF 3E 00 
   388)       328.6  Rx         01A0  8  00 42 00 00 00 FE 00 50 
   389)       329.0  Rx         01AC  8  A4 08 00 00 69 01 16 D2 
   390)       329.9  Rx         04A0  8  00 00 00 00 00 00 00 00 
   391)       330.2  Rx         0540  8  00 00 FF 00 FE 00 10 2F 
   392)       331.1  Rx         0480  8  1C 00 4D AE 19 00 06 E0 
   393)       331.6  Rx         04A8  8  19 80 00 10 00 00 80 09 
   394)       332.1  Rx         0588  8  1A 80 7E 83 00 00 00 00 
   395)       332.5  Rx         05A0  8  7C 00 00 82 00 00 10 AB 
   396)       332.9  Rx         056A  8  A1 00 08 00 1A 00 02 B1 
   397)       336.0  Rx         0440  8  00 80 00 FE 80 00 08 00 
   398)       336.2  Rx         0280  8  01 0D A0 0C 0F 00 33 0F 
   399)       336.6  Rx         0288  8  2C 67 10 04 00 50 8D 0F 
   400)       337.0  Rx         0380  8  00 53 00 47 20 00 00 0D 
   401)       337.4  Rx         0488  8  4A 1C 1C 7E FE FF 25 10 
   402)       338.3  Rx         01A0  8  00 42 00 00 00 FE 00 51 
   403)       338.7  Rx         04A0  8  00 00 00 00 00 00 00 00 
   404)       339.1  Rx         038A  4  85 01 84 00 
   405)       340.0  Rx         0540  8  10 00 FF 00 FE 00 10 2F 
   406)       343.1  Rx         0280  8  01 0D A0 0C 0F 00 33 0F 
   407)       343.6  Rx         0288  8  2C 67 10 04 00 50 8D 0F 
   408)       344.2  Rx         0380  8  00 53 00 47 20 00 00 0D 
   409)       344.6  Rx         0488  8  19 1C 1C 7E FE FF 46 20 
   410)       345.6  Rx         01A0  8  00 42 00 00 00 FE 00 52 
   411)       346.1  Rx         0440  8  00 80 00 FE 80 00 10 00 
   412)       346.3  Rx         01AC  8  A7 09 00 00 69 01 14 D2 
   413)       346.6  Rx         04A0  8  00 00 00 00 00 00 00 00 
   414)       347.3  Rx         04A8  8  1F 00 00 10 00 00 90 9F 
   415)       348.2  Rx         0480  8  1C 00 56 AE 19 00 06 FB 
   416)       348.6  Rx         0588  8  1A 80 7E 00 00 00 00 00 
   417)       349.1  Rx         056A  8  D1 00 08 00 1A 00 02 C1 
   418)       349.9  Rx         05A0  8  7C 00 00 92 00 00 10 AB 
   419)       350.2  Rx         0540  8  20 00 FF 00 FE 00 10 2F 
   420)       353.1  Rx         0280  8  01 0D A0 0C 0F 00 33 0F 
   421)       353.8  Rx         0288  8  2C 67 10 04 00 50 8D 0F 
   422)       354.3  Rx         0380  8  00 53 00 48 20 00 00 0D 
   423)       354.8  Rx         0488  8  47 1C 1C 7E FE FF 08 30 
   424)       355.8  Rx         01A0  8  00 42 00 00 00 FE 00 53 
   425)       356.0  Rx         0440  8  00 80 00 FE 80 00 18 00 
   426)       356.3  Rx         04A0  8  00 00 00 00 00 00 00 00 
   427)       356.6  Rx         038A  4  95 01 94 00 
   428)       359.3  Rx         0280  8  01 0D A7 0C 0F 00 33 0F 
   429)       359.9  Rx         0288  8  64 67 10 04 00 50 8D 0F 
   430)       360.1  Rx         0540  8  30 00 FF 00 FE 00 10 26 
   431)       360.4  Rx         0380  8  00 53 00 48 20 00 00 0D 
   432)       360.8  Rx         0488  8  19 1C 1C 7E FE FF 26 40 
   433)       361.7  Rx         01A0  8  00 42 00 00 00 FE 00 54 
   434)       362.6  Rx         01AC  8  A4 0A 00 00 69 01 14 D2 
   435)       363.1  Rx         0480  8  1C 00 5F AE 19 00 06 F2 
   436)       363.9  Rx         04A0  8  00 00 00 00 00 00 00 00 
   437)       364.5  Rx         04A8  8  06 00 00 10 00 00 A0 B6 
   438)       365.1  Rx         056A  8  C1 00 08 00 1A 00 02 D1 
   439)       365.5  Rx         0588  8  1A 80 7E 01 00 00 00 00 
   440)       366.0  Rx         05A0  8  7C 00 00 A2 00 00 10 AB 
   441)       366.2  Rx         0440  8  00 80 00 FE 80 00 20 00 
   442)       369.3  Rx         0280  8  01 0D A7 0C 0F 00 33 0F 
   443)       369.9  Rx         0288  8  64 67 10 04 00 50 8D 0F 
   444)       370.1  Rx         0540  8  40 00 FF 00 FE 00 10 26 
   445)       370.4  Rx         0380  8  00 53 00 48 20 00 00 0D 
   446)       370.8  Rx         0488  8  D0 1C 1C 7E FE FF FF 50 
   447)       371.7  Rx         01A0  8  00 42 00 00 00 FE 00 55 
   448)       372.2  Rx         04A0  8  00 00 00 00 00 00 00 00 
   449)       376.0  Rx         0440  8  00 80 00 FE 80 00 28 00 
   450)       380.0  Rx         0540  8  50 00 FF 00 FE 00 10 26 
   451)       382.1  Rx         038A  4  A5 01 A4 00 
   452)       385.1  Rx         0280  8  01 0D A7 0C 0F 00 33 0F 
   453)       385.5  Rx         0288  8  64 67 10 04 00 50 8D 0F 
   454)       386.0  Rx         0380  8  00 53 00 48 20 00 00 0D 
   455)       386.3  Rx         0440  8  00 80 00 FE 80 00 30 00 
   456)       386.5  Rx         0488  8  E0 1C 1C 7E FE FF FF 60 
   457)       388.1  Rx         01A0  8  00 42 00 00 00 FE 00 56 
   458)       388.6  Rx         01AC  8  A5 0B 00 00 69 01 14 D2 
   459)       389.1  Rx         04A0  8  00 00 00 00 00 00 00 00 
   460)       390.0  Rx         0540  8  60 00 FF 00 FE 00 10 26 
   461)       390.2  Rx         04A8  8  06 80 00 10 00 00 B0 26 
   462)       390.5  Rx         0480  8  54 00 68 AE 19 00 06 8D 
   463)       391.3  Rx         0588  8  1A 7E 7E 00 00 00 00 00 
   464)       391.8  Rx         05A0  8  7C 00 00 B2 00 00 10 AB 
   465)       394.5  Rx         0390  8  6A 40 51 00 00 00 20 00 
   466)       396.0  Rx         0440  8  00 80 00 FE 80 00 38 00 
   467)       396.6  Rx         056A  8  F1 00 08 00 1A 00 02 E1 
   468)       398.0  Rx         0280  8  01 0D A7 0C 0F 00 33 0F 
   469)       398.4  Rx         0288  8  64 67 10 04 00 50 8D 0F 
   470)       398.9  Rx         0380  8  00 53 00 47 20 00 00 0D 
   471)       399.3  Rx         0488  8  F0 1C 1C 7E FE FF FF 70 
   472)       400.0  Rx         05D0  8  C0 04 51 AF 29 48 01 00 
   473)       400.2  Rx         0540  8  70 00 FF 00 FE 00 10 2F 
   474)       400.9  Rx         01A0  8  00 42 00 00 00 FE 00 57 
   475)       401.3  Rx         04A0  8  00 00 00 00 00 00 00 00 
   476)       401.7  Rx         038A  4  B5 01 B4 00 
   477)       405.0  Rx         0280  8  01 0D A9 0C 0F 00 33 0F 
   478)       405.4  Rx         0288  8  8A 67 10 04 00 50 8D 0F 
   479)       405.9  Rx         0380  8  00 53 00 47 20 00 00 0D 
   480)       406.2  Rx         0440  8  00 80 00 FE 80 00 40 00 
   481)       406.4  Rx         0488  8  00 1C 1C 7E FE FF FF 80 
   482)       406.8  Rx         05DC  8  77 18 C0 3F 1E 00 30 42 
   483)       407.7  Rx         01A0  8  00 42 00 00 00 FE 00 58 
   484)       408.2  Rx         0480  8  54 00 6E AE 19 00 06 8B 
   485)       408.6  Rx         01AC  8  A0 0C 00 00 69 01 16 D2 
   486)       410.0  Rx         04A0  8  00 00 00 00 00 00 00 00 
   487)       410.2  Rx         0540  8  80 00 FF 00 FE 00 10 2F 
   488)       410.4  Rx         056A  8  E1 00 08 00 1A 00 02 F1 
   489)       410.9  Rx         04A8  8  0C 00 00 10 00 00 C0 DC 
   490)       411.3  Rx         0588  8  1A 7E 7E 00 00 00 00 00 
   491)       411.7  Rx         05A0  8  7C 00 00 C2 00 00 10 AB 
   492)       414.6  Rx         0280  8  01 0D A9 0C 0F 00 33 0F 
   493)       415.2  Rx         0288  8  8A 67 10 04 00 50 8D 0F 
   494)       415.6  Rx         0380  8  00 53 00 47 20 00 00 0D 
   495)       416.0  Rx         0440  8  00 80 00 FE 80 00 48 00 
   496)       416.3  Rx         0488  8  10 1C 1C 7E FE FF FF 90 
   497)       417.0  Rx         01A0  8  00 42 00 00 00 FE 00 59 
   498)       417.4  Rx         04A0  8  00 00 00 00 00 00 00 00 
   499)       417.7  Rx         038A  4  C5 01 C4 00 
   500)       419.9  Rx         0540  8  90 00 FF 00 FE 00 10 2F 
   501)       420.6  Rx         0280  8  01 0D A9 0C 0F 00 33 0F 
   502)       421.0  Rx         0288  8  8A 67 10 04 00 50 8D 0F 
   503)       421.4  Rx         0380  8  00 53 00 47 20 00 00 0D 
   504)       422.0  Rx         0488  8  20 1C 1C 7E FE FF FF A0 
   505)       422.9  Rx         01A0  8  00 42 00 00 00 FE 00 5A 
   506)       423.4  Rx         01AC  8  A3 0D 00 00 69 01 14 D2 
   507)       424.3  Rx         0480  8  54 00 75 AE 19 00 06 90 
   508)       425.3  Rx         04A0  8  00 00 00 00 00 00 00 00 
   509)       426.0  Rx         0440  8  00 80 00 FE 80 00 50 00 
   510)       426.3  Rx         04A8  8  0C 00 00 10 00 00 D0 CC 
   511)       426.9  Rx         056A  8  11 00 08 00 1A 00 02 01 
   512)       428.4  Rx         0588  8  1A 7E 7E 00 00 00 00 00 
   513)       428.9  Rx         05A0  8  7B 00 00 D2 00 00 10 AB 
   514)       429.9  Rx         0540  8  A0 00 FF 00 FE 00 10 2F 
   515)       430.8  Rx         0280  8  01 0D A9 0C 0F 00 33 0F 
   516)       431.3  Rx         0288  8  8A 67 10 04 00 50 8D 0F 
   517)       431.7  Rx         0380  8  00 53 00 47 20 00 00 0D 
   518)       432.3  Rx         0488  8  30 1C 1C 7E FE FF FF B0 
   519)       433.1  Rx         01A0  8  00 42 00 00 00 FE 00 5B 
   520)       433.5  Rx         04A0  8  00 00 00 00 00 00 00 00 
   521)       433.9  Rx         038A  4  D5 01 D4 00 
   522)       436.0  Rx         0440  8  00 80 00 FE 80 00 58 00 
   523)       439.9  Rx         0540  8  B0 00 FF 00 FE 00 10 26 
   524)       446.0  Rx         0440  8  00 80 00 FE 80 00 60 00 
   525)       447.1  Rx         0280  8  01 0D A9 0C 0F 00 33 0F 
   526)       447.5  Rx         0288  8  E8 67 10 04 00 50 8D 0F 
   527)       448.0  Rx         0380  8  00 53 00 47 20 00 00 0D 
   528)       448.4  Rx         0488  8  40 1C 1C 7E FE FF FF C0 
   529)       449.3  Rx         01A0  8  00 42 00 00 00 FE 00 5C 
   530)       450.0  Rx         01AC  8  A1 0E 00 00 69 01 15 D2 
   531)       450.2  Rx         0540  8  C0 00 FF 00 FE 00 10 26 
   532)       450.8  Rx         0480  8  54 00 7B AE 19 00 06 9E 
   533)       451.7  Rx         04A0  8  00 00 00 00 00 00 00 00 
   534)       452.1  Rx         056A  8  01 00 08 00 1A 00 02 11 
   535)       452.5  Rx         04A8  8  06 80 00 10 00 00 E0 76 
   536)       452.9  Rx         0588  8  1A 7E 7E 00 00 00 00 00 
   537)       453.4  Rx         05A0  8  7B 00 00 E2 00 00 10 AB 
   538)       456.0  Rx         0440  8  00 80 00 FE 80 00 68 00 
   539)       456.9  Rx         0280  8  01 0D A9 0C 0F 00 33 0F 
   540)       457.3  Rx         0288  8  E8 67 10 04 00 50 8D 0F 
   541)       458.1  Rx         0380  8  00 53 00 47 20 00 00 0D 
   542)       458.4  Rx         0488  8  50 1C 1C 7E FE FF FF D0 
   543)       459.4  Rx         01A0  8  00 42 00 00 00 FE 00 5D 
   544)       460.0  Rx         0540  8  D0 00 FF 00 FE 00 10 26 
   545)       460.2  Rx         04A0  8  00 00 00 00 00 00 00 00 
   546)       460.4  Rx         038A  4  E5 01 E4 00 
   547)       463.5  Rx         0280  8  01 0D A9 0C 0F 00 33 0F 
   548)       463.9  Rx         0288  8  E8 67 10 04 00 50 8D 0F 
   549)       464.5  Rx         0380  8  00 53 00 47 20 00 00 0D 
   550)       465.0  Rx         0488  8  60 1C 1C 7E FE FF FF E0 
   551)       466.0  Rx         01A0  8  00 42 00 00 00 FE 00 5E 
   552)       466.2  Rx         0440  8  00 80 00 FE 80 00 70 00 
   553)       466.4  Rx         01AC  8  A6 0F 00 00 69 01 13 D2 
   554)       467.2  Rx         0480  8  84 00 81 AE 19 00 06 B4 
   555)       467.7  Rx         04A0  8  00 00 00 00 00 00 00 00 
   556)       468.5  Rx         04A8  8  00 00 00 10 00 00 F0 E0 
   557)       469.0  Rx         056A  8  31 00 08 00 1A 00 02 21 
   558)       469.9  Rx         0540  8  E0 00 FF 00 FE 00 10 26 
   559)       470.8  Rx         0588  8  1A 7E 7E 00 00 00 00 00 
   560)       471.2  Rx         05A0  8  7B 00 00 F2 00 00 10 AB 
   561)       473.3  Rx         0280  8  01 0D 98 0C 0F 00 33 0F 
   562)       473.7  Rx         0288  8  E8 67 10 04 00 50 8D 0F 
   563)       474.2  Rx         0380  8  00 53 00 47 20 00 00 0D 
   564)       475.2  Rx         0488  8  70 1C 1C 7E FE FF FF F0 
   565)       475.9  Rx         0440  8  00 80 00 FE 80 00 78 00 
   566)       476.2  Rx         01A0  8  00 42 00 00 00 FE 00 5F 
   567)       476.6  Rx         04A0  8  00 00 00 00 00 00 00 00 
   568)       476.9  Rx         038A  4  F5 01 F4 00 
   569)       479.5  Rx         0280  8  01 0D 98 0C 0F 00 33 0F 
   570)       479.9  Rx         0540  8  F0 00 FF 00 FE 00 10 2F 
   571)       480.2  Rx         0288  8  2C 67 10 04 00 50 8D 0F 
   572)       480.6  Rx         0380  8  00 53 00 47 20 00 00 0D 
   573)       481.1  Rx         0488  8  41 1C 1C 7E FE FF 3E 00 
   574)       482.0  Rx         0520  8  57 C4 00 93 7A 57 33 03 
   575)       483.0  Rx         01A0  8  00 42 00 00 00 FE 00 50 
   576)       483.4  Rx         01AC  8  AC 00 00 00 69 01 16 D2 
   577)       483.9  Rx         04A0  8  00 00 00 00 00 00 00 00 
   578)       484.4  Rx         04A8  8  06 80 00 10 00 00 00 96 
   579)       485.0  Rx         05A0  8  7C 00 00 02 00 00 10 AB 
   580)       485.8  Rx         0480  8  84 00 87 AE 19 00 06 B2 
   581)       486.0  Rx         0440  8  00 80 00 FE 80 00 00 00 
   582)       486.7  Rx         0588  8  1A 82 7E 84 00 00 00 00 
   583)       487.1  Rx         056A  8  21 00 08 00 1A 00 02 31 
   584)       488.7  Rx         0390  8  6A 40 51 00 00 00 20 00 
   585)       489.9  Rx         0540  8  00 00 FF 00 FE 00 10 2F 
   586)       490.7  Rx         0280  8  01 0D 98 0C 0F 00 33 0F 
   587)       491.1  Rx         0288  8  2C 67 10 04 00 50 8D 0F 
   588)       491.6  Rx         0380  8  00 53 00 47 20 00 00 0D 
   589)       492.1  Rx         0488  8  4A 1C 1C 7E FE FF 25 10 
   590)       492.5  Rx         05D0  8  C0 04 51 AF 29 48 01 00 
   591)       493.7  Rx         01A0  8  00 42 00 00 00 FE 00 51 
   592)       494.2  Rx         04A0  8  00 00 00 00 00 00 00 00 
   593)       494.5  Rx         038A  4  05 01 04 00 
   594)       495.9  Rx         0440  8  00 80 00 FE 80 00 08 00 
   595)       499.9  Rx         0540  8  10 00 FF 00 FE 00 10 2F 
   596)       505.9  Rx         0440  8  00 80 00 FE 80 00 10 00 
   597)       506.5  Rx         0280  8  01 0D 98 0C 0F 00 33 0F 
   598)       507.0  Rx         0288  8  2C 67 10 04 00 50 8D 0F 
   599)       507.3  Rx         0380  8  00 53 00 47 20 00 00 0D 
   600)       507.8  Rx         0488  8  19 1C 1C 7E FE FF 46 20 
   601)       508.3  Rx         05DC  8  77 18 C0 3F 1E 00 30 42 
   602)       509.2  Rx         01A0  8  00 42 00 00 00 FE 00 52 
   603)       509.8  Rx         01AC  8  AF 01 00 00 69 01 14 D2 
   604)       510.0  Rx         0540  8  20 00 FF 00 FE 00 10 2F 
   605)       510.3  Rx         04A0  8  00 00 00 00 00 00 00 00 
   606)       510.7  Rx         04A8  8  06 00 00 10 00 00 10 06 
   607)       511.5  Rx         05A0  8  7B 00 00 12 00 00 10 AB 
   608)       512.0  Rx         0480  8  84 00 91 AE 19 00 06 A4 
   609)       512.8  Rx         0588  8  1A 82 7E 80 00 00 00 00 
   610)       514.4  Rx         056A  8  51 00 08 00 1A 00 02 41 
   611)       515.9  Rx         0440  8  00 80 00 FE 80 00 18 00 
   612)       516.4  Rx         0280  8  01 0D 96 0C 0F 00 33 0F 
   613)       516.8  Rx         0288  8  2C 67 10 04 00 50 8D 0F 
   614)       517.2  Rx         0380  8  00 53 00 49 20 00 00 0D 
   615)       517.6  Rx         0488  8  47 1C 1C 7E FE FF 08 30 
   616)       518.5  Rx         01A0  8  00 42 00 00 00 FE 00 53 
   617)       519.0  Rx         04A0  8  00 00 00 00 00 00 00 00 
   618)       519.3  Rx         038A  4  15 01 14 00 
   619)       519.9  Rx         0540  8  30 00 FF 00 FE 00 10 26 
   620)       522.3  Rx         0280  8  01 0D 96 0C 0F 00 33 0F 
   621)       522.7  Rx         0288  8  64 67 10 04 00 50 8D 0F 
   622)       523.2  Rx         0380  8  00 53 00 49 20 00 00 0D 
   623)       523.7  Rx         0488  8  19 1C 1C 7E FE FF 26 40 
   624)       525.1  Rx         01A0  8  00 42 00 00 00 FE 00 54 
   625)       525.5  Rx         01AC  8  AE 02 00 00 69 01 16 D2 
   626)       526.0  Rx         0440  8  00 80 00 FE 80 00 20 00 
   627)       526.2  Rx         04A0  8  00 00 00 00 00 00 00 00 
   628)       526.8  Rx         04A8  8  00 00 00 10 00 00 20 30 
   629)       527.9  Rx         0480  8  84 00 9A AE 19 00 06 AF 
   630)       528.4  Rx         0588  8  1A 82 7E 00 00 00 00 00 
   631)       528.9  Rx         05A0  8  7C 00 00 22 00 00 10 AB 
   632)       529.3  Rx         056A  8  41 00 08 00 1A 00 02 51 
   633)       529.9  Rx         0540  8  40 00 FF 00 FE 00 10 26 
   634)       532.1  Rx         0280  8  01 0D 96 0C 0F 00 33 0F 
   635)       532.8  Rx         0288  8  64 67 10 04 00 50 8D 0F 
   636)       533.3  Rx         0380  8  00 53 00 49 20 00 00 0D 
   637)       533.8  Rx         0488  8  D0 1C 1C 7E FE FF FF 50 
   638)       534.9  Rx         01A0  8  00 42 00 00 00 FE 00 55 
   639)       535.3  Rx         04A0  8  00 00 00 00 00 00 00 00 
   640)       535.7  Rx         038A  4  25 01 24 00 
   641)       536.0  Rx         0440  8  00 80 00 FE 80 00 28 00 
   642)       539.9  Rx         0540  8  50 00 FF 00 FE 00 10 26 
   643)       540.1  Rx         0280  8  01 0D 96 0C 0F 00 33 0F 
   644)       540.5  Rx         0288  8  64 67 10 04 00 50 8D 0F 
   645)       541.0  Rx         0380  8  00 53 00 49 20 00 00 0D 
   646)       541.5  Rx         0488  8  E0 1C 1C 7E FE FF FF 60 
   647)       542.8  Rx         01A0  8  00 42 00 00 00 FE 00 56 
   648)       543.2  Rx         01AC  8  AC 03 00 00 69 01 15 D2 
   649)       543.7  Rx         04A0  8  00 00 00 00 00 00 00 00 
   650)       544.2  Rx         04A8  8  00 00 00 10 00 00 30 20 
   651)       545.1  Rx         05A0  8  7C 00 00 32 00 00 10 AB 
   652)       545.9  Rx         0440  8  00 80 00 FE 80 00 30 00 
   653)       546.2  Rx         0480  8  C2 00 A3 AE 19 00 06 D0 
   654)       547.5  Rx         056A  8  71 00 08 00 1A 00 02 61 
   655)       548.0  Rx         0588  8  1A 82 7E 00 00 00 00 00 
   656)       549.4  Rx         0280  8  01 0D 98 0C 0F 00 33 0F 
   657)       549.9  Rx         0540  8  60 00 FF 00 FE 00 10 26 
   658)       550.1  Rx         0288  8  64 67 10 04 00 50 8D 0F 
   659)       550.5  Rx         0380  8  00 53 00 49 20 00 00 0D 
   660)       551.3  Rx         0488  8  F0 1C 1C 7E FE FF FF 70 
   661)       552.2  Rx         01A0  8  00 42 00 00 00 FE 00 57 
   662)       552.6  Rx         04A0  8  00 00 00 00 00 00 00 00 
   663)       555.9  Rx         0440  8  00 80 00 FE 80 00 38 00 
   664)       559.9  Rx         0540  8  70 00 FF 00 FE 00 10 2F 
   665)       562.9  Rx         038A  4  35 01 34 00 
   666)       565.8  Rx         0280  8  01 0D 98 0C 0F 00 33 0F 
   667)       566.0  Rx         0440  8  00 80 00 FE 80 00 40 00 
   668)       566.3  Rx         0288  8  8A 67 10 04 00 50 8D 0F 
   669)       566.7  Rx         0380  8  00 53 00 49 20 00 00 0D 
   670)       567.1  Rx         0488  8  00 1C 1C 7E FE FF FF 80 
   671)       568.0  Rx         01A0  8  00 42 00 00 00 FE 00 58 
   672)       568.4  Rx         01AC  8  AA 04 00 00 69 01 14 D2 
   673)       568.9  Rx         04A0  8  00 00 00 00 00 00 00 00 
   674)       569.4  Rx         04A8  8  06 00 5A 10 00 00 40 0C 
   675)       569.9  Rx         0540  8  80 00 FF 00 FE 00 10 2F 
   676)       570.4  Rx         05A0  8  7C 00 00 42 00 00 10 AB 
   677)       570.9  Rx         0480  8  C2 00 AD AE 19 00 06 DE 
   678)       571.7  Rx         0588  8  1A 82 7E 00 00 00 00 00 
   679)       572.1  Rx         056A  8  61 00 08 00 1A 00 02 71 
   680)       575.5  Rx         0280  8  01 0D 98 0C 0F 00 33 0F 
   681)       575.9  Rx         0440  8  00 80 00 FE 80 00 48 00 
   682)       576.1  Rx         0288  8  8A 67 10 04 00 50 8D 0F 
   683)       576.5  Rx         0380  8  00 53 00 49 20 00 00 0D 
   684)       576.9  Rx         0488  8  10 1C 1C 7E FE FF FF 90 
   685)       578.2  Rx         01A0  8  00 42 00 00 00 FE 00 59 
   686)       578.6  Rx         04A0  8  00 00 00 00 00 00 00 00 
   687)       578.9  Rx         038A  4  45 01 44 00 
   688)       579.9  Rx         0540  8  90 00 FF 00 FE 00 10 2F 
   689)       581.8  Rx         0280  8  01 0D 9D 0C 0F 00 33 0F 
   690)       582.4  Rx         0288  8  8A 67 10 04 00 50 8D 0F 
   691)       582.8  Rx         0380  8  00 53 00 49 20 00 00 0D 
   692)       583.3  Rx         0488  8  20 1C 1C 7E FE FF FF A0 
   693)       585.2  Rx         01A0  8  00 42 00 00 00 FE 00 5A 
   694)       585.6  Rx         01AC  8  2B 85 00 00 69 01 14 D2 
   695)       585.9  Rx         0440  8  00 80 00 FE 80 00 50 00 
   696)       586.2  Rx         04A0  8  00 00 00 00 00 00 00 00 
   697)       586.5  Rx         04A8  8  19 00 9D 10 00 00 50 C4 
   698)       587.3  Rx         05A0  8  7B 00 00 52 00 00 10 AB 
   699)       588.2  Rx         0480  8  C2 00 B6 AE 19 00 06 C5 
   700)       588.6  Rx         0588  8  1A 82 7E 01 00 00 00 00 
   701)       589.1  Rx         056A  8  91 00 08 00 1A 00 02 81 
   702)       589.9  Rx         0540  8  A0 00 FF 00 FE 00 10 2F 
   703)       590.9  Rx         0390  8  6A 40 51 00 00 00 20 00 
   704)       592.3  Rx         0280  8  01 0D 9D 0C 0F 00 33 0F 
   705)       592.7  Rx         0288  8  8A 67 10 04 00 50 8D 0F 
   706)       593.2  Rx         0380  8  00 53 00 49 20 00 00 0D 
   707)       593.6  Rx         05D0  8  C0 04 51 AF 29 48 01 00 
   708)       594.1  Rx         0488  8  30 1C 1C 7E FE FF FF B0 
   709)       595.9  Rx         01A0  8  00 42 00 00 00 FE 00 5B 
   710)       596.1  Rx         0440  8  00 80 00 FE 80 00 58 00 
   711)       596.4  Rx         04A0  8  00 00 00 00 00 00 00 00 
   712)       596.7  Rx         038A  4  55 01 54 00 
   713)       599.2  Rx         0280  8  01 0D 9D 0C 0F 00 33 0F 
   714)       599.8  Rx         0288  8  E8 67 10 04 00 50 8D 0F 
   715)       600.1  Rx         0540  8  B0 00 FF 00 FE 00 10 26 
   716)       600.4  Rx         0380  8  00 53 00 49 20 00 00 0D 
   717)       600.8  Rx         05DC  8  77 18 C0 3F 1E 00 30 42 
   718)       601.3  Rx         0488  8  40 1C 1C 7E FE FF FF C0 
   719)       602.3  Rx         01A0  8  00 42 00 00 00 FE 00 5C 
   720)       602.7  Rx         01AC  8  28 86 00 00 69 01 14 D2 
   721)       603.2  Rx         04A0  8  00 00 00 00 00 00 00 00 
   722)       603.6  Rx         04A8  8  0C 80 D7 10 00 00 60 2B 
   723)       604.7  Rx         05A0  8  7C 00 00 62 00 00 10 AB 
   724)       605.1  Rx         0480  8  C2 00 BF AE 19 00 06 CC 
   725)       605.9  Rx         0440  8  00 80 00 FE 80 00 60 00 
   726)       606.1  Rx         0588  8  1A 84 7E 00 00 00 00 00 
   727)       606.4  Rx         056A  8  81 00 08 00 1A 00 02 91 
   728)       609.0  Rx         0280  8  01 0D 9D 0C 0F 00 33 0F 
   729)       609.4  Rx         0288  8  E8 67 10 04 00 50 8D 0F 
   730)       609.9  Rx         0540  8  C0 00 FF 00 FE 00 10 26 
   731)       610.1  Rx         0380  8  00 53 00 48 20 00 00 0D 
   732)       610.5  Rx         0488  8  50 1C 1C 7E FE FF FF D0 
   733)       611.8  Rx         01A0  8  00 42 00 00 00 FE 00 5D 
   734)       612.3  Rx         04A0  8  00 00 00 00 00 00 00 00 
   735)       615.8  Rx         0440  8  00 80 00 FE 80 00 68 00 
   736)       619.8  Rx         0540  8  D0 00 FF 00 FE 00 10 26 
   737)       622.0  Rx         038A  4  65 01 64 00 
   738)       625.2  Rx         0280  8  01 0D 94 0C 0F 00 33 0F 
   739)       625.7  Rx         0288  8  E8 67 10 04 00 50 8D 0F 
   740)       625.9  Rx         0440  8  00 80 00 FE 80 00 70 00 
   741)       626.2  Rx         0380  8  00 53 00 48 20 00 00 0D 
   742)       626.6  Rx         0488  8  60 1C 1C 7E FE FF FF E0 
   743)       627.4  Rx         01A0  8  00 42 00 00 00 FE 00 5E 
   744)       627.9  Rx         01AC  8  2B 87 00 00 69 01 16 D2 
   745)       628.4  Rx         04A0  8  00 00 00 00 00 00 00 00 
   746)       628.7  Rx         04A8  8  12 00 FA 10 00 00 70 88 
   747)       629.8  Rx         0480  8  1C 00 C8 AE 19 00 06 65 
   748)       630.0  Rx         0540  8  E0 00 FF 00 FE 00 10 26 
   749)       630.6  Rx         0588  8  1A 84 7E 82 00 00 00 00 
   750)       631.4  Rx         056A  8  B1 00 08 00 1A 00 02 A1 
   751)       633.0  Rx         05A0  8  7B 00 00 72 00 00 10 AB 
   752)       634.5  Rx         0280  8  01 0D 94 0C 0F 00 33 0F 
   753)       635.1  Rx         0288  8  E8 67 11 04 00 50 8D 0F 
   754)       635.6  Rx         0380  8  00 53 00 48 20 00 00 0D 
   755)       635.9  Rx         0440  8  00 80 00 FE 80 00 78 00 
   756)       636.1  Rx         0488  8  70 1C 1C 7E FE FF FF F0 
   757)       637.0  Rx         01A0  8  00 42 00 00 00 FE 00 5F 
   758)       637.4  Rx         04A0  8  00 00 00 00 00 00 00 00 
   759)       638.1  Rx         038A  4  75 01 74 00 
   760)       639.9  Rx         0540  8  F0 00 FF 00 FE 00 10 2F 
   761)       644.0  Rx         0280  8  01 0D 94 0C 0F 00 33 0F 
   762)       644.7  Rx         0288  8  2C 67 11 04 00 50 8D 0F 
   763)       645.1  Rx         0380  8  00 53 00 48 20 00 00 0D 
   764)       645.8  Rx         0488  8  41 1C 1C 7E FE FF 3E 00 
   765)       646.0  Rx         0440  8  00 80 00 FE 80 00 00 00 
   766)       646.7  Rx         01A0  8  00 42 00 00 00 FE 00 50 
   767)       647.2  Rx         01AC  8  21 88 00 00 69 01 13 D2 
   768)       647.7  Rx         04A0  8  00 00 00 00 00 00 00 00 
   769)       648.7  Rx         04A8  8  0C 00 1D 11 00 00 80 80 
   770)       649.1  Rx         05A0  8  7C 00 00 82 00 00 10 AB 
   771)       649.8  Rx         0480  8  1C 00 D2 AE 19 00 06 7F 
   772)       650.0  Rx         0540  8  00 00 FF 00 FE 00 00 2F 
   773)       650.7  Rx         0588  8  1A 84 7E 00 00 00 00 00 
   774)       651.1  Rx         056A  8  A1 00 08 00 1A 00 02 B1 
   775)       653.6  Rx         0280  8  01 0D 94 0C 0F 00 33 0F 
   776)       654.1  Rx         0288  8  2C 67 11 04 00 50 8D 0F 
   777)       654.7  Rx         0380  8  00 53 00 49 20 00 00 0D 
   778)       655.1  Rx         0488  8  4A 1C 1C 7E FE FF 25 10 
   779)       655.9  Rx         0440  8  00 80 00 FE 80 00 08 00 
   780)       656.3  Rx         01A0  8  00 42 00 00 00 FE 00 51 
   781)       656.8  Rx         04A0  8  00 00 00 00 00 00 00 00 
   782)       657.4  Rx         038A  4  85 01 84 00 
   783)       659.8  Rx         0540  8  10 00 FF 00 FE 00 00 2F 
   784)       660.3  Rx         0280  8  01 0D A2 0C 0F 00 33 0F 
   785)       660.7  Rx         0288  8  2C 67 11 04 00 50 8D 0F 
   786)       661.2  Rx         0380  8  00 53 00 49 20 00 00 0D 
   787)       661.7  Rx         0488  8  19 1C 1C 7E FE FF 46 20 
   788)       662.6  Rx         01A0  8  00 42 00 00 00 FE 00 52 
   789)       663.1  Rx         01AC  8  25 89 00 00 69 01 16 D2 
   790)       663.6  Rx         04A0  8  00 00 00 00 00 00 00 00 
   791)       664.1  Rx         04A8  8  00 00 42 11 00 00 90 C3 
   792)       665.4  Rx         0480  8  1C 00 DB AE 19 00 06 76 
   793)       665.9  Rx         0440  8  00 80 00 FE 80 00 10 00 
   794)       666.1  Rx         0588  8  1A 84 7E 03 00 00 00 00 
   795)       666.4  Rx         056A  8  D1 00 08 00 1A 00 02 C1 
   796)       666.8  Rx         05A0  8  7C 00 00 92 00 00 10 AB 
   797)       669.8  Rx         0540  8  20 00 FF 00 FE 00 00 2F 
   798)       670.1  Rx         0280  8  01 0D A2 0C 0F 00 33 0F 
   799)       670.4  Rx         0288  8  2C 67 11 04 00 50 8D 0F 
   800)       670.8  Rx         0380  8  00 53 00 49 20 00 00 0D 
   801)       671.2  Rx         0488  8  47 1C 1C 7E FE FF 08 30 
   802)       672.2  Rx         01A0  8  00 42 00 00 00 FE 00 53 
   803)       672.6  Rx         04A0  8  00 00 00 00 00 00 00 00 
   804)       675.8  Rx         0440  8  00 80 00 FE 80 00 18 00 
   805)       679.8  Rx         0540  8  30 00 FF 00 FE 00 00 26 
   806)       682.8  Rx         038A  4  95 01 94 00 
   807)       685.7  Rx         0280  8  01 0D A2 0C 0F 00 33 0F 
   808)       685.9  Rx         0440  8  00 80 00 FE 80 00 20 00 
   809)       686.2  Rx         0288  8  64 67 11 04 00 50 8D 0F 
   810)       686.7  Rx         0380  8  00 53 00 49 20 00 00 0D 
   811)       687.4  Rx         0520  8  02 02 00 93 7A 57 33 03 
   812)       687.9  Rx         0488  8  19 1C 1C 7E FE FF 26 40 
   813)       688.7  Rx         01A0  8  00 42 00 00 00 FE 00 54 
   814)       689.2  Rx         01AC  8  24 8A 00 00 69 01 14 D2 
   815)       689.8  Rx         04A0  8  00 00 00 00 00 00 00 00 
   816)       690.0  Rx         0540  8  40 00 FF 00 FE 00 00 26 
   817)       690.4  Rx         04A8  8  00 00 72 11 00 00 A0 C3 
   818)       690.8  Rx         05A0  8  7C 00 00 A2 00 00 10 AB 
   819)       691.6  Rx         0480  8  1C 00 E4 AE 19 00 06 49 
   820)       692.5  Rx         0588  8  1A 84 7E 00 00 00 00 00 
   821)       692.9  Rx         056A  8  C1 00 08 00 1A 00 02 D1 
   822)       694.5  Rx         0390  8  6A 40 51 00 00 00 20 00 
   823)       695.8  Rx         0440  8  00 80 00 FE 80 00 28 00 
   824)       696.1  Rx         0280  8  01 0D A5 0C 0F 00 33 0F 
   825)       696.5  Rx         0288  8  64 67 11 04 00 50 8D 0F 
   826)       697.0  Rx         0380  8  00 53 00 48 20 00 00 0D 
   827)       697.3  Rx         05D0  8  C0 04 51 AF 29 48 01 00 
   828)       697.8  Rx         0488  8  D0 1C 1C 7E FE FF FF 50 
   829)       699.1  Rx         01A0  8  00 4A 00 00 00 FE 00 55 
   830)       699.7  Rx         04A0  8  00 00 00 00 00 00 00 00 
   831)       700.0  Rx         0540  8  50 00 FF 00 FE 00 00 26 
   832)       700.5  Rx         038A  4  A5 01 A4 00 
   833)       703.2  Rx         0280  8  01 0D A5 0C 0F 00 33 0F 
   834)       703.7  Rx         0288  8  64 67 13 04 00 50 8D 0F 
   835)       704.3  Rx         0380  8  00 53 00 48 20 00 00 0D 
   836)       704.8  Rx         05DC  8  77 18 C0 3F 1E 00 30 42 
   837)       705.2  Rx         0488  8  E0 1C 1C 7E FE FF FF 60 
   838)       705.9  Rx         0440  8  00 80 00 FE 80 00 30 00 
   839)       706.2  Rx         01A0  8  00 4A 00 00 00 FE 00 56 
   840)       706.6  Rx         01AC  8  27 8B 00 00 69 01 16 D2 
   841)       707.0  Rx         04A0  8  00 00 00 00 00 00 00 00 
   842)       707.4  Rx         04A8  8  00 00 9A 11 00 00 B0 3B 
   843)       708.6  Rx         0480  8  54 00 EA AE 19 00 06 0F 
   844)       709.1  Rx         0588  8  1A 87 7E 00 00 00 00 00 
   845)       709.7  Rx         056A  8  F1 00 08 00 1A 00 02 E1 
   846)       709.9  Rx         0540  8  60 00 FF 00 FE 00 00 26 
   847)       710.2  Rx         05A0  8  7C 00 00 B2 00 00 10 AB 
   848)       712.7  Rx         0280  8  01 0D A5 0C 0F 00 33 0F 
   849)       713.2  Rx         0288  8  64 67 13 04 00 50 8D 0F 
   850)       713.6  Rx         0380  8  00 53 00 47 20 00 00 0D 
   851)       714.1  Rx         0488  8  F0 1C 1C 7E FE FF FF 70 
   852)       715.1  Rx         01A0  8  00 4A 00 00 00 FE 00 57 
   853)       715.6  Rx         04A0  8  00 00 00 00 00 00 00 00 
   854)       715.8  Rx         0440  8  00 80 00 FE 80 00 38 00 
   855)       716.3  Rx         038A  4  B5 01 B4 00 
   856)       719.8  Rx         0540  8  70 00 FF 00 FE 00 00 2F 
   857)       725.8  Rx         0440  8  00 80 00 FE 80 00 40 00 
   858)       728.0  Rx         0280  8  01 0D A5 0C 0F 00 33 0F 
   859)       728.4  Rx         0288  8  8A 67 13 04 00 50 8D 0F 
   860)       728.9  Rx         0380  8  00 53 00 47 20 00 00 0D 
   861)       729.3  Rx         0488  8  00 1C 1C 7E FE FF FF 80 
   862)       729.8  Rx         0540  8  80 00 FF 00 FE 00 00 2F 
   863)       730.5  Rx         01A0  8  00 4A 00 00 00 FE 00 58 
   864)       730.9  Rx         01AC  8  22 8C 00 00 69 01 14 D2 
   865)       731.3  Rx         04A0  8  00 00 00 00 00 00 00 00 
   866)       731.8  Rx         04A8  8  00 00 BA 11 00 00 C0 6B 
   867)       732.5  Rx         05A0  8  7B 00 00 C2 00 00 10 AB 
   868)       733.4  Rx         0480  8  54 00 F1 AE 19 00 06 14 
   869)       734.3  Rx         0588  8  1A 87 7E 00 00 00 00 00 
   870)       735.8  Rx         0440  8  00 80 00 FE 80 00 48 00 
   871)       736.1  Rx         056A  8  E1 00 08 00 1A 00 02 F1 
   872)       737.5  Rx         0280  8  01 0D 98 0C 0F 00 33 0F 
   873)       737.9  Rx         0288  8  8A 67 13 04 00 50 8D 0F 
   874)       738.4  Rx         0380  8  00 53 00 47 20 00 00 0D 
   875)       738.7  Rx         07D0  8  CC 57 33 73 B9 35 18 0A 
   876)       739.2  Rx         0488  8  10 1C 1C 7E FE FF FF 90 
   877)       739.8  Rx         0540  8  90 00 FF 00 FE 00 00 2F 
   878)       740.4  Rx         01A0  8  00 4A 00 00 00 FE 00 59 
   879)       740.8  Rx         04A0  8  00 00 00 00 00 00 00 00 
   880)       743.1  Rx         038A  4  C5 01 C4 00 
   881)       745.6  Rx         0280  8  01 0D 98 0C 0F 00 33 0F 
   882)       745.9  Rx         0440  8  00 80 00 FE 80 00 50 00 
   883)       746.1  Rx         0288  8  8A 67 13 04 00 50 8D 0F 
   884)       746.6  Rx         0380  8  00 53 00 47 20 00 00 0D 
   885)       746.9  Rx         0488  8  20 1C 1C 7E FE FF FF A0 
   886)       747.8  Rx         01A0  8  00 4A 00 00 00 FE 00 5A 
   887)       748.3  Rx         01AC  8  22 8D 00 00 69 01 15 D2 
   888)       748.7  Rx         04A0  8  00 00 00 00 00 00 00 00 
   889)       749.1  Rx         04A8  8  19 00 D6 11 00 00 D0 0E 
   890)       749.8  Rx         0540  8  A0 00 FF 00 FE 00 00 2F 
   891)       750.2  Rx         05A0  8  7C 00 00 D2 00 00 10 AB 
   892)       750.9  Rx         0480  8  54 00 F7 AE 19 00 06 12 
   893)       753.1  Rx         056A  8  11 00 08 00 1A 00 02 01 
   894)       753.6  Rx         0588  8  1A 87 7E 83 00 00 00 00 
   895)       755.7  Rx         0440  8  00 80 00 FE 80 00 58 00 
   896)       756.0  Rx         0280  8  01 0D 98 0C 0F 00 33 0F 
   897)       756.3  Rx         0288  8  8A 67 13 04 00 50 8D 0F 
   898)       756.8  Rx         0380  8  00 53 00 47 20 00 00 0D 
   899)       757.2  Rx         0488  8  30 1C 1C 7E FE FF FF B0 
   900)       758.1  Rx         01A0  8  00 4A 00 00 00 FE 00 5B 
   901)       758.5  Rx         04A0  8  00 00 00 00 00 00 00 00 
   902)       758.8  Rx         038A  4  D5 01 D4 00 
   903)       759.8  Rx         0540  8  B0 00 FF 00 FE 00 00 26 
   904)       762.1  Rx         0280  8  01 0D 98 0C 0F 00 33 0F 
   905)       762.6  Rx         0288  8  E8 67 13 04 00 50 8D 0F 
   906)       763.0  Rx         0380  8  00 53 00 47 20 00 00 0D 
   907)       763.6  Rx         0488  8  40 1C 1C 7E FE FF FF C0 
   908)       764.7  Rx         01A0  8  00 4A 00 00 00 FE 00 5C 
   909)       765.1  Rx         01AC  8  20 8E 00 00 69 01 14 D2 
   910)       765.6  Rx         04A0  8  00 00 00 00 00 00 00 00 
   911)       765.8  Rx         0440  8  00 80 00 FE 80 00 60 00 
   912)       766.1  Rx         04A8  8  06 00 F6 11 00 00 E0 01 
   913)       766.8  Rx         05A0  8  7B 00 00 E2 00 00 10 AB 
   914)       767.2  Rx         0480  8  54 00 FD AE 19 00 06 18 
   915)       768.1  Rx         0588  8  1A 87 7E 00 00 00 00 00 
   916)       769.8  Rx         0540  8  C0 00 FF 00 FE 00 00 26 
   917)       770.0  Rx         056A  8  01 00 08 00 1A 00 02 11 
   918)       771.7  Rx         0280  8  01 0D 98 0C 0F 00 33 0F 
   919)       772.1  Rx         0288  8  E8 67 13 04 00 50 8D 0F 
   920)       772.6  Rx         0380  8  00 53 00 48 20 00 00 0D 
   921)       773.3  Rx         0488  8  50 1C 1C 7E FE FF FF D0 
   922)       773.9  Rx         01A0  8  00 4A 00 00 00 FE 00 5D 
   923)       774.3  Rx         04A0  8  00 00 00 00 00 00 00 00 
   924)       775.2  Rx         038A  4  E5 01 E4 00 
   925)       775.8  Rx         0440  8  00 80 00 FE 80 00 68 00 
   926)       779.7  Rx         0540  8  D0 00 FF 00 FE 00 00 26 
   927)       785.8  Rx         0440  8  00 80 00 FE 80 00 70 00 
   928)       788.0  Rx         0280  8  01 0D 98 0C 0F 00 33 0F 
   929)       788.4  Rx         0288  8  E8 67 13 04 00 50 8D 0F 
   930)       788.8  Rx         0380  8  00 53 00 48 20 00 00 0D 
   931)       789.8  Rx         0540  8  E0 00 FF 00 FE 00 00 26 
   932)       790.7  Rx         0488  8  60 1C 1C 7E FE FF FF E0 
   933)       791.2  Rx         01A0  8  00 4A 00 00 00 FE 00 5E 
   934)       791.6  Rx         01AC  8  23 8F 00 00 69 01 16 D2 
   935)       792.1  Rx         04A0  8  00 00 00 00 00 00 00 00 
   936)       792.5  Rx         04A8  8  0C 80 1C 12 00 00 F0 72 
   937)       792.9  Rx         05A0  8  7C 00 00 F2 00 00 10 AB 
   938)       793.8  Rx         0480  8  84 00 03 AF 19 00 06 37 
   939)       794.8  Rx         0588  8  1A 88 7E 00 00 00 00 00 
   940)       795.8  Rx         0440  8  00 80 00 FE 80 00 78 00 
   941)       796.4  Rx         056A  8  31 00 08 00 1A 00 02 21 
   942)       796.9  Rx         0390  8  6A 40 51 00 00 00 20 00 
   943)       798.6  Rx         0280  8  01 0D 98 0C 0F 00 33 0F 
   944)       799.0  Rx         0288  8  E8 67 13 04 00 50 8D 0F 
   945)       799.7  Rx         0380  8  00 53 00 48 20 00 00 0D 
   946)       800.0  Rx         0540  8  F0 00 FF 00 FE 00 00 2F 
   947)       800.2  Rx         05D0  8  C0 04 51 AF 29 48 01 00 
   948)       801.1  Rx         0488  8  70 1C 1C 7E FE FF FF F0 
   949)       801.6  Rx         01A0  8  00 4A 00 00 00 FE 00 5F 
   950)       802.1  Rx         04A0  8  00 00 00 00 00 00 00 00 
   951)       802.5  Rx         038A  4  F5 01 F4 00 
   952)       805.8  Rx         0440  8  00 80 00 FE 80 00 00 00 
   953)       806.4  Rx         0280  8  01 0D 98 0C 0F 00 33 0F 
   954)       806.8  Rx         0288  8  2C 67 13 04 00 50 8D 0F 
   955)       807.3  Rx         0380  8  00 53 00 48 20 00 00 0D 
   956)       807.7  Rx         05DC  8  77 18 C0 3F 1E 00 30 42 
   957)       808.2  Rx         0488  8  41 1C 1C 7E FE FF 3E 00 
   958)       809.0  Rx         01A0  8  00 4A 00 00 00 FE 00 50 
   959)       809.6  Rx         01AC  8  2E 80 00 00 69 01 14 D2 
   960)       809.9  Rx         0540  8  00 00 FF 00 FE 00 00 2F 
   961)       810.2  Rx         04A0  8  00 00 00 00 00 00 00 00 
   962)       810.6  Rx         04A8  8  00 00 41 12 00 00 00 53 
   963)       811.4  Rx         05A0  8  7B 00 00 02 00 00 10 AB 
   964)       811.9  Rx         0480  8  84 00 0D AF 19 00 06 39 
   965)       812.7  Rx         0588  8  1A 88 7E 03 00 00 00 00 
   966)       814.3  Rx         056A  8  21 00 08 00 1A 00 02 31 
   967)       815.7  Rx         0440  8  00 80 00 FE 80 00 08 00 
   968)       816.0  Rx         0280  8  01 0D A5 0C 0F 00 33 0F 
   969)       816.3  Rx         0288  8  2C 67 13 04 00 50 8D 0F 
   970)       816.8  Rx         0380  8  00 53 00 48 20 00 00 0D 
   971)       817.2  Rx         0488  8  4A 1C 1C 7E FE FF 25 10 
   972)       818.1  Rx         01A0  8  00 4A 00 00 00 FE 00 51 
   973)       818.5  Rx         04A0  8  00 00 00 00 00 00 00 00 
   974)       818.8  Rx         038A  4  05 01 04 00 
   975)       819.8  Rx         0540  8  10 00 FF 00 FE 00 00 2F 
   976)       822.2  Rx         0280  8  01 0D A5 0C 0F 00 33 0F 
   977)       822.7  Rx         0288  8  2C 67 13 04 00 50 8D 0F 
   978)       823.1  Rx         0380  8  00 53 00 48 20 00 00 0D 
   979)       824.1  Rx         0488  8  19 1C 1C 7E FE FF 46 20 
   980)       825.1  Rx         01A0  8  00 4A 00 00 00 FE 00 52 
   981)       825.5  Rx         01AC  8  2F 81 00 00 69 01 14 D2 
   982)       825.8  Rx         0440  8  00 80 00 FE 80 00 10 00 
   983)       826.1  Rx         04A0  8  00 00 00 00 00 00 00 00 
   984)       826.8  Rx         04A8  8  06 00 69 12 00 00 10 6D 
   985)       827.5  Rx         05A0  8  7B 00 00 12 00 00 10 AB 
   986)       829.6  Rx         0480  8  84 00 16 AF 19 00 06 22 
   987)       829.9  Rx         0540  8  20 00 FF 00 FE 00 00 2F 
   988)       830.2  Rx         056A  8  51 00 08 00 1A 00 02 41 
   989)       830.6  Rx         0588  8  1A 88 7E 00 00 00 00 00 
   990)       832.0  Rx         0280  8  01 0D A5 0C 0F 00 33 0F 
   991)       832.5  Rx         0288  8  2C 67 13 04 00 50 8D 0F 
   992)       832.9  Rx         0380  8  00 53 00 47 20 00 00 0D 
   993)       833.3  Rx         0488  8  47 1C 1C 7E FE FF 08 30 
   994)       834.3  Rx         01A0  8  00 4A 00 00 00 FE 00 53 
   995)       834.9  Rx         04A0  8  00 00 00 00 00 00 00 00 
   996)       835.7  Rx         0440  8  00 80 00 FE 80 00 18 00 
   997)       836.8  Rx         038A  4  15 01 14 00 
   998)       839.7  Rx         0540  8  30 00 FF 00 FE 00 00 26 
   999)       845.7  Rx         0440  8  00 80 00 FE 80 00 20 00 
  1000)       849.7  Rx         0540  8  40 00 FF 00 FE 00 00 26 
  1001)       850.2  Rx         0280  8  01 0D A2 0C 0F 00 33 0F 
  1002)       850.6  Rx         0288  8  64 67 13 04 00 50 8D 0E 
  1003)       851.1  Rx         0380  8  00 53 00 47 20 00 00 0D 
  1004)       852.0  Rx         0488  8  19 1C 1C 7E FE FF 26 40 
  1005)       852.4  Rx         01A0  8  00 4A 00 00 00 FE 00 54 
  1006)       852.8  Rx         01AC  8  2C 82 00 00 69 01 14 D2 
  1007)       853.3  Rx         04A0  8  00 00 00 00 00 00 00 00 
  1008)       853.7  Rx         04A8  8  06 00 96 12 00 00 20 A2 
  1009)       854.7  Rx         05A0  8  7C 00 00 22 00 00 10 AB 
  1010)       855.1  Rx         0480  8  84 00 1F AF 19 00 06 2B 
  1011)       855.7  Rx         0440  8  00 80 00 FE 80 00 28 00 
  1012)       856.1  Rx         0588  8  1A 88 7E 80 00 00 00 00 
  1013)       857.6  Rx         056A  8  41 00 08 00 1A 00 02 51 
  1014)       859.0  Rx         0280  8  01 0D A2 0C 0F 00 33 0F 
  1015)       859.7  Rx         0288  8  64 67 13 04 00 50 8D 0E 
  1016)       859.9  Rx         0540  8  50 00 FF 00 FE 00 00 26 
  1017)       860.2  Rx         0380  8  00 53 00 47 20 00 00 0D 
  1018)       861.1  Rx         0488  8  D0 1C 1C 7E FE FF FF 50 
  1019)       861.6  Rx         01A0  8  00 4A 00 00 00 FE 00 55 
  1020)       862.1  Rx         04A0  8  00 00 00 00 00 00 00 00 
  1021)       862.4  Rx         038A  4  25 01 24 00 
  1022)       865.7  Rx         0280  8  01 0D A2 0C 0F 00 33 0F 
  1023)       865.9  Rx         0440  8  00 80 00 FE 80 00 30 00 
  1024)       866.2  Rx         0288  8  64 67 13 04 00 50 8D 0E 
  1025)       866.6  Rx         0380  8  00 53 00 47 20 00 00 0D 
  1026)       867.0  Rx         0488  8  E0 1C 1C 7E FE FF FF 60 
  1027)       867.9  Rx         01A0  8  00 4A 00 00 00 FE 00 56 
  1028)       868.3  Rx         01AC  8  2D 83 00 00 69 01 14 D2 
  1029)       868.8  Rx         04A0  8  00 00 00 00 00 00 00 00 
  1030)       869.2  Rx         04A8  8  06 80 B2 12 00 00 30 16 
  1031)       869.7  Rx         0540  8  60 00 FF 00 FE 00 00 26 
  1032)       870.3  Rx         05A0  8  7C 00 00 32 00 00 10 AB 
  1033)       872.3  Rx         0480  8  C2 00 29 AF 19 00 06 5B 
  1034)       872.7  Rx         0588  8  1A 88 7E 00 00 00 00 00 
  1035)       873.1  Rx         056A  8  71 00 08 00 1A 00 02 61 
  1036)       875.5  Rx         0280  8  01 0D A2 0C 0F 00 33 0F 
  1037)       875.8  Rx         0440  8  00 80 00 FE 80 00 38 00 
  1038)       876.0  Rx         0288  8  64 67 13 04 00 50 8D 0E 
  1039)       876.4  Rx         0380  8  00 53 00 47 20 00 00 0D 
  1040)       877.3  Rx         0488  8  F0 1C 1C 7E FE FF FF 70 
  1041)       877.8  Rx         01A0  8  00 4A 00 00 00 FE 00 57 
  1042)       878.2  Rx         04A0  8  00 00 00 00 00 00 00 00 
  1043)       878.5  Rx         038A  4  35 01 34 00 
  1044)       879.7  Rx         0540  8  70 00 FF 00 FE 00 00 2F 
  1045)       881.9  Rx         0280  8  01 0D 94 0C 0F 00 33 0F 
  1046)       882.3  Rx         0288  8  8A 67 13 04 00 50 8D 0E 
  1047)       882.8  Rx         0380  8  00 53 00 47 20 00 00 0D 
  1048)       884.1  Rx         0520  8  60 44 00 93 7A 57 33 03 
  1049)       884.8  Rx         0488  8  00 1C 1C 7E FE FF FF 80 
  1050)       885.3  Rx         01A0  8  00 4A 00 00 00 FE 00 58 
  1051)       885.8  Rx         0440  8  00 80 00 FE 80 00 40 00 
  1052)       886.0  Rx         01AC  8  28 84 00 00 69 01 16 D2 
  1053)       886.3  Rx         04A0  8  00 00 00 00 00 00 00 00 
  1054)       886.7  Rx         04A8  8  06 80 D5 12 00 00 40 01 
  1055)       887.5  Rx         05A0  8  7B 00 00 42 00 00 10 AB 
  1056)       889.7  Rx         0540  8  80 00 FF 00 FE 00 00 2F 
  1057)       890.5  Rx         0390  8  6A 40 51 00 00 00 20 00 
  1058)       891.7  Rx         0480  8  C2 00 32 AF 19 00 06 40 
  1059)       892.1  Rx         056A  8  61 00 08 00 1A 00 02 71 
  1060)       892.6  Rx         0588  8  1A 88 7E 83 00 00 00 00 
  1061)       894.0  Rx         0280  8  01 0D 94 0C 0F 00 33 0F 
  1062)       894.6  Rx         0288  8  8A 67 13 04 00 50 8D 0E 
  1063)       895.0  Rx         0380  8  00 53 00 47 20 00 00 0D 
  1064)       895.5  Rx         05D0  8  C0 04 51 AF 29 48 01 00 
  1065)       895.7  Rx         0440  8  00 80 00 FE 80 00 48 00 
  1066)       896.4  Rx         0488  8  10 1C 1C 7E FE FF FF 90 
  1067)       897.2  Rx         01A0  8  00 4A 00 00 00 FE 00 59 
  1068)       897.6  Rx         04A0  8  00 00 00 00 00 00 00 00 
  1069)       898.0  Rx         038A  4  45 01 44 00 
  1070)       899.7  Rx         0540  8  90 00 FF 00 FE 00 00 2F 
  1071)       901.2  Rx         0280  8  01 0D 94 0C 0F 00 33 0F 
  1072)       901.7  Rx         0288  8  8A 67 13 04 00 50 8D 0E 
  1073)       902.2  Rx         0380  8  00 53 00 47 20 00 00 0D 
  1074)       902.6  Rx         05DC  8  77 18 C0 3F 1E 00 30 42 
  1075)       903.6  Rx         0488  8  20 1C 1C 7E FE FF FF A0 
  1076)       904.1  Rx         01A0  8  00 4A 00 00 00 FE 00 5A 
  1077)       904.7  Rx         01AC  8  2A 85 00 00 69 01 15 D2 
  1078)       905.1  Rx         04A0  8  00 00 00 00 00 00 00 00 
  1079)       905.5  Rx         04A8  8  19 00 F5 12 00 00 50 AE 
  1080)       905.8  Rx         0440  8  00 80 00 FE 80 00 50 00 
  1081)       906.0  Rx         05A0  8  7C 00 00 52 00 00 10 AB 
  1082)       908.3  Rx         0480  8  C2 00 3B AF 19 00 06 49 
  1083)       908.7  Rx         0588  8  1A 88 7E 00 00 00 00 00 
  1084)       909.1  Rx         056A  8  91 00 08 00 1A 00 02 81 
  1085)       909.6  Rx         0540  8  A0 00 FF 00 FE 00 00 2F 
  1086)       910.8  Rx         0280  8  01 0D 94 0C 0F 00 33 0F 
  1087)       911.3  Rx         0288  8  8A 67 13 04 00 50 8D 0E 
  1088)       911.7  Rx         0380  8  00 53 00 49 20 00 00 0D 
  1089)       912.6  Rx         0488  8  30 1C 1C 7E FE FF FF B0 
  1090)       913.0  Rx         01A0  8  00 4A 00 00 00 FE 00 5B 
  1091)       913.5  Rx         04A0  8  00 00 00 00 00 00 00 00 
  1092)       913.8  Rx         038A  4  55 01 54 00 
  1093)       915.7  Rx         0440  8  00 80 00 FE 80 00 58 00 
  1094)       919.7  Rx         0540  8  B0 00 FF 00 FE 00 00 26 
  1095)       925.7  Rx         0440  8  00 80 00 FE 80 00 60 00 
  1096)       926.6  Rx         0280  8  01 0D 82 0C 0F 00 33 0F 
  1097)       927.0  Rx         0288  8  E8 67 13 04 00 50 8D 0E 
  1098)       927.5  Rx         0380  8  00 53 00 49 20 00 00 0D 
  1099)       928.3  Rx         0488  8  40 1C 1C 7E FE FF FF C0 
  1100)       928.7  Rx         01A0  8  00 4A 00 00 00 FE 00 5C 
  1101)       929.1  Rx         01AC  8  2A 86 00 00 69 01 16 D2 
  1102)       929.7  Rx         0540  8  C0 00 FF 00 FE 00 00 26 
  1103)       930.0  Rx         04A0  8  00 00 00 00 00 00 00 00 
  1104)       930.3  Rx         04A8  8  00 00 13 13 00 00 60 60 
  1105)       930.8  Rx         05A0  8  7B 00 00 62 00 00 10 AB 
  1106)       931.9  Rx         0480  8  C2 00 44 AF 19 00 06 36 
  1107)       934.0  Rx         056A  8  81 00 08 00 1A 00 02 91 
  1108)       934.6  Rx         0588  8  1A 88 7E 84 00 00 00 00 
  1109)       935.6  Rx         0440  8  00 80 00 FE 80 00 68 00 
  1110)       936.0  Rx         0280  8  01 0D 82 0C 0F 00 33 0F 
  1111)       936.5  Rx         0288  8  E8 67 13 04 00 50 8D 0E 
  1112)       936.9  Rx         0380  8  00 53 00 49 20 00 00 0D 
  1113)       938.0  Rx         0488  8  50 1C 1C 7E FE FF FF D0 
  1114)       938.5  Rx         01A0  8  00 4A 00 00 00 FE 00 5D 
  1115)       938.9  Rx         04A0  8  00 00 00 00 00 00 00 00 
  1116)       939.7  Rx         0540  8  D0 00 FF 00 FE 00 00 26 
  1117)       940.0  Rx         0580  8  99 8A 00 7F 00 F0 47 01 
  1118)       941.9  Rx         038A  4  65 01 64 00 
  1119)       945.0  Rx         0280  8  01 0D 82 0C 0F 00 33 0F 
  1120)       945.4  Rx         0288  8  E8 67 13 04 00 50 8D 0E 
  1121)       945.7  Rx         0440  8  00 80 00 FE 80 00 70 00 
  1122)       945.9  Rx         0380  8  00 53 00 49 20 00 00 0D 
  1123)       946.7  Rx         0488  8  60 1C 1C 7E FE FF FF E0 
  1124)       947.1  Rx         01A0  8  00 4A 00 00 00 FE 00 5E 
  1125)       947.6  Rx         01AC  8  2E 87 00 00 69 01 13 D2 
  1126)       948.1  Rx         04A0  8  00 00 00 00 00 00 00 00 
  1127)       948.5  Rx         04A8  8  00 00 2C 13 00 00 70 4F 
  1128)       949.2  Rx         05A0  8  7C 00 00 72 00 00 10 AB 
  1129)       949.7  Rx         0540  8  E0 00 FF 00 FE 00 00 26 
  1130)       951.5  Rx         0480  8  1C 00 4D AF 19 00 06 E1 
  1131)       952.0  Rx         0588  8  1A 88 7E 00 00 00 00 00 
  1132)       952.4  Rx         056A  8  B1 00 08 00 1A 00 02 A1 
  1133)       953.8  Rx         0280  8  01 0D 8C 0C 0F 00 33 0F 
  1134)       954.2  Rx         0288  8  E8 67 13 04 00 50 8D 0E 
  1135)       954.8  Rx         0380  8  00 53 00 4B 20 00 00 0D 
  1136)       955.7  Rx         0440  8  00 80 00 FE 80 00 78 00 
  1137)       955.9  Rx         0488  8  70 1C 1C 7E FE FF FF F0 
  1138)       956.2  Rx         01A0  8  00 4A 00 00 00 FE 00 5F 
  1139)       956.7  Rx         04A0  8  00 00 00 00 00 00 00 00 
  1140)       957.4  Rx         038A  4  75 01 74 00 
  1141)       959.7  Rx         0540  8  F0 00 FF 00 FE 00 00 2F 
  1142)       960.2  Rx         0280  8  01 0D 8C 0C 0F 00 33 0F 
  1143)       960.7  Rx         0288  8  2C 67 13 04 00 50 8D 0E 
  1144)       961.2  Rx         0380  8  00 53 00 4B 20 00 00 0D 
  1145)       962.1  Rx         0488  8  42 1C 1C 7E FE FF 3D 00 
  1146)       962.5  Rx         01A0  8  00 4A 00 00 00 FE 00 50 
  1147)       963.0  Rx         01AC  8  27 88 00 00 69 01 15 D2 
  1148)       963.4  Rx         04A0  8  00 00 00 00 00 00 00 00 
  1149)       963.9  Rx         04A8  8  1F 00 48 13 00 00 80 C4 
  1150)       964.6  Rx         05A0  8  7C 00 00 82 00 00 10 AB 
  1151)       965.4  Rx         0480  8  1C 00 56 AF 19 00 06 FA 
  1152)       965.7  Rx         0440  8  00 80 00 FE 80 00 00 00 
  1153)       967.4  Rx         056A  8  A1 00 08 00 1A 00 02 B1 
  1154)       967.9  Rx         0588  8  1A 88 7E 02 00 00 00 00 
  1155)       969.6  Rx         0540  8  00 00 FF 00 FE 00 00 2F 
  1156)       975.6  Rx         0440  8  00 80 00 FE 80 00 08 00 
  1157)       978.8  Rx         0280  8  01 0D 8C 0C 0F 00 33 0F 
  1158)       979.2  Rx         0288  8  2C 67 13 04 00 50 8D 0E 
  1159)       979.7  Rx         0540  8  10 00 FF 00 FE 00 00 2F 
  1160)       980.0  Rx         0380  8  00 53 00 4B 20 00 00 0D 
  1161)       980.9  Rx         0488  8  4A 1C 1C 7E FE FF 25 10 
  1162)       981.4  Rx         01A0  8  00 4A 00 00 00 FE 00 51 
  1163)       981.9  Rx         04A0  8  00 00 00 00 00 00 00 00 
  1164)       982.3  Rx         038A  4  85 01 84 00 
  1165)       985.5  Rx         0280  8  01 0D 8C 0C 0F 00 33 0F 
  1166)       985.8  Rx         0440  8  00 80 00 FE 80 00 10 00 
  1167)       986.0  Rx         0288  8  2C 67 13 04 00 50 8D 0E 
  1168)       986.4  Rx         0380  8  00 53 00 4B 20 00 00 0D 
  1169)       988.1  Rx         01A0  8  00 4A 00 00 00 FE 00 52 
  1170)       988.5  Rx         0488  8  19 1C 1C 7E FE FF 46 20 
  1171)       988.9  Rx         01AC  8  27 89 00 00 69 01 14 D2 
  1172)       989.3  Rx         04A0  8  00 00 00 00 00 00 00 00 
  1173)       989.7  Rx         0540  8  20 00 FF 00 FE 00 00 2F 
  1174)       990.5  Rx         04A8  8  0C 80 5C 13 00 00 90 53 
  1175)       990.9  Rx         05A0  8  7B 00 00 92 00 00 10 AB 
  1176)       991.4  Rx         0480  8  1C 00 5F AF 19 00 06 F3 
  1177)       993.2  Rx         0390  8  6A 40 51 00 00 00 20 00 
  1178)       993.8  Rx         056A  8  D1 00 08 00 1A 00 02 C1 
  1179)       994.2  Rx         0588  8  1A 87 7E 00 00 00 00 00 
  1180)       995.6  Rx         0440  8  00 80 00 FE 80 00 18 00 
  1181)       995.8  Rx         0280  8  01 0D 9D 0C 0F 00 33 0F 
  1182)       996.2  Rx         0288  8  2C 67 13 04 00 50 8D 0E 
  1183)       996.7  Rx         0380  8  00 53 00 4A 20 00 00 0D 
  1184)       997.5  Rx         05D0  8  C0 04 51 AF 29 48 01 00 
  1185)       998.0  Rx         0488  8  47 1C 1C 7E FE FF 08 30 
  1186)       998.4  Rx         01A0  8  00 4A 00 00 00 FE 00 53 
  1187)       998.8  Rx         04A0  8  00 00 00 00 00 00 00 00 
  1188)       999.7  Rx         0540  8  30 00 FF 00 FE 00 00 26 
  1189)       999.8  Rx         038A  4  95 01 94 00 
  1190)      1002.2  Rx         0280  8  01 0D 9D 0C 0F 00 33 0F 
  1191)      1003.0  Rx         0288  8  64 67 13 04 00 50 8D 0E 
  1192)      1004.0  Rx         0380  8  00 53 00 4A 20 00 00 0D 
  1193)      1005.0  Rx         01A0  8  00 4A 00 00 00 FE 00 54 
  1194)      1005.4  Rx         0488  8  19 1C 1C 7E FE FF 26 40 
  1195)      1005.7  Rx         0440  8  00 80 00 FE 80 00 20 00 
  1196)      1005.9  Rx         01AC  8  27 8A 00 00 69 01 17 D2 
  1197)      1006.4  Rx         05DC  8  77 18 C0 3F 1E 00 30 42 
  1198)      1006.8  Rx         04A0  8  00 00 00 00 00 00 00 00 
  1199)      1007.6  Rx         04A8  8  06 00 70 13 00 00 A0 C5 
  1200)      1008.0  Rx         05A0  8  7C 00 00 A2 00 00 10 AB 
  1201)      1008.4  Rx         0480  8  1C 00 65 AF 19 00 06 C9 
  1202)      1009.6  Rx         0540  8  40 00 FF 00 FE 00 00 26 
  1203)      1010.7  Rx         056A  8  C1 00 08 00 1A 00 02 D1 
  1204)      1011.1  Rx         0588  8  1A 87 7E 04 00 00 00 00 
  1205)      1012.5  Rx         0280  8  01 0D 9D 0C 0F 00 33 0F 
  1206)      1012.9  Rx         0288  8  64 67 13 04 00 50 8D 0E 
  1207)      1013.9  Rx         0380  8  00 53 00 4A 20 00 00 0D 
  1208)      1014.3  Rx         0488  8  D0 1C 1C 7E FE FF FF 50 
  1209)      1014.9  Rx         01A0  8  00 4A 00 00 00 FE 00 55 
  1210)      1015.4  Rx         04A0  8  00 00 00 00 00 00 00 00 
  1211)      1015.6  Rx         0440  8  00 80 00 FE 80 00 28 00 
  1212)      1015.8  Rx         038A  4  A5 01 A4 00 
  1213)      1019.6  Rx         0540  8  50 00 FF 00 FE 00 00 26 
  1214)      1025.6  Rx         0440  8  00 80 00 FE 80 00 30 00 
  1215)      1027.9  Rx         0280  8  01 0D 9D 0C 0F 00 33 0F 
  1216)      1028.3  Rx         0288  8  64 67 13 04 00 50 8D 0E 
  1217)      1029.1  Rx         0380  8  00 53 00 4A 20 00 00 0D 
  1218)      1029.6  Rx         0540  8  60 00 FF 00 FE 00 00 26 
  1219)      1030.2  Rx         0488  8  E0 1C 1C 7E FE FF FF 60 
  1220)      1030.6  Rx         01A0  8  00 4A 00 00 00 FE 00 56 
  1221)      1031.1  Rx         01AC  8  22 8B 00 00 69 01 13 D2 
  1222)      1031.6  Rx         04A0  8  00 00 00 00 00 00 00 00 
  1223)      1032.0  Rx         04A8  8  0C 00 7C 13 00 00 B0 D3 
  1224)      1032.8  Rx         05A0  8  7B 00 00 B2 00 00 10 AB 
  1225)      1034.9  Rx         0480  8  54 00 6C AF 19 00 06 88 
  1226)      1035.6  Rx         0440  8  00 80 00 FE 80 00 38 00 
  1227)      1035.8  Rx         0588  8  1A 87 7E 00 00 00 00 00 
  1228)      1036.2  Rx         056A  8  F1 00 08 00 1A 00 02 E1 
  1229)      1037.6  Rx         0280  8  01 0D A0 0C 0F 00 33 0F 
  1230)      1038.0  Rx         0288  8  64 67 13 04 00 50 8D 0E 
  1231)      1038.9  Rx         0380  8  00 53 00 47 20 00 00 0D 
  1232)      1039.3  Rx         0488  8  F0 1C 1C 7E FE FF FF 70 
  1233)      1039.7  Rx         0540  8  70 00 FF 00 FE 00 00 2F 
  1234)      1040.0  Rx         01A0  8  00 4A 00 00 00 FE 00 57 
  1235)      1040.5  Rx         04A0  8  00 00 00 00 00 00 00 00 
  1236)      1042.4  Rx         038A  4  B5 01 B4 00 
  1237)      1045.2  Rx         0280  8  01 0D A0 0C 0F 00 33 0F 
  1238)      1045.6  Rx         0440  8  00 80 00 FE 80 00 40 00 
  1239)      1045.9  Rx         0288  8  8A 67 13 04 00 50 8D 0E 
  1240)      1046.8  Rx         0380  8  00 53 00 47 20 00 00 0D 
  1241)      1047.3  Rx         01A0  8  00 4A 00 00 00 FE 00 58 
  1242)      1048.1  Rx         01AC  8  23 8C 00 00 69 01 15 D2 
  1243)      1048.7  Rx         0488  8  00 1C 1C 7E FE FF FF 80 
  1244)      1049.1  Rx         04A0  8  00 00 00 00 00 00 00 00 
  1245)      1049.6  Rx         0540  8  80 00 FF 00 FE 00 00 2F 
  1246)      1050.2  Rx         04A8  8  00 00 98 13 00 00 C0 4B 
  1247)      1050.7  Rx         05A0  8  7C 00 00 C2 00 00 10 AB 
  1248)      1052.6  Rx         0480  8  54 00 72 AF 19 00 06 96 
  1249)      1053.0  Rx         056A  8  E1 00 08 00 1A 00 02 F1 
  1250)      1053.5  Rx         0588  8  1A 87 7E 00 00 00 00 00 
  1251)      1055.1  Rx         0280  8  01 0D A0 0C 0F 00 33 0F 
  1252)      1055.6  Rx         0440  8  00 80 00 FE 80 00 48 00 
  1253)      1055.8  Rx         0288  8  8A 67 13 04 00 50 8D 0E 
  1254)      1056.5  Rx         0380  8  00 53 00 47 20 00 00 0D 
  1255)      1056.9  Rx         0488  8  10 1C 1C 7E FE FF FF 90 
  1256)      1057.4  Rx         01A0  8  00 4A 00 00 00 FE 00 59 
  1257)      1057.8  Rx         04A0  8  00 00 00 00 00 00 00 00 
  1258)      1058.5  Rx         038A  4  C5 01 C4 00 
  1259)      1059.6  Rx         0540  8  90 00 FF 00 FE 00 00 2F 
  1260)      1061.0  Rx         0280  8  01 0D A0 0C 0F 00 33 0F 
  1261)      1061.5  Rx         0288  8  8A 67 13 04 00 50 8D 0E 
  1262)      1062.4  Rx         0380  8  00 53 00 47 20 00 00 0D 
  1263)      1062.9  Rx         01A0  8  00 4A 00 00 00 FE 00 5A 
  1264)      1063.4  Rx         0488  8  20 1C 1C 7E FE FF FF A0 
  1265)      1063.8  Rx         01AC  8  23 8D 00 00 69 01 14 D2 
  1266)      1064.8  Rx         04A0  8  00 00 00 00 00 00 00 00 
  1267)      1065.4  Rx         0300  1  A3 
  1268)      1065.7  Rx         0440  8  00 80 00 FE 80 00 50 00 
  1269)      1065.9  Rx         04A8  8  06 80 9D 13 00 00 D0 D8 
  1270)      1066.2  Rx         05A0  8  7C 00 00 D2 00 00 10 AB 
  1271)      1067.8  Rx         0480  8  54 00 78 AF 19 00 06 9C 
  1272)      1068.5  Rx         0588  8  1A 87 7E 86 00 00 00 00 
  1273)      1068.9  Rx         056A  8  11 00 08 00 1A 00 02 01 
  1274)      1069.6  Rx         0540  8  A0 00 FF 00 FE 00 00 2F 
  1275)      1071.4  Rx         0280  8  01 0D 85 0C 0F 00 33 0F 
  1276)      1072.2  Rx         0288  8  8A 67 13 04 00 50 8D 0E 
  1277)      1072.6  Rx         0380  8  00 53 00 47 20 00 00 0D 
  1278)      1073.1  Rx         01A0  8  00 4A 00 00 00 FE 00 5B 
  1279)      1073.5  Rx         0488  8  30 1C 1C 7E FE FF FF B0 
  1280)      1074.1  Rx         04A0  8  00 00 00 00 00 00 00 00 
  1281)      1074.9  Rx         038A  4  D5 01 D4 00 
  1282)      1075.6  Rx         0440  8  00 80 00 FE 80 00 58 00 
  1283)      1075.8  Rx         0760  6  A1 0F 8A FF 4A FF 
  1284)      1079.6  Rx         0540  8  B0 00 FF 00 FE 00 00 26 
  1285)      1085.5  Rx         0440  8  00 80 00 FE 80 00 60 00 
  1286)      1088.2  Rx         0280  8  01 0D 85 0C 0F 00 33 0F 
  1287)      1088.6  Rx         0288  8  E8 67 13 04 00 50 8D 0E 
  1288)      1089.6  Rx         0540  8  C0 00 FF 00 FE 00 00 26 
  1289)      1089.8  Rx         0380  8  00 53 00 47 20 00 00 0D 
  1290)      1090.1  Rx         0520  8  A6 87 00 93 7A 57 33 03 
  1291)      1090.6  Rx         01A0  8  00 4A 00 00 00 FE 00 5C 
  1292)      1091.1  Rx         0488  8  40 1C 1C 7E FE FF FF C0 
  1293)      1091.6  Rx         01AC  8  22 8E 00 00 69 01 16 D2 
  1294)      1092.0  Rx         04A0  8  00 00 00 00 00 00 00 00 
  1295)      1092.4  Rx         04A8  8  0C 00 AE 13 00 00 E0 51 
  1296)      1093.6  Rx         05A0  8  7C 00 00 E2 00 00 10 AB 
  1297)      1094.1  Rx         0480  8  54 00 7E AF 19 00 06 9A 
  1298)      1095.5  Rx         0440  8  00 80 00 FE 80 00 68 00 
  1299)      1095.9  Rx         0390  8  6A 40 51 00 00 00 20 00 
  1300)      1096.7  Rx         056A  8  01 00 08 00 1A 00 02 11 
  1301)      1097.1  Rx         0588  8  1A 8A 7E 00 00 00 00 00 
  1302)      1098.4  Rx         05D0  8  C0 04 51 AF 29 48 01 00 
  1303)      1098.8  Rx         0280  8  01 0D 85 0C 0F 00 33 0F 
  1304)      1099.6  Rx         0540  8  D0 00 FF 00 FE 00 00 26 
  1305)      1100.0  Rx         0288  8  E8 67 13 04 00 50 8D 0E 
  1306)      1100.5  Rx         0380  8  00 53 00 4B 20 00 00 0D 
  1307)      1101.4  Rx         01A0  8  00 4A 00 00 00 FE 00 5D 
  1308)      1101.9  Rx         0488  8  50 1C 1C 7E FE FF FF D0 
  1309)      1102.3  Rx         04A0  8  00 00 00 00 00 00 00 00 
  1310)      1102.6  Rx         038A  4  E5 01 E4 00 
  1311)      1105.5  Rx         05DC  8  77 18 C0 3F 1E 00 30 42 
  1312)      1105.7  Rx         0440  8  00 80 00 FE 80 00 70 00 
  1313)      1106.1  Rx         0280  8  01 0D 76 0C 0F 00 33 0F 
  1314)      1106.5  Rx         0288  8  E8 67 13 04 00 50 8D 0E 
  1315)      1107.3  Rx         0380  8  00 53 00 4B 20 00 00 0D 
  1316)      1107.8  Rx         01A0  8  00 4A 00 00 00 FE 00 5E 
  1317)      1108.2  Rx         0488  8  60 1C 1C 7E FE FF FF E0 
  1318)      1108.7  Rx         01AC  8  23 8F 00 00 69 01 16 D2 
  1319)      1109.0  Rx         04A0  8  00 00 00 00 00 00 00 00 
  1320)      1109.6  Rx         0540  8  E0 00 FF 00 FE 00 00 26 
  1321)      1109.8  Rx         04A8  8  0C 00 B3 13 00 00 F0 5C 
  1322)      1111.0  Rx         05A0  8  7B 00 00 F2 00 00 10 AB 
  1323)      1112.9  Rx         0480  8  84 00 87 AF 19 00 06 B3 
  1324)      1113.4  Rx         0588  8  1A 8A 7E 83 00 00 00 00 
  1325)      1113.8  Rx         056A  8  31 00 08 00 1A 00 02 21 
  1326)      1115.4  Rx         0280  8  01 0D 76 0C 0F 00 33 0F 
  1327)      1115.7  Rx         0440  8  00 80 00 FE 80 00 78 00 
  1328)      1115.9  Rx         0288  8  E8 67 13 04 00 50 8D 0E 
  1329)      1116.7  Rx         0380  8  00 53 00 4B 20 00 00 0D 
  1330)      1117.2  Rx         01A0  8  00 4A 00 00 00 FE 00 5F 
  1331)      1117.6  Rx         0488  8  70 1C 1C 7E FE FF FF F0 
  1332)      1118.1  Rx         04A0  8  00 00 00 00 00 00 00 00 
  1333)      1118.4  Rx         038A  4  F5 01 F4 00 
  1334)      1119.6  Rx         0540  8  F0 00 FF 00 FE 00 00 2F 
  1335)      1121.2  Rx         0280  8  01 0D 76 0C 0F 00 33 0F 
  1336)      1121.8  Rx         0288  8  2C 67 13 04 00 50 8D 0E 
  1337)      1122.7  Rx         0380  8  00 53 00 4B 20 00 00 0D 
  1338)      1123.1  Rx         01A0  8  00 4A 00 00 00 FE 00 50 
  1339)      1123.6  Rx         01AC  8  2F 80 00 00 69 01 15 D2 
  1340)      1124.1  Rx         0488  8  42 1C 1C 7E FE FF 3D 00 
  1341)      1125.1  Rx         04A0  8  00 00 00 00 00 00 00 00 
  1342)      1125.6  Rx         0440  8  00 80 00 FE 80 00 00 00 
  1343)      1126.0  Rx         04A8  8  0C 80 BB 13 00 00 00 24 
  1344)      1126.7  Rx         05A0  8  7C 00 00 02 00 00 10 AB 
  1345)      1128.9  Rx         0480  8  84 00 90 AF 19 00 06 A4 
  1346)      1129.5  Rx         0540  8  00 00 FF 00 FE 00 00 2F 
  1347)      1129.8  Rx         0588  8  1A 8A 7E 00 00 00 00 00 
  1348)      1130.1  Rx         056A  8  21 00 08 00 1A 00 02 31 
  1349)      1131.6  Rx         0280  8  01 0D 76 0C 0F 00 33 0F 
  1350)      1132.5  Rx         0288  8  2C 67 13 04 00 50 8D 0E 
  1351)      1132.9  Rx         0380  8  00 53 00 4C 20 00 00 0D 
  1352)      1133.3  Rx         01A0  8  00 4A 00 00 00 FE 00 51 
  1353)      1133.9  Rx         0488  8  4A 1C 1C 7E FE FF 25 10 
  1354)      1134.5  Rx         04A0  8  00 00 00 00 00 00 00 00 
  1355)      1135.5  Rx         0440  8  00 80 00 FE 80 00 08 00 
  1356)      1138.0  Rx         038A  4  05 01 04 00 
  1357)      1139.5  Rx         0540  8  10 00 FF 00 FE 00 00 2F 
  1358)      1140.4  Rx         0280  8  01 0D 80 0C 0F 00 33 0F 
  1359)      1141.3  Rx         0288  8  2C 67 13 04 00 50 8D 0E 
  1360)      1141.8  Rx         0380  8  00 53 00 4C 20 00 00 0D 
  1361)      1142.3  Rx         01A0  8  00 4A 00 00 00 FE 00 52 
  1362)      1142.7  Rx         0488  8  19 1C 1C 7E FE FF 46 20 
  1363)      1143.2  Rx         01AC  8  2D 81 00 00 69 01 16 D2 
  1364)      1143.8  Rx         04A0  8  00 00 00 00 00 00 00 00 
  1365)      1144.8  Rx         04A8  8  00 00 C5 13 00 00 10 C6 
  1366)      1145.1  Rx         05A0  8  7C 00 00 12 00 00 10 AB 
  1367)      1145.6  Rx         0440  8  00 80 00 FE 80 00 10 00 
  1368)      1147.1  Rx         0480  8  84 00 9A AF 19 00 06 AE 
  1369)      1148.0  Rx         0588  8  1A 8A 7E 02 00 00 00 00 
  1370)      1148.4  Rx         056A  8  51 00 08 00 1A 00 02 41 
  1371)      1149.5  Rx         0540  8  20 00 FF 00 FE 00 00 2F 
  1372)      1155.5  Rx         0440  8  00 80 00 FE 80 00 18 00 
  1373)      1159.5  Rx         0540  8  30 00 FF 00 FE 00 00 26 
  1374)      1160.0  Rx         0280  8  01 0D 80 0C 0F 00 33 0F 
  1375)      1160.9  Rx         0288  8  2C 67 13 04 00 50 8D 0E 
  1376)      1161.4  Rx         0380  8  00 53 00 4C 20 00 00 0D 
  1377)      1161.9  Rx         01A0  8  00 4A 00 00 00 FE 00 53 
  1378)      1162.4  Rx         0488  8  47 1C 1C 7E FE FF 08 30 
  1379)      1162.8  Rx         04A0  8  00 00 00 00 00 00 00 00 
  1380)      1163.5  Rx         038A  4  15 01 14 00 
  1381)      1165.5  Rx         0440  8  00 80 00 FE 80 00 20 00 
  1382)      1166.1  Rx         0280  8  01 0D 80 0C 0F 00 33 0F 
  1383)      1166.9  Rx         0288  8  64 67 13 04 00 50 8D 0E 
  1384)      1167.4  Rx         0380  8  00 53 00 4C 20 00 00 0D 
  1385)      1167.9  Rx         01A0  8  00 4A 00 00 00 FE 00 54 
  1386)      1168.3  Rx         01AC  8  2C 82 00 00 69 01 14 D2 
  1387)      1168.7  Rx         0488  8  19 1C 1C 7E FE FF 26 40 
  1388)      1169.1  Rx         04A0  8  00 00 00 00 00 00 00 00 
  1389)      1169.6  Rx         0540  8  40 00 FF 00 FE 00 00 26 
  1390)      1169.8  Rx         04A8  8  00 00 C2 13 00 00 20 F1 
  1391)      1170.7  Rx         05A0  8  7B 00 00 22 00 00 10 AB 
  1392)      1172.9  Rx         0480  8  84 00 A3 AF 19 00 06 97 
  1393)      1173.4  Rx         0588  8  1A 8A 7E 00 00 00 00 00 
  1394)      1173.9  Rx         056A  8  41 00 08 00 1A 00 02 51 
  1395)      1175.5  Rx         0440  8  00 80 00 FE 80 00 28 00 
  1396)      1176.3  Rx         0280  8  01 0D 80 0C 0F 00 33 0F 
  1397)      1177.1  Rx         0288  8  64 67 13 04 00 50 8D 0E 
  1398)      1177.6  Rx         0380  8  00 53 00 4B 20 00 00 0D 
  1399)      1178.0  Rx         01A0  8  00 4A 00 00 00 FE 00 55 
  1400)      1178.5  Rx         04A0  8  00 00 00 00 00 00 00 00 
  1401)      1178.8  Rx         0488  8  D0 1C 1C 7E FE FF FF 50 
  1402)      1179.4  Rx         038A  4  25 01 24 00 
  1403)      1179.7  Rx         0540  8  50 00 FF 00 FE 00 00 26 
  1404)      1182.9  Rx         0280  8  01 0D 8A 0C 0F 00 33 0F 
  1405)      1183.9  Rx         0288  8  64 67 13 04 00 50 8D 0E 
  1406)      1184.6  Rx         0380  8  00 53 00 4B 20 00 00 0D 
  1407)      1185.0  Rx         01A0  8  00 4A 00 00 00 FE 00 56 
  1408)      1185.5  Rx         0488  8  E0 1C 1C 7E FE FF FF 60 
  1409)      1185.8  Rx         0440  8  00 80 00 FE 80 00 30 00 
  1410)      1186.0  Rx         01AC  8  2C 83 00 00 69 01 15 D2 
  1411)      1186.4  Rx         04A0  8  00 00 00 00 00 00 00 00 
  1412)      1186.8  Rx         04A8  8  06 00 CA 13 00 00 30 EF 
  1413)      1187.7  Rx         05A0  8  7B 00 00 32 00 00 10 AB 
  1414)      1189.5  Rx         0540  8  60 00 FF 00 FE 00 00 26 
  1415)      1190.2  Rx         0390  8  6A 40 51 00 00 00 20 00 
  1416)      1190.6  Rx         0480  8  C2 00 AC AF 19 00 06 DE 
  1417)      1191.1  Rx         056A  8  71 00 08 00 1A 00 02 61 
  1418)      1191.6  Rx         0588  8  1A 8A 7E 02 00 00 00 00 
  1419)      1192.9  Rx         05D0  8  C0 04 51 AF 29 48 01 00 
  1420)      1193.8  Rx         0280  8  01 0D 8A 0C 0F 00 33 0F 
  1421)      1194.8  Rx         0288  8  64 67 13 04 00 50 8D 0E 
  1422)      1195.3  Rx         0380  8  00 53 00 4B 20 00 00 0D 
  1423)      1195.5  Rx         0440  8  00 80 00 FE 80 00 38 00 
  1424)      1195.8  Rx         01A0  8  00 4A 00 00 00 FE 00 57 
  1425)      1196.2  Rx         0488  8  F0 1C 1C 7E FE FF FF 70 
  1426)      1196.6  Rx         04A0  8  00 00 00 00 00 00 00 00 
  1427)      1197.3  Rx         038A  4  35 01 34 00 
  1428)      1199.6  Rx         0540  8  70 00 FF 00 FE 00 00 2F 
  1429)      1200.0  Rx         05DC  8  77 18 C0 3F 1E 00 30 42 
  1430)      1200.6  Rx         0280  8  01 0D 8A 0C 0F 00 33 0F 
  1431)      1201.5  Rx         0288  8  8A 67 13 04 00 50 8D 0E 
  1432)      1202.0  Rx         0380  8  00 53 00 4B 20 00 00 0D 
  1433)      1202.5  Rx         01A0  8  00 4A 00 00 00 FE 00 58 
  1434)      1202.9  Rx         01AC  8  2D 84 00 00 69 01 13 D2 
  1435)      1203.3  Rx         0488  8  00 1C 1C 7E FE FF FF 80 
  1436)      1203.8  Rx         04A0  8  00 00 00 00 00 00 00 00 
  1437)      1204.9  Rx         04A8  8  0C 00 CC 13 00 00 40 93 
  1438)      1205.4  Rx         05A0  8  7C 00 00 42 00 00 10 AB 
  1439)      1205.7  Rx         0440  8  00 80 00 FE 80 00 40 00 
  1440)      1207.7  Rx         0480  8  C2 00 B5 AF 19 00 06 C7 
  1441)      1208.4  Rx         056A  8  61 00 08 00 1A 00 02 71 
  1442)      1208.9  Rx         0588  8  1A 8B 7E 00 00 00 00 00 
  1443)      1209.6  Rx         0540  8  80 00 FF 00 FE 00 00 2F 
  1444)      1210.6  Rx         0280  8  01 0D 8A 0C 0F 00 33 0F 
  1445)      1211.4  Rx         0288  8  8A 67 13 04 00 50 8D 0E 
  1446)      1211.9  Rx         0380  8  00 53 00 4A 20 00 00 0D 
  1447)      1212.3  Rx         01A0  8  00 4A 00 00 00 FE 00 59 
  1448)      1212.8  Rx         0488  8  10 1C 1C 7E FE FF FF 90 
  1449)      1213.1  Rx         04A0  8  00 00 00 00 00 00 00 00 
  1450)      1215.4  Rx         0440  8  00 80 00 FE 80 00 48 00 
  1451)      1219.6  Rx         0540  8  90 00 FF 00 FE 00 00 2F 
  1452)      1223.6  Rx         038A  4  45 01 44 00 
  1453)      1225.5  Rx         0440  8  00 80 00 FE 80 00 50 00 
  1454)      1226.8  Rx         0280  8  01 0D 82 0C 0F 00 33 0F 
  1455)      1227.7  Rx         0288  8  8A 67 13 04 00 50 8D 0E 
  1456)      1228.2  Rx         01A0  8  00 4A 00 00 00 FE 00 5A 
  1457)      1228.6  Rx         0380  8  00 53 00 4A 20 00 00 0D 
  1458)      1229.0  Rx         01AC  8  28 85 00 00 69 01 17 D2 
  1459)      1229.6  Rx         0488  8  20 1C 1C 7E FE FF FF A0 
  1460)      1229.8  Rx         0540  8  A0 00 FF 00 FE 00 00 2F 
  1461)      1230.1  Rx         04A0  8  00 00 00 00 00 00 00 00 
  1462)      1231.0  Rx         04A8  8  00 00 CF 13 00 00 50 8C 
  1463)      1231.8  Rx         05A0  8  7C 00 00 52 00 00 10 AB 
  1464)      1233.8  Rx         0480  8  C2 00 BE AF 19 00 06 CC 
  1465)      1234.4  Rx         0588  8  1A 8B 7E 82 00 00 00 00 
  1466)      1234.8  Rx         056A  8  91 00 08 00 1A 00 02 81 
  1467)      1235.5  Rx         0440  8  00 80 00 FE 80 00 58 00 
  1468)      1236.6  Rx         0280  8  01 0D 82 0C 0F 00 33 0F 
  1469)      1237.0  Rx         0288  8  8A 67 13 04 00 50 8D 0E 
  1470)      1238.0  Rx         0380  8  00 53 00 4A 20 00 00 0D 
  1471)      1238.4  Rx         01A0  8  00 4A 00 00 00 FE 00 5B 
  1472)      1238.8  Rx         04A0  8  00 00 00 00 00 00 00 00 
  1473)      1239.2  Rx         0488  8  30 1C 1C 7E FE FF FF B0 
  1474)      1239.7  Rx         0540  8  B0 00 FF 00 FE 00 00 26 
  1475)      1241.4  Rx         038A  4  55 01 54 00 
  1476)      1243.8  Rx         0280  8  01 0D 82 0C 0F 00 33 0F 
  1477)      1244.8  Rx         0288  8  E8 67 13 04 00 50 8D 0E 
  1478)      1245.3  Rx         01A0  8  00 4A 00 00 00 FE 00 5C 
  1479)      1245.6  Rx         0440  8  00 80 00 FE 80 00 60 00 
  1480)      1245.9  Rx         0380  8  00 53 00 4A 20 00 00 0D 
  1481)      1246.2  Rx         01AC  8  28 86 00 00 69 01 14 D2 
  1482)      1246.7  Rx         0488  8  40 1C 1C 7E FE FF FF C0 
  1483)      1247.1  Rx         04A0  8  00 00 00 00 00 00 00 00 
  1484)      1247.9  Rx         04A8  8  0C 00 D1 13 00 00 60 AE 
  1485)      1248.4  Rx         05A0  8  7C 00 00 62 00 00 10 AB 
  1486)      1249.6  Rx         0540  8  C0 00 FF 00 FE 00 00 26 
  1487)      1250.5  Rx         0480  8  C2 00 C7 AF 19 00 06 B5 
  1488)      1251.0  Rx         0588  8  1A 8B 7E 00 00 00 00 00 
  1489)      1251.5  Rx         056A  8  81 00 08 00 1A 00 02 91 
  1490)      1253.7  Rx         0280  8  01 0D 98 0C 0F 00 33 0F 
  1491)      1254.1  Rx         0288  8  E8 67 13 04 00 50 8D 0E 
  1492)      1254.7  Rx         0380  8  00 53 00 4B 20 00 00 0D 
  1493)      1255.1  Rx         01A0  8  00 4A 00 00 00 FE 00 5D 
  1494)      1255.5  Rx         0440  8  00 80 00 FE 80 00 68 00 
  1495)      1255.8  Rx         04A0  8  00 00 00 00 00 00 00 00 
  1496)      1256.1  Rx         0488  8  50 1C 1C 7E FE FF FF D0 
  1497)      1257.4  Rx         038A  4  65 01 64 00 
  1498)      1259.6  Rx         0540  8  D0 00 FF 00 FE 00 00 26 
  1499)      1265.5  Rx         0440  8  00 80 00 FE 80 00 70 00 
  1500)      1269.1  Rx         0280  8  01 0D 98 0C 0F 00 33 0F 
  1501)      1269.5  Rx         0540  8  E0 00 FF 00 FE 00 00 26 
  1502)      1269.8  Rx         0288  8  E8 67 13 04 00 50 8D 0E 
  1503)      1270.3  Rx         01A0  8  00 4A 00 00 00 FE 00 5E 
  1504)      1270.7  Rx         0380  8  00 53 00 4B 20 00 00 0D 
  1505)      1271.2  Rx         01AC  8  2B 87 00 00 69 01 16 D2 
  1506)      1271.7  Rx         0488  8  60 1C 1C 7E FE FF FF E0 
  1507)      1272.1  Rx         04A0  8  00 00 00 00 00 00 00 00 
  1508)      1272.5  Rx         04A8  8  00 00 D4 13 00 00 70 B7 
  1509)      1273.3  Rx         05A0  8  7C 00 00 72 00 00 10 AB 
  1510)      1275.5  Rx         0440  8  00 80 00 FE 80 00 78 00 
  1511)      1275.7  Rx         0480  8  1C 00 D1 AF 19 00 06 7D 
  1512)      1276.3  Rx         0588  8  1A 8B 7E 05 00 00 00 00 
  1513)      1276.7  Rx         056A  8  B1 00 08 00 1A 00 02 A1 
  1514)      1279.4  Rx         0280  8  01 0D 98 0C 0F 00 33 0F 
  1515)      1279.6  Rx         0540  8  F0 00 FF 00 FE 00 00 2F 
  1516)      1279.9  Rx         0288  8  E8 67 13 04 00 50 8D 0E 
  1517)      1280.5  Rx         01A0  8  00 4A 00 00 00 FE 00 5F 
  1518)      1280.9  Rx         0380  8  00 53 00 4B 20 00 00 0D 
  1519)      1281.4  Rx         04A0  8  00 00 00 00 00 00 00 00 
