;$FILEVERSION=1.1
;$STARTTIME=45333.4752608565
;
;   Start time: 11.02.2024 11:24:22.538.0
;   Generated by PCAN-View v4.3.4.615
;
;   Message Number
;   |         Time Offset (ms)
;   |         |        Type
;   |         |        |        ID (hex)
;   |         |        |        |     Data Length
;   |         |        |        |     |   Data Bytes (hex) ...
;   |         |        |        |     |   |
;---+--   ----+----  --+--  ----+---  +  -+ -- -- -- -- -- -- --
     1)         0.3  Rx         0288  8  64 6C 13 04 00 50 8D 0F 
     2)         0.7  Rx         0380  8  00 53 00 41 20 00 00 0D 
     3)         1.1  Rx         038A  4  F5 01 F4 00 
     4)         1.6  Rx         0488  8  F0 1B 1B 7E FE FF FF 70 
     5)         2.1  Rx         0440  8  00 80 00 FE 80 00 20 00 
     6)         3.0  Rx         01A0  8  00 4A 00 00 00 FE 00 57 
     7)         3.5  Rx         04A0  8  00 00 00 00 00 00 00 00 
     8)         6.0  Rx         0540  8  40 00 FF 00 FE 00 00 26 
     9)        12.0  Rx         0440  8  00 80 00 FE 80 00 28 00 
    10)        16.0  Rx         0540  8  50 00 FF 00 FE 00 00 26 
    11)        16.3  Rx         0280  8  01 0D 8F 0C 0F 00 33 0F 
    12)        16.9  Rx         0288  8  8A 6C 13 04 00 50 8D 0F 
    13)        17.5  Rx         0380  8  00 53 00 41 20 00 00 0D 
    14)        18.4  Rx         0488  8  00 1B 1B 7E FE FF FF 80 
    15)        19.0  Rx         01A0  8  00 4A 00 00 00 FE 00 58 
    16)        20.9  Rx         01AC  8  2B 84 00 00 69 01 15 D2 
    17)        21.5  Rx         04A0  8  00 00 00 00 00 00 00 00 
    18)        22.0  Rx         0440  8  00 80 00 FE 80 00 30 00 
    19)        22.2  Rx         04A8  8  00 00 12 14 00 00 40 46 
    20)        22.7  Rx         05A0  8  7C 00 00 42 00 DC 10 AB 
    21)        23.7  Rx         0480  8  54 00 E7 86 19 00 06 2A 
    22)        24.5  Rx         0588  8  1A 81 7E 84 00 00 00 00 
    23)        25.3  Rx         056A  8  E1 00 08 00 1A 00 02 F1 
    24)        26.0  Rx         0540  8  60 00 FF 00 FE 00 00 26 
    25)        27.5  Rx         0280  8  01 0D 8F 0C 0F 00 33 0F 
    26)        28.0  Rx         0288  8  8A 6C 13 04 00 50 8D 0F 
    27)        28.4  Rx         0380  8  00 53 00 41 20 00 00 0D 
    28)        28.7  Rx         038A  4  05 01 04 00 
    29)        29.3  Rx         0488  8  10 1B 1B 7E FE FF FF 90 
    30)        29.7  Rx         01A0  8  00 4A 00 00 00 FE 00 59 
    31)        30.6  Rx         04A0  8  00 00 00 00 00 00 00 00 
    32)        32.0  Rx         0440  8  00 80 00 FE 80 00 38 00 
    33)        34.3  Rx         0280  8  01 0D 8F 0C 0F 00 33 0F 
    34)        34.8  Rx         01A0  8  00 4A 00 00 00 FE 00 5A 
    35)        35.2  Rx         0288  8  8A 6C 13 04 00 50 8D 0F 
    36)        35.7  Rx         01AC  8  2A 85 00 00 69 01 15 D2 
    37)        36.1  Rx         0540  8  70 00 FF 00 FE 00 00 2F 
    38)        36.3  Rx         0380  8  00 53 00 41 20 00 00 0D 
    39)        36.5  Rx         0488  8  20 1B 1B 7E FE FF FF A0 
    40)        37.1  Rx         04A0  8  00 00 00 00 00 00 00 00 
    41)        37.6  Rx         04A8  8  0C 00 10 14 00 00 50 58 
    42)        38.1  Rx         05A0  8  7C 00 00 52 00 DC 10 AB 
    43)        39.9  Rx         0480  8  54 00 EE 86 19 00 06 23 
    44)        40.3  Rx         056A  8  11 00 08 00 1A 00 02 01 
    45)        40.8  Rx         0588  8  1A 81 7E 00 00 00 00 00 
    46)        42.0  Rx         0440  8  00 80 00 FE 80 00 40 00 
    47)        43.1  Rx         0280  8  01 0D 8F 0C 0F 00 33 0F 
    48)        43.5  Rx         0288  8  8A 6C 13 04 00 50 8D 0F 
    49)        44.0  Rx         0380  8  00 53 00 43 20 00 00 0D 
    50)        44.3  Rx         038A  4  15 01 14 00 
    51)        44.8  Rx         0488  8  30 1B 1B 7E FE FF FF B0 
    52)        45.3  Rx         01A0  8  00 4A 00 00 00 FE 00 5B 
    53)        46.0  Rx         0540  8  80 00 FF 00 FE 00 00 2F 
    54)        46.3  Rx         04A0  8  00 00 00 00 00 00 00 00 
    55)        49.6  Rx         0280  8  01 0D 8A 0C 0F 00 33 0F 
    56)        50.0  Rx         0288  8  E8 6C 13 04 00 50 8D 0F 
    57)        50.5  Rx         0380  8  00 53 00 43 20 00 00 0D 
    58)        51.4  Rx         0488  8  40 1B 1B 7E FE FF FF C0 
    59)        52.1  Rx         0440  8  00 80 00 FE 80 00 48 00 
    60)        52.3  Rx         01A0  8  00 4A 00 00 00 FE 00 5C 
    61)        52.9  Rx         01AC  8  28 86 00 00 69 01 14 D2 
    62)        53.4  Rx         04A0  8  00 00 00 00 00 00 00 00 
    63)        53.9  Rx         04A8  8  0C 80 12 14 00 00 60 EA 
    64)        54.3  Rx         05A0  8  7B 00 00 62 00 DC 10 AB 
    65)        55.3  Rx         0480  8  54 00 F4 86 19 00 06 39 
    66)        56.0  Rx         0540  8  90 00 FF 00 FE 00 00 2F 
    67)        56.2  Rx         0588  8  1A 81 7E 81 00 00 00 00 
    68)        57.1  Rx         056A  8  01 00 08 00 1A 00 02 11 
    69)        60.1  Rx         0280  8  01 0D 8A 0C 0F 00 33 0F 
    70)        60.5  Rx         0288  8  E8 6C 13 04 00 50 8D 0F 
    71)        61.1  Rx         0380  8  00 53 00 43 20 00 00 0D 
    72)        61.4  Rx         038A  4  25 01 24 00 
    73)        62.0  Rx         0488  8  50 1B 1B 7E FE FF FF D0 
    74)        62.3  Rx         0440  8  00 80 00 FE 80 00 50 00 
    75)        62.5  Rx         0390  8  6A 40 51 00 00 00 20 00 
    76)        62.9  Rx         01A0  8  00 4A 00 00 00 FE 00 5D 
    77)        63.8  Rx         04A0  8  00 00 00 00 00 00 00 00 
    78)        65.5  Rx         05D0  8  C0 04 51 AF 29 48 01 00 
    79)        66.0  Rx         0540  8  A0 00 FF 00 FE 00 00 2F 
    80)        72.0  Rx         0440  8  00 80 00 FE 80 00 58 00 
    81)        75.9  Rx         0540  8  B0 00 FF 00 FE 00 00 26 
    82)        77.5  Rx         0280  8  01 0D 8A 0C 0F 00 33 0F 
    83)        78.0  Rx         01A0  8  00 4A 00 00 00 FE 00 5E 
    84)        78.4  Rx         0288  8  E8 6C 13 04 00 50 8D 0F 
    85)        78.9  Rx         01AC  8  29 87 00 00 69 01 14 D2 
    86)        79.4  Rx         0380  8  00 53 00 43 20 00 00 0D 
    87)        79.9  Rx         0488  8  60 1B 1B 7E FE FF FF E0 
    88)        80.3  Rx         04A0  8  00 00 00 00 00 00 00 00 
    89)        80.8  Rx         04A8  8  12 80 0D 14 00 00 70 FB 
    90)        81.2  Rx         05A0  8  7C 00 00 72 00 DC 10 AB 
    91)        82.0  Rx         0440  8  00 80 00 FE 80 00 60 00 
    92)        82.3  Rx         0480  8  84 00 FB 86 19 00 06 E6 
    93)        83.2  Rx         0588  8  1A 81 7E 00 00 00 00 00 
    94)        84.0  Rx         056A  8  31 00 08 00 1A 00 02 21 
    95)        84.4  Rx         05DC  8  77 18 C0 3F 1E 00 30 42 
    96)        86.0  Rx         0540  8  C0 00 FF 00 FE 00 00 26 
    97)        86.5  Rx         0280  8  01 0D 8A 0C 0F 00 33 0F 
    98)        87.1  Rx         0288  8  E8 6C 13 04 00 50 8D 0F 
    99)        87.6  Rx         0380  8  00 53 00 44 20 00 00 0D 
   100)        87.9  Rx         038A  4  35 01 34 00 
   101)        88.4  Rx         0488  8  70 1B 1B 7E FE FF FF F0 
   102)        88.9  Rx         01A0  8  00 4A 00 00 00 FE 00 5F 
   103)        89.8  Rx         04A0  8  00 00 00 00 00 00 00 00 
   104)        92.0  Rx         0440  8  00 80 00 FE 80 00 68 00 
   105)        93.5  Rx         0280  8  01 0D 85 0C 0F 00 33 0F 
   106)        93.9  Rx         0288  8  2C 6C 13 04 00 50 8D 0F 
   107)        94.4  Rx         0380  8  00 53 00 44 20 00 00 0D 
   108)        95.2  Rx         0488  8  44 1B 1B 7E FE FF 3B 00 
   109)        95.6  Rx         01A0  8  00 4A 00 00 00 FE 00 50 
   110)        96.0  Rx         01AC  8  25 88 00 00 69 01 17 D2 
   111)        96.3  Rx         0540  8  D0 00 FF 00 FE 00 00 26 
   112)        96.5  Rx         04A0  8  00 00 00 00 00 00 00 00 
   113)        97.1  Rx         04A8  8  1F 00 15 14 00 00 80 9E 
   114)        97.6  Rx         05A0  8  7C 00 00 82 00 DC 10 AB 
   115)        98.5  Rx         0480  8  84 00 01 87 19 00 06 1D 
   116)        99.4  Rx         0588  8  1A 81 7E 81 00 00 00 00 
   117)       100.3  Rx         056A  8  21 00 08 00 1A 00 02 31 
   118)       102.0  Rx         0440  8  00 80 00 FE 80 00 70 00 
   119)       102.9  Rx         0280  8  01 0D 85 0C 0F 00 33 0F 
   120)       103.4  Rx         0288  8  2C 6C 13 04 00 50 8D 0F 
   121)       103.8  Rx         0380  8  00 53 00 44 20 00 00 0D 
   122)       104.7  Rx         0488  8  4A 1B 1B 7E FE FF 25 10 
   123)       105.1  Rx         01A0  8  00 4A 00 00 00 FE 00 51 
   124)       105.4  Rx         038A  4  45 01 44 00 
   125)       105.9  Rx         04A0  8  00 00 00 00 00 00 00 00 
   126)       106.2  Rx         0540  8  E0 00 FF 00 FE 00 00 26 
   127)       112.0  Rx         0440  8  00 80 00 FE 80 00 78 00 
   128)       116.0  Rx         0540  8  F0 00 FF 00 FE 00 00 2F 
   129)       118.3  Rx         0280  8  01 0D 85 0C 0F 00 33 0F 
   130)       118.8  Rx         0288  8  2C 6C 13 04 00 50 8D 0F 
   131)       119.5  Rx         0380  8  00 53 00 44 20 00 00 0D 
   132)       120.5  Rx         0488  8  16 1B 1B 7E FE FF 49 20 
   133)       121.1  Rx         01A0  8  00 4A 00 00 00 FE 00 52 
   134)       122.1  Rx         0440  8  00 80 00 FE 80 00 00 00 
   135)       122.9  Rx         01AC  8  27 89 00 00 69 01 14 D2 
   136)       123.4  Rx         04A0  8  00 00 00 00 00 00 00 00 
   137)       123.9  Rx         04A8  8  12 80 12 14 00 00 90 04 
   138)       124.3  Rx         05A0  8  7C 00 00 92 00 DC 10 AB 
   139)       125.3  Rx         0480  8  84 00 09 87 19 00 06 15 
   140)       126.0  Rx         0540  8  00 00 FF 00 FE 00 00 2F 
   141)       126.2  Rx         0588  8  1A 82 7E 00 00 00 00 00 
   142)       127.0  Rx         056A  8  51 00 08 00 1A 00 02 41 
   143)       129.4  Rx         038A  4  55 01 54 00 
   144)       130.0  Rx         01A0  8  00 4A 00 00 00 FE 00 53 
   145)       130.5  Rx         0280  8  01 0D 79 0C 0F 00 33 0F 
   146)       130.9  Rx         0288  8  2C 6C 13 04 00 50 8D 0F 
   147)       131.4  Rx         0380  8  00 53 00 45 20 00 00 0D 
   148)       132.0  Rx         0488  8  47 1B 1B 7E FE FF 08 30 
   149)       132.2  Rx         0440  8  00 80 00 FE 80 00 08 00 
   150)       132.5  Rx         04A0  8  00 00 00 00 00 00 00 00 
   151)       135.6  Rx         0280  8  01 0D 79 0C 0F 00 33 0F 
   152)       135.9  Rx         0288  8  64 6C 13 04 00 50 8D 0F 
   153)       136.2  Rx         0540  8  10 00 FF 00 FE 00 00 2F 
   154)       136.4  Rx         0380  8  00 53 00 45 20 00 00 0D 
   155)       137.5  Rx         0488  8  19 1B 1B 7E FE FF 26 40 
   156)       137.9  Rx         01A0  8  00 4A 00 00 00 FE 00 54 
   157)       138.3  Rx         01AC  8  25 8A 00 00 69 01 15 D2 
   158)       138.8  Rx         04A0  8  00 00 00 00 00 00 00 00 
   159)       139.3  Rx         04A8  8  0C 00 12 14 00 00 A0 AA 
   160)       139.7  Rx         05A0  8  7B 00 00 A2 00 DC 10 AB 
   161)       140.7  Rx         0480  8  84 00 12 87 19 00 06 0E 
   162)       142.0  Rx         0440  8  00 80 00 FE 80 00 10 00 
   163)       142.2  Rx         056A  8  41 00 08 00 1A 00 02 51 
   164)       142.5  Rx         0588  8  1A 82 7E 83 00 00 00 00 
   165)       144.7  Rx         0280  8  01 0D 79 0C 0F 00 33 0F 
   166)       145.2  Rx         0288  8  64 6C 13 04 00 50 8D 0F 
   167)       145.6  Rx         0380  8  00 53 00 45 20 00 00 0D 
   168)       145.9  Rx         038A  4  65 01 64 00 
   169)       146.2  Rx         0540  8  20 00 FF 00 FE 00 00 2F 
   170)       146.4  Rx         01A0  8  00 4A 00 00 00 FE 00 55 
   171)       147.4  Rx         0488  8  D0 1B 1B 7E FE FF FF 50 
   172)       147.9  Rx         04A0  8  00 00 00 00 00 00 00 00 
   173)       148.8  Rx         0580  8  9F 40 00 11 1F E0 0C 46 
   174)       152.0  Rx         0440  8  00 80 00 FE 80 00 18 00 
   175)       152.7  Rx         0280  8  01 0D 79 0C 0F 00 33 0F 
   176)       153.2  Rx         0288  8  64 6C 13 04 00 50 8D 0F 
   177)       153.6  Rx         0380  8  00 53 00 45 20 00 00 0D 
   178)       154.5  Rx         0488  8  E0 1B 1B 7E FE FF FF 60 
   179)       154.9  Rx         01A0  8  00 4A 00 00 00 FE 00 56 
   180)       155.4  Rx         01AC  8  25 8B 00 00 69 01 14 D2 
   181)       155.8  Rx         04A0  8  00 00 00 00 00 00 00 00 
   182)       156.1  Rx         0540  8  30 00 FF 00 FE 00 00 26 
   183)       156.3  Rx         04A8  8  06 80 12 14 00 00 B0 30 
   184)       156.8  Rx         05A0  8  7B 00 00 B2 00 DC 10 AB 
   185)       157.8  Rx         0480  8  C2 00 1A 87 19 00 06 40 
   186)       158.7  Rx         0588  8  1A 82 7E 00 00 00 00 00 
   187)       159.5  Rx         056A  8  71 00 08 00 1A 00 02 61 
   188)       160.4  Rx         0520  8  02 02 00 93 7A 57 33 03 
   189)       161.9  Rx         0440  8  00 80 00 FE 80 00 20 00 
   190)       163.1  Rx         0390  8  6A 40 51 00 00 00 20 00 
   191)       163.5  Rx         01A0  8  00 4A 00 00 00 FE 00 57 
   192)       164.0  Rx         0280  8  01 0D 6F 0C 0F 00 33 0F 
   193)       164.4  Rx         0288  8  64 6C 13 04 00 50 8D 0F 
   194)       164.9  Rx         0380  8  00 53 00 46 20 00 00 0D 
   195)       165.3  Rx         038A  4  75 01 74 00 
   196)       165.8  Rx         0488  8  F0 1B 1B 7E FE FF FF 70 
   197)       166.0  Rx         0540  8  40 00 FF 00 FE 00 00 26 
   198)       166.3  Rx         04A0  8  00 00 00 00 00 00 00 00 
   199)       167.7  Rx         05D0  8  C0 04 51 AF 29 48 01 00 
   200)       169.8  Rx         0280  8  01 0D 6F 0C 0F 00 33 0F 
   201)       170.3  Rx         0288  8  8A 6C 13 04 00 50 8D 0F 
   202)       170.8  Rx         0380  8  00 53 00 46 20 00 00 0D 
   203)       171.8  Rx         01A0  8  00 4A 00 00 00 FE 00 58 
   204)       172.1  Rx         0440  8  00 80 00 FE 80 00 28 00 
   205)       172.3  Rx         0488  8  00 1B 1B 7E FE FF FF 80 
   206)       172.7  Rx         01AC  8  20 8C 00 00 69 01 16 D2 
   207)       173.3  Rx         04A0  8  00 00 00 00 00 00 00 00 
   208)       173.7  Rx         04A8  8  12 00 0D 14 00 00 C0 CB 
   209)       174.2  Rx         05A0  8  7C 00 00 C2 00 DC 10 AB 
   210)       175.1  Rx         0480  8  C2 00 22 87 19 00 06 78 
   211)       175.9  Rx         0588  8  1A 82 7E 82 00 00 00 00 
   212)       176.1  Rx         0540  8  50 00 FF 00 FE 00 00 26 
   213)       176.9  Rx         056A  8  61 00 08 00 1A 00 02 71 
   214)       177.4  Rx         05DC  8  77 18 C0 3F 1E 00 30 42 
   215)       179.5  Rx         0280  8  01 0D 6F 0C 0F 00 33 0F 
   216)       180.0  Rx         0288  8  8A 6C 13 04 00 50 8D 0F 
   217)       180.4  Rx         0380  8  00 53 00 46 20 00 00 0D 
   218)       180.8  Rx         038A  4  85 01 84 00 
   219)       181.9  Rx         01A0  8  00 4A 00 00 00 FE 00 59 
   220)       182.1  Rx         0440  8  00 80 00 FE 80 00 30 00 
   221)       182.3  Rx         0488  8  10 1B 1B 7E FE FF FF 90 
   222)       182.7  Rx         04A0  8  00 00 00 00 00 00 00 00 
   223)       186.0  Rx         0540  8  60 00 FF 00 FE 00 00 26 
   224)       192.0  Rx         0440  8  00 80 00 FE 80 00 38 00 
   225)       196.0  Rx         0540  8  70 00 FF 00 FE 00 00 2F 
   226)       196.4  Rx         0280  8  01 0D 6F 0C 0F 00 33 0F 
   227)       197.0  Rx         0288  8  8A 6C 13 04 00 50 8D 0F 
   228)       197.5  Rx         0380  8  00 53 00 46 20 00 00 0D 
   229)       198.4  Rx         01A0  8  00 4A 00 00 00 FE 00 5A 
   230)       198.8  Rx         0488  8  20 1B 1B 7E FE FF FF A0 
   231)       199.3  Rx         01AC  8  23 8D 00 00 69 01 14 D2 
   232)       199.8  Rx         04A0  8  00 00 00 00 00 00 00 00 
   233)       200.2  Rx         04A8  8  12 80 0D 14 00 00 D0 5B 
   234)       200.7  Rx         05A0  8  7B 00 00 D2 00 DC 10 AB 
   235)       202.0  Rx         0440  8  00 80 00 FE 80 00 40 00 
   236)       202.2  Rx         0480  8  C2 00 2A 87 19 00 06 70 
   237)       203.1  Rx         0588  8  1A 82 7E 00 00 00 00 00 
   238)       203.9  Rx         056A  8  91 00 08 00 1A 00 02 81 
   239)       206.0  Rx         0280  8  01 0D 7B 0C 0F 00 33 0F 
   240)       206.2  Rx         0540  8  80 00 FF 00 FE 00 00 2F 
   241)       206.4  Rx         0288  8  8A 6C 13 04 00 50 8D 0F 
   242)       207.0  Rx         0380  8  00 53 00 48 20 00 00 0D 
   243)       207.3  Rx         038A  4  95 01 94 00 
   244)       207.8  Rx         01A0  8  00 4A 00 00 00 FE 00 5B 
   245)       208.7  Rx         0488  8  30 1B 1B 7E FE FF FF B0 
   246)       209.2  Rx         04A0  8  00 00 00 00 00 00 00 00 
   247)       211.9  Rx         0440  8  00 80 00 FE 80 00 48 00 
   248)       212.5  Rx         0280  8  01 0D 7B 0C 0F 00 33 0F 
   249)       213.0  Rx         0288  8  E8 6C 13 04 00 50 8D 0F 
   250)       213.5  Rx         0380  8  00 53 00 48 20 00 00 0D 
   251)       214.3  Rx         01A0  8  00 4A 00 00 00 FE 00 5C 
   252)       216.0  Rx         0540  8  90 00 FF 00 FE 00 00 2F 
   253)       217.7  Rx         01AC  8  23 8E 00 00 69 01 17 D2 
   254)       218.6  Rx         0488  8  40 1B 1B 7E FE FF FF C0 
   255)       219.1  Rx         04A0  8  00 00 00 00 00 00 00 00 
   256)       219.9  Rx         0480  8  C2 00 33 87 19 00 06 69 
   257)       220.4  Rx         04A8  8  0C 00 0D 14 00 00 E0 F5 
   258)       221.3  Rx         056A  8  81 00 08 00 1A 00 02 91 
   259)       221.9  Rx         0588  8  1A 83 7E 03 00 00 00 00 
   260)       222.2  Rx         0440  8  00 80 00 FE 80 00 50 00 
   261)       222.5  Rx         05A0  8  7C 00 00 E2 00 DC 10 AB 
   262)       225.3  Rx         01A0  8  00 4A 00 00 00 FE 00 5D 
   263)       225.8  Rx         0280  8  01 0D 7B 0C 0F 00 33 0F 
   264)       226.1  Rx         0540  8  A0 00 FF 00 FE 00 00 2F 
   265)       226.3  Rx         0288  8  E8 6C 13 04 00 50 8D 0F 
   266)       227.5  Rx         0380  8  00 53 00 48 20 00 00 0D 
   267)       227.9  Rx         038A  4  A5 01 A4 00 
   268)       228.4  Rx         04A0  8  00 00 00 00 00 00 00 00 
   269)       228.8  Rx         0488  8  50 1B 1B 7E FE FF FF D0 
   270)       231.9  Rx         0440  8  00 80 00 FE 80 00 58 00 
   271)       232.2  Rx         0280  8  01 0D 7B 0C 0F 00 33 0F 
   272)       232.5  Rx         0288  8  E8 6C 13 04 00 50 8D 0F 
   273)       233.1  Rx         0380  8  00 53 00 48 20 00 00 0D 
   274)       233.5  Rx         01A0  8  00 4A 00 00 00 FE 00 5E 
   275)       234.0  Rx         0488  8  60 1B 1B 7E FE FF FF E0 
   276)       234.4  Rx         01AC  8  26 8F 00 00 69 01 13 D2 
   277)       235.3  Rx         04A0  8  00 00 00 00 00 00 00 00 
   278)       235.7  Rx         04A8  8  00 00 0D 14 00 00 F0 E9 
   279)       236.0  Rx         0540  8  B0 00 FF 00 FE 00 00 26 
   280)       236.3  Rx         05A0  8  7B 00 00 F2 00 DC 10 AB 
   281)       238.1  Rx         0480  8  1C 00 3B 87 19 00 06 BF 
   282)       238.5  Rx         0588  8  1A 83 7E 01 00 00 00 00 
   283)       238.9  Rx         056A  8  B1 00 08 00 1A 00 02 A1 
   284)       241.2  Rx         0280  8  01 0D 82 0C 0F 00 33 0F 
   285)       241.8  Rx         0288  8  E8 6C 13 04 00 50 8D 0F 
   286)       242.0  Rx         0440  8  00 80 00 FE 80 00 60 00 
   287)       242.3  Rx         0380  8  00 53 00 46 20 00 00 0D 
   288)       242.7  Rx         01A0  8  00 4A 00 00 00 FE 00 5F 
   289)       243.0  Rx         038A  4  B5 01 B4 00 
   290)       243.5  Rx         0488  8  70 1B 1B 7E FE FF FF F0 
   291)       244.3  Rx         04A0  8  00 00 00 00 00 00 00 00 
   292)       246.0  Rx         0540  8  C0 00 FF 00 FE 00 00 26 
   293)       252.0  Rx         0440  8  00 80 00 FE 80 00 68 00 
   294)       256.0  Rx         0540  8  D0 00 FF 00 FE 00 00 26 
   295)       257.8  Rx         0280  8  01 0D 82 0C 0F 00 33 0F 
   296)       258.2  Rx         0288  8  2C 6C 13 04 00 50 8D 0F 
   297)       258.7  Rx         0380  8  00 53 00 46 20 00 00 0D 
   298)       259.2  Rx         01A0  8  00 4A 00 00 00 FE 00 50 
   299)       260.0  Rx         01AC  8  2E 80 00 00 69 01 14 D2 
   300)       260.5  Rx         0488  8  43 1B 1B 7E FE FF 3C 00 
   301)       261.1  Rx         04A0  8  00 00 00 00 00 00 00 00 
   302)       261.5  Rx         04A8  8  06 00 0D 14 00 00 00 1F 
   303)       262.0  Rx         0440  8  00 80 00 FE 80 00 70 00 
   304)       262.3  Rx         05A0  8  7C 00 00 02 00 DC 10 AB 
   305)       263.0  Rx         0480  8  1C 00 44 87 19 00 06 C0 
   306)       263.8  Rx         0588  8  1A 83 7E 00 00 00 00 00 
   307)       264.6  Rx         056A  8  A1 00 08 00 1A 00 02 B1 
   308)       266.0  Rx         0540  8  E0 00 FF 00 FE 00 00 26 
   309)       267.7  Rx         0280  8  01 0D 82 0C 0F 00 33 0F 
   310)       268.1  Rx         0288  8  2C 6C 13 04 00 50 8D 0F 
   311)       268.5  Rx         0380  8  00 53 00 45 20 00 00 0D 
   312)       269.0  Rx         0390  8  6A 40 51 00 00 00 20 00 
   313)       269.4  Rx         01A0  8  00 4A 00 00 00 FE 00 51 
   314)       269.8  Rx         038A  4  C5 01 C4 00 
   315)       270.3  Rx         0488  8  4A 1B 1B 7E FE FF 25 10 
   316)       271.3  Rx         04A0  8  00 00 00 00 00 00 00 00 
   317)       272.0  Rx         0440  8  00 80 00 FE 80 00 78 00 
   318)       273.2  Rx         05D0  8  C0 04 51 AF 29 48 01 00 
   319)       275.3  Rx         01A0  8  00 4A 00 00 00 FE 00 52 
   320)       275.7  Rx         01AC  8  2F 81 00 00 69 01 14 D2 
   321)       276.0  Rx         0540  8  F0 00 FF 00 FE 00 00 2F 
   322)       276.2  Rx         0280  8  01 0D 85 0C 0F 00 33 0F 
   323)       276.6  Rx         0288  8  2C 6C 13 04 00 50 8D 0F 
   324)       277.3  Rx         0380  8  00 53 00 45 20 00 00 0D 
   325)       277.8  Rx         04A0  8  00 00 00 00 00 00 00 00 
   326)       278.2  Rx         0488  8  16 1B 1B 7E FE FF 49 20 
   327)       278.6  Rx         04A8  8  25 80 12 14 00 00 10 B3 
   328)       279.1  Rx         05A0  8  7C 00 00 12 00 DC 10 AB 
   329)       281.3  Rx         0480  8  1C 00 4D 87 19 00 06 C9 
   330)       281.9  Rx         0588  8  1A 83 7E 00 00 00 00 00 
   331)       282.1  Rx         0440  8  00 80 00 FE 80 00 00 00 
   332)       282.3  Rx         05DC  8  77 18 C0 3F 1E 00 30 42 
   333)       282.7  Rx         056A  8  D1 00 08 00 1A 00 02 C1 
   334)       284.9  Rx         0280  8  01 0D 85 0C 0F 00 33 0F 
   335)       285.3  Rx         0288  8  2C 6C 13 04 00 50 8D 0F 
   336)       286.0  Rx         0540  8  00 00 FF 00 FE 00 00 2F 
   337)       286.2  Rx         01A0  8  00 4A 00 00 00 FE 00 53 
   338)       286.5  Rx         0380  8  00 53 00 45 20 00 00 0D 
   339)       287.0  Rx         038A  4  D5 01 D4 00 
   340)       287.6  Rx         0488  8  47 1B 1B 7E FE FF 08 30 
   341)       288.0  Rx         04A0  8  00 00 00 00 00 00 00 00 
   342)       291.5  Rx         0280  8  01 0D 85 0C 0F 00 33 0F 
   343)       292.0  Rx         0440  8  00 80 00 FE 80 00 08 00 
   344)       292.2  Rx         0288  8  64 6C 13 04 00 50 8D 0F 
   345)       292.6  Rx         0380  8  00 53 00 45 20 00 00 0D 
   346)       293.1  Rx         01A0  8  00 4A 00 00 00 FE 00 54 
   347)       293.9  Rx         01AC  8  2E 82 00 00 69 01 16 D2 
   348)       294.4  Rx         0488  8  19 1B 1B 7E FE FF 26 40 
   349)       294.8  Rx         04A0  8  00 00 00 00 00 00 00 00 
   350)       295.3  Rx         04A8  8  12 00 0D 14 00 00 20 2B 
   351)       295.7  Rx         05A0  8  7C 00 00 22 00 DC 10 AB 
   352)       296.0  Rx         0540  8  10 00 FF 00 FE 00 00 2F 
   353)       296.6  Rx         0480  8  1C 00 55 87 19 00 06 D1 
   354)       297.7  Rx         0588  8  1A 83 7E 00 00 00 00 00 
   355)       298.5  Rx         056A  8  C1 00 08 00 1A 00 02 D1 
   356)       300.5  Rx         0280  8  01 0D 85 0C 0F 00 33 0F 
   357)       301.0  Rx         0288  8  64 6C 13 04 00 50 8D 0F 
   358)       301.5  Rx         01A0  8  00 4A 00 00 00 FE 00 55 
   359)       301.9  Rx         0440  8  00 80 00 FE 80 00 10 00 
   360)       302.8  Rx         0380  8  00 53 00 45 20 00 00 0D 
   361)       303.1  Rx         038A  4  E5 01 E4 00 
   362)       303.7  Rx         0488  8  D0 1B 1B 7E FE FF FF 50 
   363)       304.1  Rx         04A0  8  00 00 00 00 00 00 00 00 
   364)       305.9  Rx         0540  8  20 00 FF 00 FE 00 00 2F 
   365)       311.9  Rx         0440  8  00 80 00 FE 80 00 18 00 
   366)       315.8  Rx         0540  8  30 00 FF 00 FE 00 00 26 
   367)       317.7  Rx         01A0  8  00 4A 00 00 00 FE 00 56 
   368)       318.3  Rx         01AC  8  2C 83 00 00 69 01 15 D2 
   369)       320.3  Rx         0280  8  01 0D 7B 0C 0F 00 33 0F 
   370)       320.9  Rx         0288  8  64 6C 13 04 00 50 8D 0F 
   371)       321.4  Rx         0380  8  00 53 00 45 20 00 00 0D 
   372)       321.9  Rx         0440  8  00 80 00 FE 80 00 20 00 
   373)       322.2  Rx         04A0  8  00 00 00 00 00 00 00 00 
   374)       322.7  Rx         04A8  8  0C 00 12 14 00 00 30 3A 
   375)       323.6  Rx         0488  8  E0 1B 1B 7E FE FF FF 60 
   376)       324.0  Rx         05A0  8  7C 00 00 32 00 DC 10 AB 
   377)       325.3  Rx         0480  8  54 00 5B 87 19 00 06 97 
   378)       325.7  Rx         0588  8  1A 86 7E 82 00 00 00 00 
   379)       326.0  Rx         0540  8  40 00 FF 00 FE 00 00 26 
   380)       326.2  Rx         056A  8  F1 00 08 00 1A 00 02 E1 
   381)       328.4  Rx         0280  8  01 0D 7B 0C 0F 00 33 0F 
   382)       328.8  Rx         0288  8  64 6C 13 04 00 50 8D 0F 
   383)       329.3  Rx         01A0  8  00 4A 00 00 00 FE 00 57 
   384)       330.2  Rx         0380  8  00 53 00 45 20 00 00 0D 
   385)       330.5  Rx         038A  4  F5 01 F4 00 
   386)       331.1  Rx         0488  8  F0 1B 1B 7E FE FF FF 70 
   387)       331.7  Rx         04A0  8  00 00 00 00 00 00 00 00 
   388)       332.0  Rx         0440  8  00 80 00 FE 80 00 28 00 
   389)       335.2  Rx         01A0  8  00 4A 00 00 00 FE 00 58 
   390)       335.6  Rx         01AC  8  2B 84 00 00 69 01 15 D2 
   391)       335.9  Rx         0540  8  50 00 FF 00 FE 00 00 26 
   392)       336.1  Rx         0280  8  01 0D 7B 0C 0F 00 33 0F 
   393)       336.5  Rx         0288  8  8A 6C 13 04 00 50 8D 0F 
   394)       337.2  Rx         0380  8  00 53 00 45 20 00 00 0D 
   395)       337.6  Rx         04A0  8  00 00 00 00 00 00 00 00 
   396)       338.0  Rx         04A8  8  12 80 08 14 00 00 40 CE 
   397)       338.5  Rx         0488  8  00 1B 1B 7E FE FF FF 80 
   398)       338.9  Rx         05A0  8  7C 00 00 42 00 DC 10 AB 
   399)       340.7  Rx         0480  8  54 00 61 87 19 00 06 AD 
   400)       341.2  Rx         0588  8  1A 86 7E 00 00 00 00 00 
   401)       341.8  Rx         056A  8  E1 00 08 00 1A 00 02 F1 
   402)       342.0  Rx         0440  8  00 80 00 FE 80 00 30 00 
   403)       343.9  Rx         0280  8  01 0D 7B 0C 0F 00 33 0F 
   404)       344.3  Rx         0288  8  8A 6C 13 04 00 50 8D 0F 
   405)       345.2  Rx         01A0  8  00 4A 00 00 00 FE 00 59 
   406)       345.6  Rx         0380  8  00 53 00 46 20 00 00 0D 
   407)       345.9  Rx         0540  8  60 00 FF 00 FE 00 00 26 
   408)       346.1  Rx         038A  4  05 01 04 00 
   409)       346.4  Rx         0488  8  10 1B 1B 7E FE FF FF 90 
   410)       347.0  Rx         04A0  8  00 00 00 00 00 00 00 00 
   411)       350.4  Rx         0280  8  01 0D 68 0C 0F 00 33 0F 
   412)       351.0  Rx         0288  8  8A 6C 13 04 00 50 8D 0F 
   413)       351.4  Rx         01A0  8  00 4A 00 00 00 FE 00 5A 
   414)       352.0  Rx         0440  8  00 80 00 FE 80 00 38 00 
   415)       352.4  Rx         0380  8  00 53 00 46 20 00 00 0D 
   416)       352.9  Rx         01AC  8  29 85 00 00 69 01 16 D2 
   417)       353.4  Rx         0488  8  20 1B 1B 7E FE FF FF A0 
   418)       353.8  Rx         04A0  8  00 00 00 00 00 00 00 00 
   419)       354.7  Rx         04A8  8  0C 80 12 14 00 00 50 DA 
   420)       355.5  Rx         05A0  8  7B 00 00 52 00 DC 10 AB 
   421)       355.9  Rx         0540  8  70 00 FF 00 FE 00 00 2F 
   422)       356.4  Rx         0480  8  54 00 67 87 19 00 06 AB 
   423)       357.4  Rx         0588  8  1A 86 7E 84 00 00 00 00 
   424)       358.3  Rx         056A  8  11 00 08 00 1A 00 02 01 
   425)       359.1  Rx         0520  8  60 44 00 93 7A 57 33 03 
   426)       361.4  Rx         0280  8  01 0D 68 0C 0F 00 33 0F 
   427)       361.9  Rx         0440  8  00 80 00 FE 80 00 40 00 
   428)       362.1  Rx         0288  8  8A 6C 13 04 00 50 8D 0F 
   429)       362.4  Rx         0380  8  00 53 00 46 20 00 00 0D 
   430)       362.9  Rx         01A0  8  00 4A 00 00 00 FE 00 5B 
   431)       363.3  Rx         0390  8  6A 40 51 00 00 00 20 00 
   432)       363.8  Rx         0488  8  30 1B 1B 7E FE FF FF B0 
   433)       364.6  Rx         04A0  8  00 00 00 00 00 00 00 00 
   434)       365.0  Rx         038A  4  15 01 14 00 
   435)       365.9  Rx         0540  8  80 00 FF 00 FE 00 00 2F 
   436)       366.8  Rx         05D0  8  C0 04 51 AF 29 48 01 00 
   437)       371.9  Rx         0440  8  00 80 00 FE 80 00 48 00 
   438)       375.9  Rx         0540  8  90 00 FF 00 FE 00 00 2F 
   439)       378.3  Rx         01A0  8  00 4A 00 00 00 FE 00 5C 
   440)       378.7  Rx         01AC  8  29 86 00 00 69 01 15 D2 
   441)       379.3  Rx         0280  8  01 0D 68 0C 0F 00 33 0F 
   442)       379.7  Rx         0288  8  E8 6C 13 04 00 50 8D 0F 
   443)       380.2  Rx         0380  8  00 53 00 46 20 00 00 0D 
   444)       380.7  Rx         04A0  8  00 00 00 00 00 00 00 00 
   445)       381.2  Rx         0488  8  40 1B 1B 7E FE FF FF C0 
   446)       381.8  Rx         04A8  8  1F 00 12 14 00 00 60 79 
   447)       382.0  Rx         0440  8  00 80 00 FE 80 00 50 00 
   448)       382.3  Rx         05A0  8  7B 00 00 62 00 DC 10 AB 
   449)       383.9  Rx         0480  8  54 00 6D 87 19 00 06 A1 
   450)       384.4  Rx         0588  8  1A 86 7E 00 00 00 00 00 
   451)       384.8  Rx         05DC  8  77 18 C0 3F 1E 00 30 42 
   452)       385.3  Rx         056A  8  01 00 08 00 1A 00 02 11 
   453)       385.9  Rx         0540  8  A0 00 FF 00 FE 00 00 2F 
   454)       387.6  Rx         0280  8  01 0D 68 0C 0F 00 33 0F 
   455)       387.9  Rx         0288  8  E8 6C 13 04 00 50 8D 0F 
   456)       388.4  Rx         01A0  8  00 4A 00 00 00 FE 00 5D 
   457)       389.2  Rx         0380  8  00 53 00 49 20 00 00 0D 
   458)       389.6  Rx         038A  4  25 01 24 00 
   459)       390.1  Rx         0488  8  50 1B 1B 7E FE FF FF D0 
   460)       390.6  Rx         04A0  8  00 00 00 00 00 00 00 00 
   461)       391.9  Rx         0440  8  00 80 00 FE 80 00 58 00 
   462)       394.3  Rx         0280  8  01 0D 5B 0C 0F 00 33 0F 
   463)       394.7  Rx         0288  8  E8 6C 13 04 00 50 8D 0F 
   464)       395.2  Rx         01A0  8  00 4A 00 00 00 FE 00 5E 
   465)       395.9  Rx         0540  8  B0 00 FF 00 FE 00 00 26 
   466)       396.2  Rx         01AC  8  29 87 00 00 69 01 14 D2 
   467)       396.4  Rx         0380  8  00 53 00 49 20 00 00 0D 
   468)       397.0  Rx         0488  8  60 1B 1B 7E FE FF FF E0 
   469)       397.5  Rx         04A0  8  00 00 00 00 00 00 00 00 
   470)       398.3  Rx         04A8  8  00 00 12 14 00 00 70 76 
   471)       398.8  Rx         05A0  8  7B 00 00 72 00 DC 10 AB 
   472)       399.7  Rx         0480  8  84 00 73 87 19 00 06 6F 
   473)       400.6  Rx         0588  8  1A 88 7E 83 00 00 00 00 
   474)       401.5  Rx         056A  8  31 00 08 00 1A 00 02 21 
   475)       401.8  Rx         0440  8  00 80 00 FE 80 00 60 00 
   476)       404.5  Rx         0280  8  01 0D 5B 0C 0F 00 33 0F 
   477)       405.0  Rx         0288  8  E8 6C 13 04 00 50 8D 0F 
   478)       405.4  Rx         01A0  8  00 4A 00 00 00 FE 00 5F 
   479)       405.9  Rx         0540  8  C0 00 FF 00 FE 00 00 26 
   480)       406.2  Rx         0380  8  00 53 00 49 20 00 00 0D 
   481)       406.7  Rx         038A  4  35 01 34 00 
   482)       407.2  Rx         0488  8  70 1B 1B 7E FE FF FF F0 
   483)       407.7  Rx         04A0  8  00 00 00 00 00 00 00 00 
   484)       410.6  Rx         01A0  8  00 4A 00 00 00 FE 00 50 
   485)       411.9  Rx         0440  8  00 80 00 FE 80 00 68 00 
   486)       413.0  Rx         01AC  8  21 88 00 00 69 01 13 D2 
   487)       413.6  Rx         0280  8  01 0D 5B 0C 0F 00 33 0F 
   488)       413.9  Rx         0288  8  2C 6C 13 04 00 50 8D 0F 
   489)       414.4  Rx         0380  8  00 53 00 49 20 00 00 0D 
   490)       414.9  Rx         04A0  8  00 00 00 00 00 00 00 00 
   491)       415.8  Rx         0488  8  43 1B 1B 7E FE FF 3C 00 
   492)       416.0  Rx         0540  8  D0 00 FF 00 FE 00 00 26 
   493)       416.3  Rx         04A8  8  12 80 0D 14 00 00 80 0B 
   494)       416.8  Rx         05A0  8  7B 00 00 82 00 DC 10 AB 
   495)       417.4  Rx         0480  8  84 00 7C 87 19 00 06 60 
   496)       418.3  Rx         0588  8  1A 88 7E 00 00 00 00 00 
   497)       419.5  Rx         056A  8  21 00 08 00 1A 00 02 31 
   498)       421.8  Rx         0440  8  00 80 00 FE 80 00 70 00 
   499)       422.1  Rx         0280  8  01 0D 5B 0C 0F 00 33 0F 
   500)       422.6  Rx         0288  8  2C 6C 13 04 00 50 8D 0F 
   501)       423.0  Rx         01A0  8  00 4A 00 00 00 FE 00 51 
   502)       423.9  Rx         0380  8  00 53 00 4A 20 00 00 0D 
   503)       424.2  Rx         038A  4  45 01 44 00 
   504)       424.7  Rx         0488  8  4A 1B 1B 7E FE FF 25 10 
   505)       425.2  Rx         04A0  8  00 00 00 00 00 00 00 00 
   506)       425.9  Rx         0540  8  E0 00 FF 00 FE 00 00 26 
   507)       431.9  Rx         0440  8  00 80 00 FE 80 00 78 00 
   508)       435.9  Rx         0540  8  F0 00 FF 00 FE 00 00 2F 
   509)       437.6  Rx         0280  8  01 0D 6A 0C 0F 00 33 0F 
   510)       438.1  Rx         01A0  8  00 4A 00 00 00 FE 00 52 
   511)       438.5  Rx         0288  8  2C 6C 13 04 00 50 8D 0F 
   512)       439.0  Rx         01AC  8  2B 89 00 00 69 01 18 D2 
   513)       439.4  Rx         0380  8  00 53 00 4A 20 00 00 0D 
   514)       439.9  Rx         0488  8  16 1B 1B 7E FE FF 49 20 
   515)       440.4  Rx         04A0  8  00 00 00 00 00 00 00 00 
   516)       441.2  Rx         04A8  8  12 00 0D 14 00 00 90 9B 
   517)       441.9  Rx         0440  8  00 80 00 FE 80 00 00 00 
   518)       442.2  Rx         05A0  8  7B 00 00 92 00 DC 10 AB 
   519)       443.9  Rx         0480  8  84 00 85 87 19 00 06 99 
   520)       444.3  Rx         056A  8  51 00 08 00 1A 00 02 41 
   521)       444.8  Rx         0588  8  1A 88 7E 03 00 00 00 00 
   522)       445.9  Rx         0540  8  00 00 FF 00 FE 00 00 2F 
   523)       446.9  Rx         01A0  8  00 4A 00 00 00 FE 00 53 
   524)       447.8  Rx         04A0  8  00 00 00 00 00 00 00 00 
   525)       448.1  Rx         038A  4  55 01 54 00 
   526)       448.7  Rx         0280  8  01 0D 6A 0C 0F 00 33 0F 
   527)       449.2  Rx         0288  8  2C 6C 13 04 00 50 8D 0F 
   528)       449.7  Rx         0380  8  00 53 00 4A 20 00 00 0D 
   529)       450.1  Rx         0488  8  47 1B 1B 7E FE FF 08 30 
   530)       451.9  Rx         0440  8  00 80 00 FE 80 00 08 00 
   531)       454.1  Rx         01A0  8  00 4A 00 00 00 FE 00 54 
   532)       454.7  Rx         0280  8  01 0D 6A 0C 0F 00 33 0F 
   533)       455.2  Rx         01AC  8  25 8A 00 00 69 01 15 D2 
   534)       455.6  Rx         0288  8  64 6C 13 04 00 50 8D 0F 
   535)       456.0  Rx         0540  8  10 00 FF 00 FE 00 00 2F 
   536)       456.2  Rx         0380  8  00 53 00 4A 20 00 00 0D 
   537)       456.4  Rx         0488  8  19 1B 1B 7E FE FF 26 40 
   538)       457.2  Rx         04A0  8  00 00 00 00 00 00 00 00 
   539)       457.9  Rx         04A8  8  00 00 0D 14 00 00 A0 B9 
   540)       458.3  Rx         05A0  8  7C 00 00 A2 00 DC 10 AB 
   541)       459.3  Rx         0480  8  84 00 8D 87 19 00 06 91 
   542)       460.1  Rx         0588  8  1A 88 7E 00 00 00 00 00 
   543)       461.9  Rx         0440  8  00 80 00 FE 80 00 10 00 
   544)       462.1  Rx         056A  8  41 00 08 00 1A 00 02 51 
   545)       464.1  Rx         0390  8  6A 40 51 00 00 00 20 00 
   546)       465.0  Rx         01A0  8  00 4A 00 00 00 FE 00 55 
   547)       465.9  Rx         0540  8  20 00 FF 00 FE 00 00 2F 
   548)       467.2  Rx         0280  8  01 0D 6C 0C 0F 00 33 0F 
   549)       467.6  Rx         0288  8  64 6C 13 04 00 50 8D 0F 
   550)       468.1  Rx         0380  8  00 53 00 48 20 00 00 0D 
   551)       468.3  Rx         038A  4  65 01 64 00 
   552)       469.4  Rx         04A0  8  00 00 00 00 00 00 00 00 
   553)       469.8  Rx         0488  8  D0 1B 1B 7E FE FF FF 50 
   554)       471.2  Rx         05D0  8  C0 04 51 AF 29 48 01 00 
   555)       471.9  Rx         0440  8  00 80 00 FE 80 00 18 00 
   556)       472.8  Rx         0280  8  01 0D 6C 0C 0F 00 33 0F 
   557)       473.2  Rx         01A0  8  00 4A 00 00 00 FE 00 56 
   558)       473.6  Rx         0288  8  64 6C 13 04 00 50 8D 0F 
   559)       474.1  Rx         01AC  8  22 8B 00 00 69 01 13 D2 
   560)       474.6  Rx         0380  8  00 53 00 48 20 00 00 0D 
   561)       475.1  Rx         0488  8  E0 1B 1B 7E FE FF FF 60 
   562)       475.5  Rx         04A0  8  00 00 00 00 00 00 00 00 
   563)       476.0  Rx         0540  8  30 00 FF 00 FE 00 00 26 
   564)       476.3  Rx         04A8  8  00 00 15 14 00 00 B0 B1 
   565)       476.9  Rx         05A0  8  7C 00 00 B2 00 DC 10 AB 
   566)       478.2  Rx         0480  8  C2 00 96 87 19 00 06 CC 
   567)       479.1  Rx         0588  8  1A 88 7E 00 00 00 00 00 
   568)       479.5  Rx         05DC  8  77 18 C0 3F 1E 00 30 42 
   569)       480.4  Rx         056A  8  71 00 08 00 1A 00 02 61 
   570)       481.9  Rx         0440  8  00 80 00 FE 80 00 20 00 
   571)       483.1  Rx         01A0  8  00 4A 00 00 00 FE 00 57 
   572)       483.4  Rx         038A  4  75 01 74 00 
   573)       483.9  Rx         04A0  8  00 00 00 00 00 00 00 00 
   574)       484.4  Rx         0280  8  01 0D 6C 0C 0F 00 33 0F 
   575)       484.8  Rx         0288  8  64 6C 13 04 00 50 8D 0F 
   576)       485.3  Rx         0380  8  00 53 00 48 20 00 00 0D 
   577)       485.7  Rx         0488  8  F0 1B 1B 7E FE FF FF 70 
   578)       486.0  Rx         0540  8  40 00 FF 00 FE 00 00 26 
   579)       491.9  Rx         0440  8  00 80 00 FE 80 00 28 00 
   580)       495.9  Rx         0540  8  50 00 FF 00 FE 00 00 26 
   581)       498.3  Rx         01A0  8  00 4A 00 00 00 FE 00 58 
   582)       498.8  Rx         0280  8  01 0D 6C 0C 0F 00 33 0F 
   583)       499.3  Rx         01AC  8  25 8C 00 00 69 01 13 D2 
   584)       499.8  Rx         0288  8  8A 6C 13 04 00 50 8D 0F 
   585)       500.2  Rx         0380  8  00 53 00 48 20 00 00 0D 
   586)       500.7  Rx         0488  8  00 1B 1B 7E FE FF FF 80 
   587)       501.2  Rx         04A0  8  00 00 00 00 00 00 00 00 
   588)       501.9  Rx         0440  8  00 80 00 FE 80 00 30 00 
   589)       502.2  Rx         04A8  8  06 80 0D 14 00 00 C0 5F 
   590)       502.6  Rx         05A0  8  7B 00 00 C2 00 DC 10 AB 
   591)       503.9  Rx         0480  8  C2 00 9F 87 19 00 06 C5 
   592)       504.7  Rx         0588  8  1A 88 7E 00 00 00 00 00 
   593)       505.5  Rx         056A  8  61 00 08 00 1A 00 02 71 
   594)       505.9  Rx         0540  8  60 00 FF 00 FE 00 00 26 
   595)       508.1  Rx         01A0  8  00 4A 00 00 00 FE 00 59 
   596)       508.6  Rx         0280  8  01 0D 6A 0C 0F 00 33 0F 
   597)       509.0  Rx         0288  8  8A 6C 13 04 00 50 8D 0F 
   598)       509.5  Rx         0380  8  00 53 00 48 20 00 00 0D 
   599)       509.9  Rx         038A  4  85 01 84 00 
   600)       510.4  Rx         0488  8  10 1B 1B 7E FE FF FF 90 
   601)       510.9  Rx         04A0  8  00 00 00 00 00 00 00 00 
   602)       511.9  Rx         0440  8  00 80 00 FE 80 00 38 00 
   603)       514.2  Rx         01A0  8  00 4A 00 00 00 FE 00 5A 
   604)       514.7  Rx         0280  8  01 0D 6A 0C 0F 00 33 0F 
   605)       515.9  Rx         0540  8  70 00 FF 00 FE 00 00 2F 
   606)       516.3  Rx         01AC  8  2F 8D 00 00 69 01 18 D2 
   607)       516.9  Rx         0288  8  8A 6C 13 04 00 50 8D 0F 
   608)       517.4  Rx         0380  8  00 53 00 48 20 00 00 0D 
   609)       518.1  Rx         0488  8  20 1B 1B 7E FE FF FF A0 
   610)       519.1  Rx         04A0  8  00 00 00 00 00 00 00 00 
   611)       519.8  Rx         04A8  8  00 00 10 14 00 00 D0 D4 
   612)       520.3  Rx         05A0  8  7C 00 00 D2 00 DC 10 AB 
   613)       521.4  Rx         0480  8  C2 00 A5 87 19 00 06 FF 
   614)       521.9  Rx         0440  8  00 80 00 FE 80 00 40 00 
   615)       522.4  Rx         0588  8  1A 86 7E 80 00 00 00 00 
   616)       523.2  Rx         056A  8  91 00 08 00 1A 00 02 81 
   617)       525.6  Rx         01A0  8  00 4A 00 00 00 FE 00 5B 
   618)       525.9  Rx         0540  8  80 00 FF 00 FE 00 00 2F 
   619)       526.1  Rx         038A  4  95 01 94 00 
   620)       526.4  Rx         04A0  8  00 00 00 00 00 00 00 00 
   621)       527.1  Rx         0280  8  01 0D 6A 0C 0F 00 33 0F 
   622)       527.6  Rx         0288  8  8A 6C 13 04 00 50 8D 0F 
   623)       528.0  Rx         0380  8  00 53 00 48 20 00 00 0D 
   624)       528.4  Rx         0488  8  30 1B 1B 7E FE FF FF B0 
   625)       531.1  Rx         01A0  8  00 4A 00 00 00 FE 00 5C 
   626)       531.8  Rx         0280  8  01 0D 6A 0C 0F 00 33 0F 
   627)       532.0  Rx         0440  8  00 80 00 FE 80 00 48 00 
   628)       532.3  Rx         01AC  8  20 8E 00 00 69 01 14 D2 
   629)       532.7  Rx         0288  8  E8 6C 13 04 00 50 8D 0F 
   630)       533.2  Rx         0380  8  00 53 00 48 20 00 00 0D 
   631)       533.7  Rx         0488  8  40 1B 1B 7E FE FF FF C0 
   632)       534.1  Rx         04A0  8  00 00 00 00 00 00 00 00 
   633)       534.5  Rx         04A8  8  00 00 10 14 00 00 E0 E4 
   634)       535.4  Rx         05A0  8  7B 00 00 E2 00 DC 10 AB 
   635)       536.0  Rx         0540  8  90 00 FF 00 FE 00 00 2F 
   636)       537.7  Rx         0480  8  C2 00 AB 87 19 00 06 F1 
   637)       538.2  Rx         0588  8  1A 86 7E 81 00 00 00 00 
   638)       538.6  Rx         056A  8  81 00 08 00 1A 00 02 91 
   639)       540.7  Rx         01A0  8  00 4A 00 00 00 FE 00 5D 
   640)       541.3  Rx         0280  8  01 0D 63 0C 0F 00 33 0F 
   641)       541.8  Rx         0288  8  E8 6C 13 04 00 50 8D 0F 
   642)       542.1  Rx         0440  8  00 80 00 FE 80 00 50 00 
   643)       542.7  Rx         0380  8  00 53 00 48 20 00 00 0D 
   644)       543.1  Rx         038A  4  A5 01 A4 00 
   645)       543.5  Rx         0488  8  50 1B 1B 7E FE FF FF D0 
   646)       544.0  Rx         04A0  8  00 00 00 00 00 00 00 00 
   647)       545.9  Rx         0540  8  A0 00 FF 00 FE 00 00 2F 
   648)       551.9  Rx         0440  8  00 80 00 FE 80 00 58 00 
   649)       555.9  Rx         0540  8  B0 00 FF 00 FE 00 00 26 
   650)       556.7  Rx         01A0  8  00 4A 00 00 00 FE 00 5E 
   651)       557.3  Rx         0280  8  01 0D 63 0C 0F 00 33 0F 
   652)       557.8  Rx         01AC  8  20 8F 00 00 69 01 15 D2 
   653)       558.2  Rx         0288  8  E8 6C 13 04 00 50 8D 0F 
   654)       558.7  Rx         0380  8  00 53 00 48 20 00 00 0D 
   655)       559.1  Rx         0488  8  60 1B 1B 7E FE FF FF E0 
   656)       559.6  Rx         04A0  8  00 00 00 00 00 00 00 00 
   657)       560.0  Rx         04A8  8  00 00 08 14 00 00 F0 EC 
   658)       560.5  Rx         05A0  8  7C 00 00 F2 00 DC 10 AB 
   659)       561.5  Rx         0480  8  1C 00 B1 87 19 00 06 35 
   660)       561.9  Rx         0440  8  00 80 00 FE 80 00 60 00 
   661)       563.6  Rx         0588  8  1A 86 7E 00 00 00 00 00 
   662)       564.4  Rx         0520  8  A6 87 00 93 7A 57 33 03 
   663)       564.9  Rx         056A  8  B1 00 08 00 1A 00 02 A1 
   664)       565.9  Rx         0540  8  C0 00 FF 00 FE 00 00 26 
   665)       567.0  Rx         0390  8  6A 40 51 00 00 00 20 00 
   666)       567.5  Rx         01A0  8  00 4A 00 00 00 FE 00 5F 
   667)       568.3  Rx         04A0  8  00 00 00 00 00 00 00 00 
   668)       568.6  Rx         038A  4  B5 01 B4 00 
   669)       569.2  Rx         0280  8  01 0D 63 0C 0F 00 33 0F 
   670)       569.7  Rx         0288  8  E8 6C 13 04 00 50 8D 0F 
   671)       570.2  Rx         0380  8  00 53 00 48 20 00 00 0D 
   672)       570.7  Rx         0488  8  70 1B 1B 7E FE FF FF F0 
   673)       571.9  Rx         0440  8  00 80 00 FE 80 00 68 00 
   674)       572.2  Rx         05D0  8  C0 04 51 AF 29 48 01 00 
   675)       574.2  Rx         01A0  8  00 4A 00 00 00 FE 00 50 
   676)       574.8  Rx         0280  8  01 0D 63 0C 0F 00 33 0F 
   677)       575.3  Rx         01AC  8  29 80 00 00 69 01 13 D2 
   678)       575.8  Rx         0288  8  2C 6C 13 04 00 50 8D 0F 
   679)       576.0  Rx         0540  8  D0 00 FF 00 FE 00 00 26 
   680)       576.3  Rx         0380  8  00 53 00 48 20 00 00 0D 
   681)       576.8  Rx         0488  8  43 1B 1B 7E FE FF 3C 00 
   682)       577.3  Rx         04A0  8  00 00 00 00 00 00 00 00 
   683)       577.8  Rx         04A8  8  06 00 10 14 00 00 00 02 
   684)       578.2  Rx         05A0  8  7C 00 00 02 00 DC 10 AB 
   685)       579.5  Rx         05DC  8  77 18 C0 3F 1E 00 30 42 
   686)       580.0  Rx         0480  8  1C 00 B7 87 19 00 06 33 
   687)       581.3  Rx         0588  8  1A 86 7E 01 00 00 00 00 
   688)       581.9  Rx         056A  8  A1 00 08 00 1A 00 02 B1 
   689)       582.1  Rx         0440  8  00 80 00 FE 80 00 70 00 
   690)       584.3  Rx         01A0  8  00 4A 00 00 00 FE 00 51 
   691)       584.9  Rx         0280  8  01 0D 6A 0C 0F 00 33 0F 
   692)       585.3  Rx         0288  8  2C 6C 13 04 00 50 8D 0F 
   693)       585.7  Rx         0380  8  00 53 00 49 20 00 00 0D 
   694)       586.0  Rx         0540  8  E0 00 FF 00 FE 00 00 26 
   695)       586.2  Rx         038A  4  C5 01 C4 00 
   696)       586.7  Rx         0488  8  4A 1B 1B 7E FE FF 25 10 
   697)       587.2  Rx         04A0  8  00 00 00 00 00 00 00 00 
   698)       591.0  Rx         01A0  8  00 4A 00 00 00 FE 00 52 
   699)       591.5  Rx         0280  8  01 0D 6A 0C 0F 00 33 0F 
   700)       591.9  Rx         0440  8  00 80 00 FE 80 00 78 00 
   701)       592.1  Rx         01AC  8  2D 81 00 00 69 01 16 D2 
   702)       592.6  Rx         0288  8  2C 6C 13 04 00 50 8D 0F 
   703)       593.1  Rx         0380  8  00 53 00 49 20 00 00 0D 
   704)       593.5  Rx         0488  8  16 1B 1B 7E FE FF 49 20 
   705)       593.9  Rx         04A0  8  00 00 00 00 00 00 00 00 
   706)       594.4  Rx         04A8  8  06 00 10 14 00 00 10 12 
   707)       594.9  Rx         05A0  8  7B 00 00 12 00 DC 10 AB 
   708)       595.8  Rx         0480  8  1C 00 BD 87 19 00 06 39 
   709)       596.1  Rx         0540  8  F0 00 FF 00 FE 00 00 2F 
   710)       596.8  Rx         0588  8  1A 85 7E 00 00 00 00 00 
   711)       598.0  Rx         056A  8  D1 00 08 00 1A 00 02 C1 
   712)       600.5  Rx         01A0  8  00 4A 00 00 00 FE 00 53 
   713)       600.9  Rx         038A  4  D5 01 D4 00 
   714)       601.4  Rx         04A0  8  00 00 00 00 00 00 00 00 
   715)       601.9  Rx         0440  8  00 80 00 FE 80 00 00 00 
   716)       602.5  Rx         0280  8  01 0D 6A 0C 0F 00 33 0F 
   717)       603.0  Rx         0288  8  2C 6C 13 04 00 50 8D 0F 
   718)       603.4  Rx         0380  8  00 53 00 48 20 00 00 0D 
   719)       603.8  Rx         0488  8  47 1B 1B 7E FE FF 08 30 
   720)       605.9  Rx         0540  8  00 00 FF 00 FE 00 00 2F 
   721)       611.8  Rx         0440  8  00 80 00 FE 80 00 08 00 
   722)       615.9  Rx         0540  8  10 00 FF 00 FE 00 00 2F 
   723)       616.9  Rx         01A0  8  00 4A 00 00 00 FE 00 54 
   724)       617.4  Rx         01AC  8  2C 82 00 00 69 01 14 D2 
   725)       619.1  Rx         0280  8  01 0D 71 0C 0F 00 33 0F 
   726)       619.5  Rx         0288  8  64 6C 13 04 00 50 8D 0F 
   727)       620.0  Rx         0380  8  00 53 00 48 20 00 00 0D 
   728)       620.4  Rx         04A0  8  00 00 00 00 00 00 00 00 
   729)       620.9  Rx         0488  8  19 1B 1B 7E FE FF 26 40 
   730)       621.9  Rx         0440  8  00 80 00 FE 80 00 10 00 
   731)       622.2  Rx         04A8  8  00 00 10 14 00 00 20 24 
   732)       622.7  Rx         05A0  8  7B 00 00 22 00 DC 10 AB 
   733)       623.2  Rx         0480  8  1C 00 C6 87 19 00 06 42 
   734)       625.0  Rx         0588  8  1A 85 7E 01 00 00 00 00 
   735)       625.5  Rx         056A  8  C1 00 08 00 1A 00 02 D1 
   736)       625.9  Rx         0540  8  20 00 FF 00 FE 00 00 2F 
   737)       628.3  Rx         01A0  8  00 4A 00 00 00 FE 00 55 
   738)       628.8  Rx         0280  8  01 0D 71 0C 0F 00 33 0F 
   739)       629.2  Rx         0288  8  64 6C 13 04 00 50 8D 0F 
   740)       629.7  Rx         0380  8  00 53 00 48 20 00 00 0D 
   741)       630.0  Rx         038A  4  E5 01 E4 00 
   742)       630.6  Rx         04A0  8  00 00 00 00 00 00 00 00 
   743)       631.1  Rx         0488  8  D0 1B 1B 7E FE FF FF 50 
   744)       631.9  Rx         0440  8  00 80 00 FE 80 00 18 00 
   745)       634.2  Rx         01A0  8  00 4A 00 00 00 FE 00 56 
   746)       634.8  Rx         0280  8  01 0D 71 0C 0F 00 33 0F 
   747)       635.3  Rx         01AC  8  2C 83 00 00 69 01 15 D2 
   748)       635.7  Rx         0288  8  64 6C 13 04 00 50 8D 0F 
   749)       636.0  Rx         0540  8  30 00 FF 00 FE 00 00 26 
   750)       636.2  Rx         0380  8  00 53 00 48 20 00 00 0D 
   751)       636.8  Rx         0488  8  E0 1B 1B 7E FE FF FF 60 
   752)       637.2  Rx         04A0  8  00 00 00 00 00 00 00 00 
   753)       637.7  Rx         04A8  8  00 00 12 14 00 00 30 36 
   754)       638.1  Rx         05A0  8  7B 00 00 32 00 DC 10 AB 
   755)       639.5  Rx         0480  8  54 00 CF 87 19 00 06 03 
   756)       639.9  Rx         0588  8  1A 85 7E 00 00 00 00 00 
   757)       640.4  Rx         056A  8  F1 00 08 00 1A 00 02 E1 
   758)       641.9  Rx         0440  8  00 80 00 FE 80 00 20 00 
   759)       643.4  Rx         01A0  8  00 4A 00 00 00 FE 00 57 
   760)       644.2  Rx         04A0  8  00 00 00 00 00 00 00 00 
   761)       644.5  Rx         038A  4  F5 01 F4 00 
   762)       645.2  Rx         0280  8  01 0D 71 0C 0F 00 33 0F 
   763)       645.6  Rx         0288  8  64 6C 13 04 00 50 8D 0F 
   764)       646.0  Rx         0380  8  00 53 00 47 20 00 00 0D 
   765)       646.2  Rx         0540  8  40 00 FF 00 FE 00 00 26 
   766)       646.5  Rx         0488  8  F0 1B 1B 7E FE FF FF 70 
   767)       651.8  Rx         0440  8  00 80 00 FE 80 00 28 00 
   768)       655.9  Rx         0540  8  50 00 FF 00 FE 00 00 26 
   769)       659.4  Rx         01A0  8  00 4A 00 00 00 FE 00 58 
   770)       659.9  Rx         01AC  8  2A 84 00 00 69 01 14 D2 
   771)       660.3  Rx         04A0  8  00 00 00 00 00 00 00 00 
   772)       660.8  Rx         04A8  8  00 00 0B 14 00 00 40 5F 
   773)       661.3  Rx         05A0  8  7B 00 00 42 00 DC 10 AB 
   774)       662.0  Rx         0440  8  00 80 00 FE 80 00 30 00 
   775)       662.2  Rx         0280  8  01 0D 71 0C 0F 00 33 0F 
   776)       662.5  Rx         0288  8  8A 6C 13 04 00 50 8D 0F 
   777)       662.9  Rx         0380  8  00 53 00 47 20 00 00 0D 
   778)       663.3  Rx         0488  8  00 1B 1B 7E FE FF FF 80 
   779)       665.1  Rx         0480  8  54 00 D7 87 19 00 06 1B 
   780)       665.9  Rx         0540  8  60 00 FF 00 FE 00 00 26 
   781)       666.3  Rx         0588  8  1A 85 7E 00 00 00 00 00 
   782)       666.8  Rx         056A  8  E1 00 08 00 1A 00 02 F1 
   783)       669.2  Rx         0390  8  6A 40 51 00 00 00 20 00 
   784)       669.7  Rx         01A0  8  00 4A 00 00 00 FE 00 59 
   785)       670.6  Rx         0280  8  01 0D 71 0C 0F 00 33 0F 
   786)       671.1  Rx         0288  8  8A 6C 13 04 00 50 8D 0F 
   787)       671.8  Rx         0380  8  00 53 00 47 20 00 00 0D 
   788)       672.0  Rx         0440  8  00 80 00 FE 80 00 38 00 
   789)       672.2  Rx         038A  4  05 01 04 00 
   790)       672.6  Rx         0488  8  10 1B 1B 7E FE FF FF 90 
   791)       673.1  Rx         04A0  8  00 00 00 00 00 00 00 00 
   792)       674.3  Rx         05D0  8  C0 04 51 AF 29 48 01 00 
   793)       675.9  Rx         0540  8  70 00 FF 00 FE 00 00 2F 
   794)       676.5  Rx         01A0  8  00 4A 00 00 00 FE 00 5A 
   795)       677.2  Rx         01AC  8  2A 85 00 00 69 01 15 D2 
   796)       677.6  Rx         04A0  8  00 00 00 00 00 00 00 00 
   797)       678.1  Rx         04A8  8  00 00 0D 14 00 00 50 49 
   798)       678.5  Rx         05A0  8  7C 00 00 52 00 DC 10 AB 
   799)       679.0  Rx         0280  8  01 0D 71 0C 0F 00 33 0F 
   800)       679.5  Rx         0288  8  8A 6C 13 04 00 50 8D 0F 
   801)       679.9  Rx         0380  8  00 53 00 47 20 00 00 0D 
   802)       680.4  Rx         0488  8  20 1B 1B 7E FE FF FF A0 
   803)       681.9  Rx         0440  8  00 80 00 FE 80 00 40 00 
   804)       682.2  Rx         05DC  8  77 18 C0 3F 1E 00 30 42 
   805)       682.4  Rx         0480  8  54 00 E0 87 19 00 06 2C 
   806)       683.7  Rx         0588  8  1A 85 7E 00 00 00 00 00 
   807)       684.1  Rx         056A  8  11 00 08 00 1A 00 02 01 
   808)       685.9  Rx         0540  8  80 00 FF 00 FE 00 00 2F 
   809)       686.4  Rx         01A0  8  00 4A 00 00 00 FE 00 5B 
   810)       687.5  Rx         0280  8  01 0D 71 0C 0F 00 33 0F 
   811)       687.9  Rx         0288  8  8A 6C 13 04 00 50 8D 0F 
   812)       688.4  Rx         0380  8  00 53 00 47 20 00 00 0D 
   813)       688.7  Rx         038A  4  15 01 14 00 
   814)       689.3  Rx         04A0  8  00 00 00 00 00 00 00 00 
   815)       689.7  Rx         0488  8  30 1B 1B 7E FE FF FF B0 
   816)       691.9  Rx         0440  8  00 80 00 FE 80 00 48 00 
   817)       693.4  Rx         01A0  8  00 4A 00 00 00 FE 00 5C 
   818)       693.7  Rx         01AC  8  29 86 00 00 69 01 15 D2 
   819)       694.3  Rx         0280  8  01 0D 71 0C 0F 00 33 0F 
   820)       694.7  Rx         0288  8  E8 6C 13 04 00 50 8D 0F 
   821)       695.2  Rx         0380  8  00 53 00 47 20 00 00 0D 
   822)       695.7  Rx         0488  8  40 1B 1B 7E FE FF FF C0 
   823)       696.0  Rx         0540  8  90 00 FF 00 FE 00 00 2F 
   824)       696.3  Rx         04A0  8  00 00 00 00 00 00 00 00 
   825)       696.5  Rx         04A8  8  00 00 0D 14 00 00 60 79 
   826)       697.2  Rx         05A0  8  7B 00 00 62 00 DC 10 AB 
   827)       698.1  Rx         0480  8  54 00 E9 87 19 00 06 25 
   828)       699.0  Rx         0588  8  1A 85 7E 00 00 00 00 00 
   829)       699.4  Rx         056A  8  01 00 08 00 1A 00 02 11 
   830)       701.9  Rx         0440  8  00 80 00 FE 80 00 50 00 
   831)       703.2  Rx         01A0  8  00 4A 00 00 00 FE 00 5D 
   832)       703.7  Rx         04A0  8  00 00 00 00 00 00 00 00 
   833)       704.2  Rx         0280  8  01 0D 71 0C 0F 00 33 0F 
   834)       704.6  Rx         0288  8  E8 6C 13 04 00 50 8D 0F 
   835)       705.1  Rx         0380  8  00 53 00 47 20 00 00 0D 
   836)       705.4  Rx         038A  4  25 01 24 00 
   837)       705.9  Rx         0488  8  50 1B 1B 7E FE FF FF D0 
   838)       706.1  Rx         0540  8  A0 00 FF 00 FE 00 00 2F 
   839)       711.9  Rx         0440  8  00 80 00 FE 80 00 58 00 
   840)       715.9  Rx         0540  8  B0 00 FF 00 FE 00 00 26 
   841)       718.4  Rx         01A0  8  00 4A 00 00 00 FE 00 5E 
   842)       718.8  Rx         01AC  8  28 87 00 00 69 01 15 D2 
   843)       721.9  Rx         0440  8  00 80 00 FE 80 00 60 00 
   844)       722.8  Rx         0280  8  01 0D 71 0C 0F 00 33 0F 
   845)       723.3  Rx         0288  8  E8 6C 13 04 00 50 8D 0F 
   846)       723.7  Rx         0380  8  00 53 00 47 20 00 00 0D 
   847)       724.2  Rx         04A0  8  00 00 00 00 00 00 00 00 
   848)       724.6  Rx         0488  8  60 1B 1B 7E FE FF FF E0 
   849)       725.1  Rx         04A8  8  0C 00 10 14 00 00 70 78 
   850)       725.5  Rx         05A0  8  7C 00 00 72 00 DC 10 AB 
   851)       725.9  Rx         0480  8  84 00 F2 87 19 00 06 EE 
   852)       726.1  Rx         0540  8  C0 00 FF 00 FE 00 00 26 
   853)       727.5  Rx         0588  8  1A 86 7E 00 00 00 00 00 
   854)       728.0  Rx         056A  8  31 00 08 00 1A 00 02 21 
   855)       730.8  Rx         01A0  8  00 4A 00 00 00 FE 00 5F 
   856)       731.9  Rx         0440  8  00 80 00 FE 80 00 68 00 
   857)       732.1  Rx         04A0  8  00 00 00 00 00 00 00 00 
   858)       732.6  Rx         0280  8  01 0D 71 0C 0F 00 33 0F 
   859)       733.1  Rx         0288  8  E8 6C 13 04 00 50 8D 0F 
   860)       733.5  Rx         0380  8  00 53 00 47 20 00 00 0D 
   861)       733.8  Rx         038A  4  35 01 34 00 
   862)       734.3  Rx         0488  8  70 1B 1B 7E FE FF FF F0 
   863)       736.0  Rx         0540  8  D0 00 FF 00 FE 00 00 26 
   864)       737.2  Rx         01A0  8  00 4A 00 00 00 FE 00 50 
   865)       738.0  Rx         01AC  8  24 88 00 00 69 01 16 D2 
   866)       738.5  Rx         0280  8  01 0D 79 0C 0F 00 33 0F 
   867)       739.0  Rx         0288  8  2C 6C 13 04 00 50 8D 0F 
   868)       739.4  Rx         0380  8  00 53 00 47 20 00 00 0D 
   869)       739.9  Rx         04A0  8  00 00 00 00 00 00 00 00 
   870)       740.3  Rx         0488  8  43 1B 1B 7E FE FF 3C 00 
   871)       740.8  Rx         04A8  8  00 00 0B 14 00 00 80 9F 
   872)       741.4  Rx         05A0  8  7C 00 00 82 00 DC 10 AB 
   873)       742.0  Rx         0440  8  00 80 00 FE 80 00 70 00 
   874)       742.4  Rx         0480  8  84 00 FB 87 19 00 06 E7 
   875)       743.3  Rx         0588  8  1A 86 7E 02 00 00 00 00 
   876)       743.7  Rx         056A  8  21 00 08 00 1A 00 02 31 
   877)       745.9  Rx         0540  8  E0 00 FF 00 FE 00 00 26 
   878)       746.4  Rx         01A0  8  00 4A 00 00 00 FE 00 51 
   879)       747.4  Rx         04A0  8  00 00 00 00 00 00 00 00 
   880)       747.9  Rx         0280  8  01 0D 79 0C 0F 00 33 0F 
   881)       748.3  Rx         0288  8  2C 6C 13 04 00 50 8D 0E 
   882)       748.8  Rx         0380  8  00 53 00 47 20 00 00 0D 
   883)       749.2  Rx         038A  4  45 01 44 00 
   884)       749.7  Rx         0488  8  4A 1B 1B 7E FE FF 25 10 
   885)       751.9  Rx         0440  8  00 80 00 FE 80 00 78 00 
   886)       753.3  Rx         01A0  8  00 4A 00 00 00 FE 00 52 
   887)       754.1  Rx         01AC  8  27 89 00 00 69 01 14 D2 
   888)       754.5  Rx         04A0  8  00 00 00 00 00 00 00 00 
   889)       755.0  Rx         04A8  8  06 00 0B 14 00 00 90 89 
   890)       755.5  Rx         05A0  8  7B 00 00 92 00 DC 10 AB 
   891)       756.0  Rx         0540  8  F0 00 FF 00 FE 00 00 2F 
   892)       756.2  Rx         0280  8  01 0D 79 0C 0F 00 33 0F 
   893)       756.4  Rx         0288  8  2C 6C 13 04 00 50 8D 0E 
   894)       757.0  Rx         0380  8  00 53 00 47 20 00 00 0D 
   895)       757.5  Rx         0488  8  16 1B 1B 7E FE FF 49 20 
   896)       759.0  Rx         0520  8  57 C4 00 93 7A 57 33 03 
   897)       759.4  Rx         0480  8  84 00 04 88 19 00 06 17 
   898)       760.7  Rx         0588  8  1A 86 7E 00 00 00 00 00 
   899)       761.1  Rx         056A  8  51 00 08 00 1A 00 02 41 
   900)       761.9  Rx         0440  8  00 80 00 FE 80 00 00 00 
   901)       764.1  Rx         0390  8  6A 40 51 00 00 00 20 00 
   902)       764.5  Rx         01A0  8  00 4A 00 00 00 FE 00 53 
   903)       765.4  Rx         04A0  8  00 00 00 00 00 00 00 00 
   904)       765.7  Rx         038A  4  55 01 54 00 
   905)       766.0  Rx         0540  8  00 00 FF 00 FE 00 00 2F 
   906)       766.3  Rx         0280  8  01 0D 85 0C 0F 00 33 0F 
   907)       766.8  Rx         0288  8  2C 6C 13 04 00 50 8D 0E 
   908)       767.3  Rx         0380  8  00 53 00 46 20 00 00 0D 
   909)       768.2  Rx         0488  8  47 1B 1B 7E FE FF 08 30 
   910)       769.1  Rx         05D0  8  C0 04 51 AF 29 48 01 00 
   911)       771.2  Rx         01A0  8  00 4A 00 00 00 FE 00 54 
   912)       771.9  Rx         0440  8  00 80 00 FE 80 00 08 00 
   913)       772.1  Rx         01AC  8  25 8A 00 00 69 01 15 D2 
   914)       772.4  Rx         0280  8  01 0D 85 0C 0F 00 33 0F 
   915)       772.8  Rx         0288  8  64 6C 13 04 00 50 8D 0E 
   916)       773.3  Rx         0380  8  00 53 00 46 20 00 00 0D 
   917)       773.8  Rx         04A0  8  00 00 00 00 00 00 00 00 
   918)       774.1  Rx         0488  8  19 1B 1B 7E FE FF 26 40 
   919)       774.7  Rx         04A8  8  00 00 0D 14 00 00 A0 B9 
   920)       775.2  Rx         05A0  8  7C 00 00 A2 00 DC 10 AB 
   921)       776.0  Rx         0540  8  10 00 FF 00 FE 00 00 2F 
   922)       776.2  Rx         0480  8  84 00 0D 88 19 00 06 1E 
   923)       777.2  Rx         0588  8  1A 86 7E 03 00 00 00 00 
   924)       777.6  Rx         05DC  8  77 18 C0 3F 1E 00 30 42 
   925)       778.0  Rx         056A  8  41 00 08 00 1A 00 02 51 
   926)       781.3  Rx         01A0  8  00 4A 00 00 00 FE 00 55 
   927)       781.9  Rx         0440  8  00 80 00 FE 80 00 10 00 
   928)       782.1  Rx         04A0  8  00 00 00 00 00 00 00 00 
   929)       782.4  Rx         0280  8  01 0D 85 0C 0F 00 33 0F 
   930)       782.9  Rx         0288  8  64 6C 13 04 00 50 8D 0E 
   931)       783.3  Rx         0380  8  00 53 00 46 20 00 00 0D 
   932)       783.7  Rx         038A  4  65 01 64 00 
   933)       784.1  Rx         0488  8  D0 1B 1B 7E FE FF FF 50 
   934)       785.9  Rx         0540  8  20 00 FF 00 FE 00 00 2F 
   935)       791.8  Rx         0440  8  00 80 00 FE 80 00 18 00 
   936)       795.9  Rx         0540  8  30 00 FF 00 FE 00 00 26 
   937)       798.0  Rx         01A0  8  00 4A 00 00 00 FE 00 56 
   938)       798.4  Rx         01AC  8  22 8B 00 00 69 01 13 D2 
   939)       798.8  Rx         04A0  8  00 00 00 00 00 00 00 00 
   940)       799.4  Rx         0280  8  01 0D 85 0C 0F 00 33 0F 
   941)       799.9  Rx         0288  8  64 6C 13 04 00 50 8D 0E 
   942)       800.3  Rx         0380  8  00 53 00 46 20 00 00 0D 
   943)       800.8  Rx         04A8  8  0C 00 08 14 00 00 B0 A0 
   944)       801.2  Rx         0488  8  E0 1B 1B 7E FE FF FF 60 
   945)       802.0  Rx         0440  8  00 80 00 FE 80 00 20 00 
   946)       802.3  Rx         05A0  8  7B 00 00 B2 00 DC 10 AB 
   947)       803.2  Rx         0480  8  C2 00 16 88 19 00 06 43 
   948)       804.0  Rx         0588  8  1A 86 7E 00 00 00 00 00 
   949)       804.5  Rx         056A  8  71 00 08 00 1A 00 02 61 
   950)       805.9  Rx         0540  8  40 00 FF 00 FE 00 00 26 
   951)       807.1  Rx         01A0  8  00 4A 00 00 00 FE 00 57 
   952)       808.2  Rx         04A0  8  00 00 00 00 00 00 00 00 
   953)       808.5  Rx         038A  4  75 01 74 00 
   954)       809.5  Rx         0280  8  01 0D 8F 0C 0F 00 33 0F 
   955)       810.0  Rx         0288  8  64 6C 13 04 00 50 8D 0E 
   956)       810.4  Rx         0380  8  00 53 00 45 20 00 00 0D 
   957)       811.0  Rx         0488  8  F0 1B 1B 7E FE FF FF 70 
   958)       812.0  Rx         0440  8  00 80 00 FE 80 00 28 00 
   959)       812.6  Rx         07D0  8  CC 57 33 73 B9 35 9A 07 
   960)       814.7  Rx         01A0  8  00 4A 00 00 00 FE 00 58 
   961)       815.1  Rx         01AC  8  21 8C 00 00 69 01 17 D2 
   962)       815.9  Rx         0540  8  50 00 FF 00 FE 00 00 26 
   963)       817.0  Rx         0280  8  01 0D 8F 0C 0F 00 33 0F 
   964)       817.4  Rx         0288  8  8A 6C 13 04 00 50 8D 0E 
   965)       817.9  Rx         0380  8  00 53 00 45 20 00 00 0D 
   966)       818.6  Rx         04A0  8  00 00 00 00 00 00 00 00 
   967)       819.0  Rx         04A8  8  12 00 0D 14 00 00 C0 CB 
   968)       820.3  Rx         0488  8  00 1B 1B 7E FE FF FF 80 
   969)       820.8  Rx         05A0  8  7C 00 00 C2 00 DC 10 AB 
   970)       821.3  Rx         0480  8  C2 00 1C 88 19 00 06 49 
   971)       821.9  Rx         0440  8  00 80 00 FE 80 00 30 00 
   972)       822.5  Rx         0588  8  1A 84 7E 02 00 00 00 00 
   973)       823.0  Rx         056A  8  61 00 08 00 1A 00 02 71 
   974)       825.4  Rx         01A0  8  00 4A 00 00 00 FE 00 59 
   975)       825.9  Rx         0540  8  60 00 FF 00 FE 00 00 26 
   976)       826.2  Rx         04A0  8  00 00 00 00 00 00 00 00 
   977)       826.5  Rx         038A  4  85 01 84 00 
   978)       827.7  Rx         0280  8  01 0D 8F 0C 0F 00 33 0F 
   979)       828.0  Rx         0288  8  8A 6C 13 04 00 50 8D 0E 
   980)       828.5  Rx         0380  8  00 53 00 45 20 00 00 0D 
   981)       828.9  Rx         0488  8  10 1B 1B 7E FE FF FF 90 
   982)       831.8  Rx         01A0  8  00 4A 00 00 00 FE 00 5A 
   983)       832.0  Rx         0440  8  00 80 00 FE 80 00 38 00 
   984)       832.7  Rx         01AC  8  23 8D 00 00 69 01 14 D2 
   985)       833.2  Rx         0280  8  01 0D 8F 0C 0F 00 33 0F 
   986)       833.6  Rx         0288  8  8A 6C 13 04 00 50 8D 0E 
   987)       834.0  Rx         0380  8  00 53 00 45 20 00 00 0D 
   988)       834.5  Rx         04A0  8  00 00 00 00 00 00 00 00 
   989)       835.0  Rx         0488  8  20 1B 1B 7E FE FF FF A0 
   990)       835.5  Rx         04A8  8  0C 80 0D 14 00 00 D0 45 
   991)       835.9  Rx         05A0  8  7C 00 00 D2 00 DC 10 AB 
   992)       836.1  Rx         0540  8  70 00 FF 00 FE 00 00 2F 
   993)       837.0  Rx         0480  8  C2 00 22 88 19 00 06 77 
   994)       837.9  Rx         0588  8  1A 84 7E 00 00 00 00 00 
   995)       838.3  Rx         056A  8  91 00 08 00 1A 00 02 81 
   996)       840.8  Rx         01A0  8  00 4A 00 00 00 FE 00 5B 
   997)       841.8  Rx         04A0  8  00 00 00 00 00 00 00 00 
   998)       842.1  Rx         0440  8  00 80 00 FE 80 00 40 00 
   999)       842.3  Rx         038A  4  95 01 94 00 
  1000)       843.1  Rx         0280  8  01 0D 87 0C 0F 00 33 0F 
  1001)       843.6  Rx         0288  8  8A 6C 13 04 00 50 8D 0E 
  1002)       844.0  Rx         0380  8  00 53 00 44 20 00 00 0D 
  1003)       844.4  Rx         0488  8  30 1B 1B 7E FE FF FF B0 
  1004)       846.0  Rx         0540  8  80 00 FF 00 FE 00 00 2F 
  1005)       851.8  Rx         0440  8  00 80 00 FE 80 00 48 00 
  1006)       855.9  Rx         0540  8  90 00 FF 00 FE 00 00 2F 
  1007)       856.8  Rx         01A0  8  00 4A 00 00 00 FE 00 5C 
  1008)       857.7  Rx         01AC  8  21 8E 00 00 69 01 15 D2 
  1009)       858.1  Rx         04A0  8  00 00 00 00 00 00 00 00 
  1010)       858.6  Rx         0280  8  01 0D 87 0C 0F 00 33 0F 
  1011)       859.1  Rx         0288  8  E8 6C 13 04 00 50 8D 0E 
  1012)       859.5  Rx         0380  8  00 53 00 44 20 00 00 0D 
  1013)       860.0  Rx         04A8  8  0C 00 0B 14 00 00 E0 F3 
  1014)       860.4  Rx         0488  8  40 1B 1B 7E FE FF FF C0 
  1015)       860.9  Rx         05A0  8  7C 00 00 E2 00 DC 10 AB 
  1016)       861.9  Rx         0440  8  00 80 00 FE 80 00 50 00 
  1017)       862.2  Rx         0480  8  C2 00 28 88 19 00 06 7D 
  1018)       863.3  Rx         0588  8  1A 84 7E 82 00 00 00 00 
  1019)       864.1  Rx         056A  8  81 00 08 00 1A 00 02 91 
  1020)       865.9  Rx         0540  8  A0 00 FF 00 FE 00 00 2F 
  1021)       866.6  Rx         0390  8  6A 40 51 00 00 00 20 00 
  1022)       867.2  Rx         01A0  8  00 4A 00 00 00 FE 00 5D 
  1023)       868.0  Rx         04A0  8  00 00 00 00 00 00 00 00 
  1024)       868.3  Rx         038A  4  A5 01 A4 00 
  1025)       869.2  Rx         0280  8  01 0D 87 0C 0F 00 33 0F 
  1026)       869.7  Rx         0288  8  E8 6C 13 04 00 50 8D 0E 
  1027)       870.2  Rx         0380  8  00 53 00 44 20 00 00 0D 
  1028)       871.2  Rx         0488  8  50 1B 1B 7E FE FF FF D0 
  1029)       871.9  Rx         0440  8  00 80 00 FE 80 00 58 00 
  1030)       872.2  Rx         05D0  8  C0 04 51 AF 29 48 01 00 
  1031)       873.9  Rx         01A0  8  00 4A 00 00 00 FE 00 5E 
  1032)       874.7  Rx         01AC  8  26 8F 00 00 69 01 13 D2 
  1033)       875.1  Rx         04A0  8  00 00 00 00 00 00 00 00 
  1034)       875.7  Rx         0280  8  01 0D 87 0C 0F 00 33 0F 
  1035)       876.0  Rx         0540  8  B0 00 FF 00 FE 00 00 26 
  1036)       876.2  Rx         0288  8  E8 6C 13 04 00 50 8D 0E 
  1037)       876.8  Rx         0380  8  00 53 00 44 20 00 00 0D 
  1038)       877.2  Rx         04A8  8  0C 00 10 14 00 00 F0 F8 
  1039)       877.7  Rx         0488  8  60 1B 1B 7E FE FF FF E0 
  1040)       878.1  Rx         05A0  8  7C 00 00 F2 00 DC 10 AB 
  1041)       879.1  Rx         05DC  8  77 18 C0 3F 1E 00 30 42 
  1042)       879.5  Rx         0480  8  1C 00 2E 88 19 00 06 A5 
  1043)       880.8  Rx         0588  8  1A 84 7E 02 00 00 00 00 
  1044)       881.9  Rx         0440  8  00 80 00 FE 80 00 60 00 
  1045)       882.1  Rx         056A  8  B1 00 08 00 1A 00 02 A1 
  1046)       883.6  Rx         01A0  8  00 4A 00 00 00 FE 00 5F 
  1047)       883.9  Rx         04A0  8  00 00 00 00 00 00 00 00 
  1048)       884.7  Rx         038A  4  B5 01 B4 00 
  1049)       885.3  Rx         0280  8  01 0D 91 0C 0F 00 33 0F 
  1050)       886.0  Rx         0540  8  C0 00 FF 00 FE 00 00 26 
  1051)       886.2  Rx         0288  8  E8 6C 13 04 00 50 8D 0E 
  1052)       886.5  Rx         0380  8  00 53 00 45 20 00 00 0D 
  1053)       887.7  Rx         0488  8  70 1B 1B 7E FE FF FF F0 
  1054)       890.1  Rx         01A0  8  00 4A 00 00 00 FE 00 50 
  1055)       890.5  Rx         01AC  8  2C 80 00 00 69 01 16 D2 
  1056)       891.4  Rx         04A0  8  00 00 00 00 00 00 00 00 
  1057)       891.9  Rx         0440  8  00 80 00 FE 80 00 68 00 
  1058)       892.2  Rx         04A8  8  00 00 10 14 00 00 00 04 
  1059)       892.5  Rx         05A0  8  7C 00 00 02 00 DC 10 AB 
  1060)       893.1  Rx         0280  8  01 0D 91 0C 0F 00 33 0F 
  1061)       893.5  Rx         0288  8  2C 6C 13 04 00 50 8D 0E 
  1062)       893.9  Rx         0380  8  00 53 00 45 20 00 00 0D 
  1063)       894.8  Rx         0488  8  42 1B 1B 7E FE FF 3D 00 
  1064)       896.0  Rx         0540  8  D0 00 FF 00 FE 00 00 26 
  1065)       901.9  Rx         0440  8  00 80 00 FE 80 00 70 00 
  1066)       905.0  Rx         0480  8  1C 00 34 88 19 00 06 BF 
  1067)       905.9  Rx         0540  8  E0 00 FF 00 FE 00 00 26 
  1068)       906.2  Rx         0588  8  1A 84 7E 00 00 00 00 00 
  1069)       907.2  Rx         056A  8  A1 00 08 00 1A 00 02 B1 
  1070)       908.8  Rx         01A0  8  00 4A 00 00 00 FE 00 51 
  1071)       909.7  Rx         04A0  8  00 00 00 00 00 00 00 00 
  1072)       910.0  Rx         038A  4  C5 01 C4 00 
  1073)       910.7  Rx         0280  8  01 0D 91 0C 0F 00 33 0F 
  1074)       911.1  Rx         0288  8  2C 6C 13 04 00 50 8D 0E 
  1075)       911.9  Rx         0440  8  00 80 00 FE 80 00 78 00 
  1076)       912.2  Rx         0380  8  00 53 00 43 20 00 00 0D 
  1077)       913.2  Rx         0488  8  4A 1B 1B 7E FE FF 25 10 
  1078)       915.2  Rx         01A0  8  00 4A 00 00 00 FE 00 52 
  1079)       915.9  Rx         0540  8  F0 00 FF 00 FE 00 00 2F 
  1080)       916.2  Rx         01AC  8  2F 81 00 00 69 01 14 D2 
  1081)       917.9  Rx         04A0  8  00 00 00 00 00 00 00 00 
  1082)       918.5  Rx         04A8  8  0C 00 0B 14 00 00 10 03 
  1083)       919.0  Rx         05A0  8  7B 00 00 12 00 DC 10 AB 
  1084)       919.8  Rx         0280  8  01 0D 91 0C 0F 00 33 0F 
  1085)       920.2  Rx         0288  8  2C 6C 13 04 00 50 8D 0E 
  1086)       920.7  Rx         0380  8  00 53 00 43 20 00 00 0D 
  1087)       921.9  Rx         0440  8  00 80 00 FE 80 00 00 00 
  1088)       922.2  Rx         0488  8  16 1B 1B 7E FE FF 49 20 
  1089)       922.7  Rx         0480  8  1C 00 3D 88 19 00 06 B6 
  1090)       923.9  Rx         0588  8  1A 82 7E 00 00 00 00 00 
  1091)       924.7  Rx         056A  8  D1 00 08 00 1A 00 02 C1 
  1092)       925.9  Rx         0540  8  00 00 FF 00 FE 00 00 2F 
  1093)       926.3  Rx         01A0  8  00 4A 00 00 00 FE 00 53 
  1094)       927.3  Rx         04A0  8  00 00 00 00 00 00 00 00 
  1095)       927.7  Rx         038A  4  D5 01 D4 00 
  1096)       928.2  Rx         0280  8  01 0D 91 0C 0F 00 33 0F 
  1097)       928.7  Rx         0288  8  2C 6C 13 04 00 50 8D 0E 
  1098)       929.1  Rx         0380  8  00 53 00 43 20 00 00 0D 
  1099)       930.4  Rx         0488  8  47 1B 1B 7E FE FF 08 30 
  1100)       931.9  Rx         0440  8  00 80 00 FE 80 00 08 00 
  1101)       932.8  Rx         01A0  8  00 4A 00 00 00 FE 00 54 
  1102)       933.7  Rx         01AC  8  2E 82 00 00 69 01 16 D2 
  1103)       934.1  Rx         04A0  8  00 00 00 00 00 00 00 00 
  1104)       934.5  Rx         04A8  8  00 00 12 14 00 00 20 26 
  1105)       935.0  Rx         05A0  8  7C 00 00 22 00 DC 10 AB 
  1106)       935.5  Rx         0280  8  01 0D 91 0C 0F 00 33 0F 
  1107)       936.0  Rx         0540  8  10 00 FF 00 FE 00 00 2F 
  1108)       936.2  Rx         0288  8  64 6C 13 04 00 50 8D 0E 
  1109)       936.4  Rx         0380  8  00 53 00 43 20 00 00 0D 
  1110)       937.7  Rx         0488  8  19 1B 1B 7E FE FF 26 40 
  1111)       938.1  Rx         0480  8  1C 00 46 88 19 00 06 CD 
  1112)       939.3  Rx         0588  8  1A 82 7E 00 00 00 00 00 
  1113)       940.2  Rx         056A  8  C1 00 08 00 1A 00 02 D1 
  1114)       941.9  Rx         0440  8  00 80 00 FE 80 00 10 00 
  1115)       942.1  Rx         01A0  8  00 4A 00 00 00 FE 00 55 
  1116)       942.5  Rx         04A0  8  00 00 00 00 00 00 00 00 
  1117)       943.2  Rx         038A  4  E5 01 E4 00 
  1118)       943.8  Rx         0280  8  01 0D 91 0C 0F 00 33 0F 
  1119)       944.2  Rx         0288  8  64 6C 13 04 00 50 8D 0E 
  1120)       944.6  Rx         0380  8  00 53 00 43 20 00 00 0D 
  1121)       945.1  Rx         0488  8  D0 1B 1B 7E FE FF FF 50 
  1122)       946.0  Rx         0540  8  20 00 FF 00 FE 00 00 2F 
  1123)       951.9  Rx         0440  8  00 80 00 FE 80 00 18 00 
  1124)       955.9  Rx         0540  8  30 00 FF 00 FE 00 00 26 
  1125)       957.9  Rx         01A0  8  00 4A 00 00 00 FE 00 56 
  1126)       958.8  Rx         01AC  8  2D 83 00 00 69 01 14 D2 
  1127)       959.2  Rx         04A0  8  00 00 00 00 00 00 00 00 
  1128)       959.6  Rx         04A8  8  00 00 0D 14 00 00 30 29 
  1129)       960.1  Rx         05A0  8  7B 00 00 32 00 DC 10 AB 
  1130)       960.7  Rx         0280  8  01 0D 85 0C 0F 00 33 0F 
  1131)       961.2  Rx         0288  8  64 6C 13 04 00 50 8D 0E 
  1132)       961.8  Rx         0380  8  00 53 00 43 20 00 00 0D 
  1133)       962.1  Rx         0440  8  00 80 00 FE 80 00 20 00 
  1134)       962.9  Rx         0488  8  E0 1B 1B 7E FE FF FF 60 
  1135)       963.7  Rx         0520  8  02 02 00 93 7A 57 33 03 
  1136)       964.1  Rx         0480  8  54 00 4F 88 19 00 06 8C 
  1137)       965.8  Rx         0588  8  1A 82 7E 83 00 00 00 00 
  1138)       966.0  Rx         0540  8  40 00 FF 00 FE 00 00 26 
  1139)       966.3  Rx         056A  8  F1 00 08 00 1A 00 02 E1 
  1140)       968.0  Rx         01A0  8  00 4A 00 00 00 FE 00 57 
  1141)       968.4  Rx         0390  8  6A 40 51 00 00 00 20 00 
  1142)       968.9  Rx         04A0  8  00 00 00 00 00 00 00 00 
  1143)       971.2  Rx         038A  4  F5 01 F4 00 
  1144)       971.9  Rx         0440  8  00 80 00 FE 80 00 28 00 
  1145)       972.1  Rx         0280  8  01 0D 85 0C 0F 00 33 0F 
  1146)       972.4  Rx         0288  8  64 6C 13 04 00 50 8D 0E 
  1147)       972.9  Rx         0380  8  00 53 00 43 20 00 00 0D 
  1148)       973.8  Rx         0488  8  F0 1B 1B 7E FE FF FF 70 
  1149)       975.3  Rx         05D0  8  C0 04 51 AF 29 48 01 00 
  1150)       975.9  Rx         0540  8  50 00 FF 00 FE 00 00 26 
  1151)       977.3  Rx         01A0  8  00 4A 00 00 00 FE 00 58 
  1152)       978.2  Rx         01AC  8  2A 84 00 00 69 01 14 D2 
  1153)       978.6  Rx         04A0  8  00 00 00 00 00 00 00 00 
  1154)       979.1  Rx         04A8  8  0C 00 0B 14 00 00 40 53 
  1155)       979.5  Rx         05A0  8  7C 00 00 42 00 DC 10 AB 
  1156)       980.0  Rx         0280  8  01 0D 85 0C 0F 00 33 0F 
  1157)       980.5  Rx         0288  8  8A 6C 13 04 00 50 8D 0E 
  1158)       981.0  Rx         0380  8  00 53 00 43 20 00 00 0D 
  1159)       982.0  Rx         0440  8  00 80 00 FE 80 00 30 00 
  1160)       982.2  Rx         0488  8  00 1B 1B 7E FE FF FF 80 
  1161)       982.5  Rx         05DC  8  77 18 C0 3F 1E 00 30 42 
  1162)       983.1  Rx         0480  8  54 00 58 88 19 00 06 9B 
  1163)       984.7  Rx         0588  8  1A 82 7E 00 00 00 00 00 
  1164)       985.9  Rx         0540  8  60 00 FF 00 FE 00 00 26 
  1165)       986.3  Rx         056A  8  E1 00 08 00 1A 00 02 F1 
  1166)       986.9  Rx         01A0  8  00 4A 00 00 00 FE 00 59 
  1167)       987.7  Rx         04A0  8  00 00 00 00 00 00 00 00 
  1168)       988.2  Rx         0280  8  01 0D 85 0C 0F 00 33 0F 
  1169)       988.6  Rx         0288  8  8A 6C 13 04 00 50 8D 0E 
  1170)       989.1  Rx         0380  8  00 53 00 45 20 00 00 0D 
  1171)       989.4  Rx         038A  4  05 01 04 00 
  1172)       990.0  Rx         0488  8  10 1B 1B 7E FE FF FF 90 
  1173)       991.9  Rx         0440  8  00 80 00 FE 80 00 38 00 
  1174)       993.9  Rx         01A0  8  00 4A 00 00 00 FE 00 5A 
  1175)       994.7  Rx         01AC  8  29 85 00 00 69 01 16 D2 
  1176)       995.3  Rx         04A0  8  00 00 00 00 00 00 00 00 
  1177)       995.7  Rx         04A8  8  00 00 0B 14 00 00 50 4F 
  1178)       996.0  Rx         0540  8  70 00 FF 00 FE 00 00 2F 
  1179)       996.2  Rx         05A0  8  7B 00 00 52 00 DC 10 AB 
  1180)       996.8  Rx         0280  8  01 0D 7B 0C 0F 00 33 0F 
  1181)       997.3  Rx         0288  8  8A 6C 13 04 00 50 8D 0E 
  1182)       997.8  Rx         0380  8  00 53 00 45 20 00 00 0D 
  1183)       998.2  Rx         0488  8  20 1B 1B 7E FE FF FF A0 
  1184)       999.1  Rx         0480  8  54 00 61 88 19 00 06 A2 
  1185)      1000.0  Rx         0588  8  1A 82 7E 82 00 00 00 00 
  1186)      1000.4  Rx         056A  8  11 00 08 00 1A 00 02 01 
  1187)      1001.9  Rx         0440  8  00 80 00 FE 80 00 40 00 
  1188)      1003.5  Rx         01A0  8  00 4A 00 00 00 FE 00 5B 
  1189)      1004.3  Rx         04A0  8  00 00 00 00 00 00 00 00 
  1190)      1004.6  Rx         038A  4  15 01 14 00 
  1191)      1005.2  Rx         0280  8  01 0D 7B 0C 0F 00 33 0F 
  1192)      1005.6  Rx         0288  8  8A 6C 13 04 00 50 8D 0E 
  1193)      1006.0  Rx         0540  8  80 00 FF 00 FE 00 00 2F 
  1194)      1006.5  Rx         0380  8  00 53 00 45 20 00 00 0D 
  1195)      1007.2  Rx         0488  8  30 1B 1B 7E FE FF FF B0 
  1196)      1011.9  Rx         0440  8  00 80 00 FE 80 00 48 00 
  1197)      1015.9  Rx         0540  8  90 00 FF 00 FE 00 00 2F 
  1198)      1019.1  Rx         01A0  8  00 4A 00 00 00 FE 00 5C 
  1199)      1019.9  Rx         01AC  8  29 86 00 00 69 01 15 D2 
  1200)      1021.5  Rx         04A0  8  00 00 00 00 00 00 00 00 
  1201)      1021.9  Rx         0440  8  00 80 00 FE 80 00 50 00 
  1202)      1022.2  Rx         04A8  8  0C 00 08 14 00 00 60 70 
  1203)      1022.6  Rx         05A0  8  7C 00 00 62 00 DC 10 AB 
  1204)      1023.3  Rx         0280  8  01 0D 7B 0C 0F 00 33 0F 
  1205)      1023.8  Rx         0288  8  E8 6C 13 04 00 50 8D 0E 
  1206)      1025.0  Rx         0380  8  00 53 00 45 20 00 00 0D 
  1207)      1025.4  Rx         0488  8  40 1B 1B 7E FE FF FF C0 
  1208)      1025.9  Rx         0480  8  54 00 6A 88 19 00 06 A9 
  1209)      1026.1  Rx         0540  8  A0 00 FF 00 FE 00 00 2F 
  1210)      1028.0  Rx         0588  8  1A 83 7E 00 00 00 00 00 
  1211)      1028.4  Rx         056A  8  01 00 08 00 1A 00 02 11 
  1212)      1030.0  Rx         01A0  8  00 4A 00 00 00 FE 00 5D 
  1213)      1030.9  Rx         04A0  8  00 00 00 00 00 00 00 00 
  1214)      1031.5  Rx         0280  8  01 0D 7B 0C 0F 00 33 0F 
  1215)      1031.9  Rx         0440  8  00 80 00 FE 80 00 58 00 
  1216)      1032.1  Rx         0288  8  E8 6C 13 04 00 50 8D 0E 
  1217)      1032.5  Rx         0380  8  00 53 00 46 20 00 00 0D 
  1218)      1033.0  Rx         038A  4  25 01 24 00 
  1219)      1033.5  Rx         0488  8  50 1B 1B 7E FE FF FF D0 
  1220)      1035.9  Rx         0540  8  B0 00 FF 00 FE 00 00 26 
  1221)      1036.4  Rx         01A0  8  00 4A 00 00 00 FE 00 5E 
  1222)      1037.4  Rx         01AC  8  2B 87 00 00 69 01 16 D2 
  1223)      1037.9  Rx         04A0  8  00 00 00 00 00 00 00 00 
  1224)      1038.3  Rx         04A8  8  1F 80 0D 14 00 00 70 F6 
  1225)      1038.7  Rx         05A0  8  7B 00 00 72 00 DC 10 AB 
  1226)      1039.3  Rx         0280  8  01 0D 8F 0C 0F 00 33 0F 
  1227)      1039.8  Rx         0288  8  E8 6C 13 04 00 50 8D 0E 
  1228)      1040.2  Rx         0380  8  00 53 00 46 20 00 00 0D 
  1229)      1040.6  Rx         0488  8  60 1B 1B 7E FE FF FF E0 
  1230)      1041.5  Rx         0480  8  84 00 73 88 19 00 06 60 
  1231)      1042.0  Rx         0440  8  00 80 00 FE 80 00 60 00 
  1232)      1042.6  Rx         0588  8  1A 83 7E 05 00 00 00 00 
  1233)      1043.1  Rx         056A  8  31 00 08 00 1A 00 02 21 
  1234)      1045.5  Rx         01A0  8  00 4A 00 00 00 FE 00 5F 
  1235)      1045.9  Rx         04A0  8  00 00 00 00 00 00 00 00 
  1236)      1046.1  Rx         0540  8  C0 00 FF 00 FE 00 00 26 
  1237)      1046.8  Rx         038A  4  35 01 34 00 
  1238)      1047.4  Rx         0280  8  01 0D 8F 0C 0F 00 33 0F 
  1239)      1047.9  Rx         0288  8  E8 6C 13 04 00 50 8D 0E 
  1240)      1048.8  Rx         0380  8  00 53 00 46 20 00 00 0D 
  1241)      1049.2  Rx         0488  8  70 1B 1B 7E FE FF FF F0 
  1242)      1051.8  Rx         0440  8  00 80 00 FE 80 00 68 00 
  1243)      1052.7  Rx         01A0  8  00 4A 00 00 00 FE 00 50 
  1244)      1053.5  Rx         01AC  8  26 88 00 00 69 01 14 D2 
  1245)      1053.9  Rx         04A0  8  00 00 00 00 00 00 00 00 
  1246)      1054.4  Rx         04A8  8  00 00 0D 14 00 00 80 99 
  1247)      1054.9  Rx         05A0  8  7B 00 00 82 00 DC 10 AB 
  1248)      1055.5  Rx         0280  8  01 0D 8F 0C 0F 00 33 0F 
  1249)      1055.9  Rx         0288  8  2C 6C 13 04 00 50 8D 0E 
  1250)      1056.1  Rx         0540  8  D0 00 FF 00 FE 00 00 26 
  1251)      1057.0  Rx         0380  8  00 53 00 46 20 00 00 0D 
  1252)      1057.5  Rx         0488  8  42 1B 1B 7E FE FF 3D 00 
  1253)      1058.7  Rx         0480  8  84 00 7C 88 19 00 06 6F 
  1254)      1059.5  Rx         0588  8  1A 83 7E 00 00 00 00 00 
  1255)      1060.0  Rx         056A  8  21 00 08 00 1A 00 02 31 
  1256)      1061.9  Rx         0440  8  00 80 00 FE 80 00 70 00 
  1257)      1062.7  Rx         01A0  8  00 4A 00 00 00 FE 00 51 
  1258)      1063.2  Rx         0390  8  6A 40 51 00 00 00 20 00 
  1259)      1063.6  Rx         04A0  8  00 00 00 00 00 00 00 00 
  1260)      1064.2  Rx         038A  4  45 01 44 00 
  1261)      1064.8  Rx         0280  8  01 0D 94 0C 0F 00 33 0F 
  1262)      1065.3  Rx         0288  8  2C 6C 13 04 00 50 8D 0E 
  1263)      1066.0  Rx         0540  8  E0 00 FF 00 FE 00 00 26 
  1264)      1066.3  Rx         0380  8  00 53 00 44 20 00 00 0D 
  1265)      1066.9  Rx         0488  8  4A 1B 1B 7E FE FF 25 10 
  1266)      1067.7  Rx         05D0  8  C0 04 51 AF 29 48 01 00 
  1267)      1071.9  Rx         0440  8  00 80 00 FE 80 00 78 00 
  1268)      1075.9  Rx         0540  8  F0 00 FF 00 FE 00 00 2F 
  1269)      1079.1  Rx         01A0  8  00 4A 00 00 00 FE 00 52 
  1270)      1079.9  Rx         01AC  8  26 89 00 00 69 01 15 D2 
  1271)      1080.3  Rx         04A0  8  00 00 00 00 00 00 00 00 
  1272)      1080.7  Rx         04A8  8  0C 00 06 14 00 00 90 8E 
  1273)      1081.2  Rx         05A0  8  7B 00 00 92 00 DC 10 AB 
  1274)      1081.9  Rx         0280  8  01 0D 94 0C 0F 00 33 0F 
  1275)      1082.2  Rx         0440  8  00 80 00 FE 80 00 00 00 
  1276)      1082.4  Rx         0288  8  2C 6C 13 04 00 50 8D 0E 
  1277)      1082.8  Rx         0380  8  00 53 00 44 20 00 00 0D 
  1278)      1083.3  Rx         0488  8  16 1B 1B 7E FE FF 49 20 
  1279)      1084.5  Rx         05DC  8  77 18 C0 3F 1E 00 30 42 
  1280)      1085.1  Rx         0480  8  84 00 85 88 19 00 06 96 
  1281)      1085.9  Rx         0588  8  1A 83 7E 01 00 00 00 00 
  1282)      1086.1  Rx         0540  8  00 00 FF 00 FE 00 00 2F 
  1283)      1086.3  Rx         056A  8  51 00 08 00 1A 00 02 41 
  1284)      1088.9  Rx         01A0  8  00 4A 00 00 00 FE 00 53 
  1285)      1089.8  Rx         04A0  8  00 00 00 00 00 00 00 00 
  1286)      1090.1  Rx         038A  4  55 01 54 00 
  1287)      1090.7  Rx         0280  8  01 0D 94 0C 0F 00 33 0F 
  1288)      1091.2  Rx         0288  8  2C 6C 13 04 00 50 8D 0E 
  1289)      1091.8  Rx         0380  8  00 53 00 44 20 00 00 0D 
  1290)      1092.0  Rx         0440  8  00 80 00 FE 80 00 08 00 
  1291)      1092.8  Rx         0488  8  47 1B 1B 7E FE FF 08 30 
  1292)      1095.6  Rx         01A0  8  00 4A 00 00 00 FE 00 54 
  1293)      1095.9  Rx         0540  8  10 00 FF 00 FE 00 00 2F 
  1294)      1096.4  Rx         01AC  8  23 8A 00 00 69 01 13 D2 
  1295)      1097.1  Rx         04A0  8  00 00 00 00 00 00 00 00 
  1296)      1097.5  Rx         04A8  8  19 00 0D 14 00 00 A0 A0 
  1297)      1098.0  Rx         05A0  8  7B 00 00 A2 00 DC 10 AB 
  1298)      1098.5  Rx         0280  8  01 0D 94 0C 0F 00 33 0F 
  1299)      1098.9  Rx         0288  8  64 6C 13 04 00 50 8D 0E 
  1300)      1099.9  Rx         0380  8  00 53 00 44 20 00 00 0D 
  1301)      1100.3  Rx         0488  8  19 1B 1B 7E FE FF 26 40 
  1302)      1100.7  Rx         0480  8  84 00 8E 88 19 00 06 9D 
  1303)      1102.0  Rx         0440  8  00 80 00 FE 80 00 10 00 
  1304)      1102.2  Rx         0588  8  1A 83 7E 00 00 00 00 00 
  1305)      1102.7  Rx         056A  8  41 00 08 00 1A 00 02 51 
  1306)      1105.1  Rx         01A0  8  00 4A 00 00 00 FE 00 55 
  1307)      1105.9  Rx         04A0  8  00 00 00 00 00 00 00 00 
  1308)      1106.1  Rx         0540  8  20 00 FF 00 FE 00 00 2F 
  1309)      1106.4  Rx         0280  8  01 0D 8F 0C 0F 00 33 0F 
  1310)      1107.0  Rx         0288  8  64 6C 13 04 00 50 8D 0E 
  1311)      1107.5  Rx         0380  8  00 53 00 43 20 00 00 0D 
  1312)      1107.8  Rx         038A  4  65 01 64 00 
  1313)      1108.3  Rx         0488  8  D0 1B 1B 7E FE FF FF 50 
  1314)      1111.3  Rx         01A0  8  00 4A 00 00 00 FE 00 56 
  1315)      1111.9  Rx         0440  8  00 80 00 FE 80 00 18 00 
  1316)      1112.4  Rx         01AC  8  26 8B 00 00 69 01 17 D2 
  1317)      1114.0  Rx         04A0  8  00 00 00 00 00 00 00 00 
  1318)      1114.5  Rx         0280  8  01 0D 8F 0C 0F 00 33 0F 
  1319)      1114.9  Rx         0288  8  64 6C 13 04 00 50 8D 0E 
  1320)      1115.5  Rx         0380  8  00 53 00 43 20 00 00 0D 
  1321)      1115.9  Rx         04A8  8  06 00 0D 14 00 00 B0 AF 
  1322)      1116.1  Rx         0540  8  30 00 FF 00 FE 00 00 26 
  1323)      1116.3  Rx         0488  8  E0 1B 1B 7E FE FF FF 60 
  1324)      1117.5  Rx         05A0  8  7C 00 00 B2 00 DC 10 AB 
  1325)      1118.0  Rx         0480  8  C2 00 94 88 19 00 06 C1 
  1326)      1118.8  Rx         0588  8  1A 82 7E 81 00 00 00 00 
  1327)      1119.3  Rx         056A  8  71 00 08 00 1A 00 02 61 
  1328)      1121.8  Rx         01A0  8  00 4A 00 00 00 FE 00 57 
  1329)      1122.0  Rx         0440  8  00 80 00 FE 80 00 20 00 
  1330)      1122.7  Rx         04A0  8  00 00 00 00 00 00 00 00 
  1331)      1123.1  Rx         038A  4  75 01 74 00 
  1332)      1123.7  Rx         0280  8  01 0D 8F 0C 0F 00 33 0F 
  1333)      1124.1  Rx         0288  8  64 6C 13 04 00 50 8D 0E 
  1334)      1125.0  Rx         0380  8  00 53 00 43 20 00 00 0D 
  1335)      1125.5  Rx         0488  8  F0 1B 1B 7E FE FF FF 70 
  1336)      1126.0  Rx         0540  8  40 00 FF 00 FE 00 00 26 
  1337)      1131.9  Rx         0440  8  00 80 00 FE 80 00 28 00 
  1338)      1135.9  Rx         0540  8  50 00 FF 00 FE 00 00 26 
  1339)      1137.9  Rx         01A0  8  00 4A 00 00 00 FE 00 58 
  1340)      1138.7  Rx         01AC  8  20 8C 00 00 69 01 16 D2 
  1341)      1139.2  Rx         04A0  8  00 00 00 00 00 00 00 00 
  1342)      1139.6  Rx         04A8  8  0C 80 08 14 00 00 C0 50 
  1343)      1140.1  Rx         05A0  8  7B 00 00 C2 00 DC 10 AB 
  1344)      1140.6  Rx         0280  8  01 0D 8F 0C 0F 00 33 0F 
  1345)      1141.7  Rx         0288  8  8A 6C 13 04 00 50 8D 0E 
  1346)      1142.0  Rx         0440  8  00 80 00 FE 80 00 30 00 
  1347)      1142.3  Rx         0380  8  00 53 00 43 20 00 00 0D 
  1348)      1142.7  Rx         0488  8  00 1B 1B 7E FE FF FF 80 
  1349)      1143.1  Rx         0480  8  C2 00 9A 88 19 00 06 CF 
  1350)      1144.7  Rx         0588  8  1A 82 7E 80 00 00 00 00 
  1351)      1145.9  Rx         0540  8  60 00 FF 00 FE 00 00 26 
  1352)      1146.3  Rx         056A  8  61 00 08 00 1A 00 02 71 
  1353)      1146.9  Rx         01A0  8  00 4A 00 00 00 FE 00 59 
  1354)      1147.4  Rx         04A0  8  00 00 00 00 00 00 00 00 
  1355)      1148.1  Rx         038A  4  85 01 84 00 
  1356)      1148.7  Rx         0280  8  01 0D 8C 0C 0F 00 33 0F 
  1357)      1149.2  Rx         0288  8  8A 6C 13 04 00 50 8D 0E 
  1358)      1149.7  Rx         0380  8  00 53 00 44 20 00 00 0D 
  1359)      1150.1  Rx         0488  8  10 1B 1B 7E FE FF FF 90 
  1360)      1151.5  Rx         0580  8  90 00 00 14 1C 93 48 14 
  1361)      1151.9  Rx         0440  8  00 80 00 FE 80 00 38 00 
  1362)      1154.4  Rx         01A0  8  00 4A 00 00 00 FE 00 5A 
  1363)      1155.3  Rx         01AC  8  21 8D 00 00 69 01 16 D2 
  1364)      1155.8  Rx         04A0  8  00 00 00 00 00 00 00 00 
  1365)      1156.0  Rx         0540  8  70 00 FF 00 FE 00 00 2F 
  1366)      1156.3  Rx         04A8  8  00 00 10 14 00 00 D0 D4 
  1367)      1156.8  Rx         05A0  8  7B 00 00 D2 00 DC 10 AB 
  1368)      1157.4  Rx         0280  8  01 0D 8C 0C 0F 00 33 0F 
  1369)      1158.4  Rx         0288  8  8A 6C 13 04 00 50 8D 0E 
  1370)      1158.8  Rx         0380  8  00 53 00 44 20 00 00 0D 
  1371)      1159.3  Rx         0488  8  20 1B 1B 7E FE FF FF A0 
  1372)      1160.1  Rx         0520  8  60 44 00 93 7A 57 33 03 
  1373)      1160.5  Rx         0480  8  C2 00 A0 88 19 00 06 F5 
  1374)      1161.4  Rx         0588  8  1A 82 7E 00 00 00 00 00 
  1375)      1161.9  Rx         0440  8  00 80 00 FE 80 00 40 00 
  1376)      1162.2  Rx         056A  8  91 00 08 00 1A 00 02 81 
  1377)      1164.5  Rx         01A0  8  00 4A 00 00 00 FE 00 5B 
  1378)      1164.9  Rx         0390  8  6A 40 51 00 00 00 20 00 
  1379)      1165.4  Rx         04A0  8  00 00 00 00 00 00 00 00 
  1380)      1165.9  Rx         0540  8  80 00 FF 00 FE 00 00 2F 
  1381)      1166.1  Rx         038A  4  95 01 94 00 
  1382)      1166.8  Rx         0280  8  01 0D 8C 0C 0F 00 33 0F 
  1383)      1167.8  Rx         0288  8  8A 6C 13 04 00 50 8D 0E 
  1384)      1168.3  Rx         0380  8  00 53 00 44 20 00 00 0D 
  1385)      1168.7  Rx         0488  8  30 1B 1B 7E FE FF FF B0 
  1386)      1169.6  Rx         05D0  8  C0 04 51 AF 29 48 01 00 
  1387)      1171.9  Rx         0440  8  00 80 00 FE 80 00 48 00 
  1388)      1172.2  Rx         01A0  8  00 4A 00 00 00 FE 00 5C 
  1389)      1173.1  Rx         01AC  8  20 8E 00 00 69 01 14 D2 
  1390)      1173.5  Rx         04A0  8  00 00 00 00 00 00 00 00 
  1391)      1173.9  Rx         04A8  8  0C 80 0D 14 00 00 E0 75 
  1392)      1174.3  Rx         05A0  8  7C 00 00 E2 00 DC 10 AB 
  1393)      1174.9  Rx         0280  8  01 0D 8C 0C 0F 00 33 0F 
  1394)      1175.8  Rx         0288  8  E8 6C 13 04 00 50 8D 0E 
  1395)      1176.0  Rx         0540  8  90 00 FF 00 FE 00 00 2F 
  1396)      1176.3  Rx         0380  8  00 53 00 44 20 00 00 0D 
  1397)      1176.9  Rx         0488  8  40 1B 1B 7E FE FF FF C0 
  1398)      1177.4  Rx         05DC  8  77 18 C0 3F 1E 00 30 42 
  1399)      1177.9  Rx         0480  8  C2 00 A7 88 19 00 06 F2 
  1400)      1179.5  Rx         0588  8  1A 82 7E 05 00 00 00 00 
  1401)      1180.0  Rx         056A  8  81 00 08 00 1A 00 02 91 
  1402)      1181.8  Rx         01A0  8  00 4A 00 00 00 FE 00 5D 
  1403)      1182.0  Rx         0440  8  00 80 00 FE 80 00 50 00 
  1404)      1182.3  Rx         04A0  8  00 00 00 00 00 00 00 00 
  1405)      1183.2  Rx         0280  8  01 0D A0 0C 0F 00 33 0F 
  1406)      1183.7  Rx         0288  8  E8 6C 13 04 00 50 8D 0E 
  1407)      1184.1  Rx         0380  8  00 53 00 44 20 00 00 0D 
  1408)      1184.4  Rx         038A  4  A5 01 A4 00 
  1409)      1185.0  Rx         0488  8  50 1B 1B 7E FE FF FF D0 
  1410)      1186.0  Rx         0540  8  A0 00 FF 00 FE 00 00 2F 
  1411)      1191.9  Rx         0440  8  00 80 00 FE 80 00 58 00 
  1412)      1195.9  Rx         0540  8  B0 00 FF 00 FE 00 00 26 
  1413)      1198.8  Rx         01A0  8  00 4A 00 00 00 FE 00 5E 
  1414)      1199.7  Rx         01AC  8  20 8F 00 00 69 01 15 D2 
  1415)      1200.1  Rx         04A0  8  00 00 00 00 00 00 00 00 
  1416)      1200.5  Rx         04A8  8  1F 00 08 14 00 00 F0 F3 
  1417)      1200.9  Rx         05A0  8  7B 00 00 F2 00 DC 10 AB 
  1418)      1201.5  Rx         0280  8  01 0D A0 0C 0F 00 33 0F 
  1419)      1202.0  Rx         0440  8  00 80 00 FE 80 00 60 00 
  1420)      1203.0  Rx         0288  8  E8 6C 13 04 00 50 8D 0E 
  1421)      1203.5  Rx         0380  8  00 53 00 44 20 00 00 0D 
  1422)      1203.9  Rx         0488  8  60 1B 1B 7E FE FF FF E0 
  1423)      1204.3  Rx         0480  8  1C 00 AD 88 19 00 06 26 
  1424)      1205.2  Rx         0588  8  1A 82 7E 00 00 00 00 00 
  1425)      1205.6  Rx         056A  8  B1 00 08 00 1A 00 02 A1 
  1426)      1205.9  Rx         0540  8  C0 00 FF 00 FE 00 00 26 
  1427)      1208.2  Rx         01A0  8  00 4A 00 00 00 FE 00 5F 
  1428)      1208.6  Rx         04A0  8  00 00 00 00 00 00 00 00 
  1429)      1209.4  Rx         038A  4  B5 01 B4 00 
  1430)      1210.3  Rx         0280  8  01 0D A0 0C 0F 00 33 0F 
  1431)      1211.4  Rx         0288  8  E8 6C 13 04 00 50 8D 0E 
  1432)      1212.0  Rx         0440  8  00 80 00 FE 80 00 68 00 
  1433)      1212.2  Rx         0380  8  00 53 00 41 20 00 00 0D 
  1434)      1212.5  Rx         0488  8  70 1B 1B 7E FE FF FF F0 
  1435)      1215.0  Rx         01A0  8  00 4A 00 00 00 FE 00 50 
  1436)      1215.8  Rx         01AC  8  2E 80 00 00 69 01 14 D2 
  1437)      1216.0  Rx         0540  8  D0 00 FF 00 FE 00 00 26 
  1438)      1220.4  Rx         0280  8  01 0D A0 0C 0F 00 33 0F 
  1439)      1220.9  Rx         0288  8  2C 6C 13 04 00 50 8D 0E 
  1440)      1221.5  Rx         0380  8  00 53 00 41 20 00 00 0D 
  1441)      1222.0  Rx         0440  8  00 80 00 FE 80 00 70 00 
  1442)      1222.2  Rx         04A0  8  00 00 00 00 00 00 00 00 
  1443)      1222.7  Rx         0488  8  42 1B 1B 7E FE FF 3D 00 
  1444)      1223.2  Rx         04A8  8  00 00 10 14 00 00 00 04 
  1445)      1223.6  Rx         05A0  8  7C 00 00 02 00 DC 10 AB 
  1446)      1224.0  Rx         0480  8  1C 00 B6 88 19 00 06 3D 
  1447)      1225.9  Rx         0540  8  E0 00 FF 00 FE 00 00 26 
  1448)      1226.9  Rx         056A  8  A1 00 08 00 1A 00 02 B1 
  1449)      1227.4  Rx         0588  8  1A 82 7E 00 00 00 00 00 
  1450)      1227.8  Rx         01A0  8  00 4A 00 00 00 FE 00 51 
  1451)      1228.6  Rx         04A0  8  00 00 00 00 00 00 00 00 
  1452)      1229.1  Rx         0280  8  01 0D A0 0C 0F 00 33 0F 
  1453)      1229.6  Rx         0288  8  2C 6C 13 04 00 50 8D 0E 
  1454)      1230.1  Rx         0380  8  00 53 00 41 20 00 00 0D 
  1455)      1230.4  Rx         038A  4  C5 01 C4 00 
  1456)      1230.9  Rx         0488  8  4A 1B 1B 7E FE FF 25 10 
  1457)      1232.0  Rx         0440  8  00 80 00 FE 80 00 78 00 
  1458)      1233.8  Rx         01A0  8  00 4A 00 00 00 FE 00 52 
  1459)      1234.5  Rx         01AC  8  2D 81 00 00 69 01 16 D2 
  1460)      1235.4  Rx         04A0  8  00 00 00 00 00 00 00 00 
  1461)      1235.8  Rx         04A8  8  12 00 0B 14 00 00 10 1D 
  1462)      1236.0  Rx         0540  8  F0 00 FF 00 FE 00 00 2F 
  1463)      1236.2  Rx         05A0  8  7B 00 00 12 00 DC 10 AB 
  1464)      1237.0  Rx         0280  8  01 0D A0 0C 0F 00 33 0F 
  1465)      1238.0  Rx         0288  8  2C 6C 13 04 00 50 8D 0E 
  1466)      1238.5  Rx         0380  8  00 53 00 41 20 00 00 0D 
  1467)      1238.9  Rx         0488  8  16 1B 1B 7E FE FF 49 20 
  1468)      1239.4  Rx         0480  8  1C 00 BF 88 19 00 06 34 
  1469)      1241.1  Rx         0588  8  1A 82 7E 00 00 00 00 00 
  1470)      1241.5  Rx         056A  8  D1 00 08 00 1A 00 02 C1 
  1471)      1241.9  Rx         0440  8  00 80 00 FE 80 00 00 00 
  1472)      1243.3  Rx         01A0  8  00 4A 00 00 00 FE 00 53 
  1473)      1243.8  Rx         04A0  8  00 00 00 00 00 00 00 00 
  1474)      1244.4  Rx         038A  4  D5 01 D4 00 
  1475)      1245.5  Rx         0280  8  01 0D A0 0C 0F 00 33 0F 
  1476)      1245.9  Rx         0540  8  00 00 FF 00 FE 00 00 2F 
  1477)      1246.2  Rx         0288  8  2C 6C 13 04 00 50 8D 0E 
  1478)      1246.4  Rx         0380  8  00 53 00 41 20 00 00 0D 
  1479)      1247.0  Rx         0488  8  47 1B 1B 7E FE FF 08 30 
  1480)      1251.9  Rx         0440  8  00 80 00 FE 80 00 08 00 
  1481)      1256.0  Rx         0540  8  10 00 FF 00 FE 00 00 2F 
  1482)      1259.1  Rx         01A0  8  00 4A 00 00 00 FE 00 54 
  1483)      1259.8  Rx         01AC  8  2C 82 00 00 69 01 14 D2 
  1484)      1260.7  Rx         04A0  8  00 00 00 00 00 00 00 00 
  1485)      1261.5  Rx         04A8  8  00 00 08 14 00 00 20 3C 
  1486)      1261.9  Rx         0440  8  00 80 00 FE 80 00 10 00 
  1487)      1262.1  Rx         05A0  8  7B 00 00 22 00 DC 10 AB 
  1488)      1263.2  Rx         0280  8  01 0D 91 0C 0F 00 33 0F 
  1489)      1263.6  Rx         0288  8  64 6C 13 04 00 50 8D 0E 
  1490)      1264.1  Rx         0380  8  00 53 00 41 20 00 00 0D 
  1491)      1264.5  Rx         0488  8  19 1B 1B 7E FE FF 26 40 
  1492)      1265.7  Rx         0480  8  1C 00 C8 88 19 00 06 43 
  1493)      1266.0  Rx         0540  8  20 00 FF 00 FE 00 00 2F 
  1494)      1266.5  Rx         0588  8  1A 82 7E 83 00 00 00 00 
  1495)      1267.6  Rx         056A  8  C1 00 08 00 1A 00 02 D1 
  1496)      1269.6  Rx         01A0  8  00 4A 00 00 00 FE 00 55 
  1497)      1270.1  Rx         0390  8  6A 40 51 00 00 00 20 00 
  1498)      1270.5  Rx         04A0  8  00 00 00 00 00 00 00 00 
  1499)      1271.4  Rx         0280  8  01 0D 91 0C 0F 00 33 0F 
  1500)      1272.0  Rx         0440  8  00 80 00 FE 80 00 18 00 
  1501)      1272.2  Rx         0288  8  64 6C 13 04 00 50 8D 0E 
  1502)      1272.4  Rx         0380  8  00 53 00 41 20 00 00 0D 
  1503)      1272.9  Rx         038A  4  E5 01 E4 00 
  1504)      1273.9  Rx         0488  8  D0 1B 1B 7E FE FF FF 50 
  1505)      1274.7  Rx         05D0  8  C0 04 51 AF 29 48 01 00 
  1506)      1275.9  Rx         0540  8  30 00 FF 00 FE 00 00 26 
  1507)      1276.3  Rx         01A0  8  00 4A 00 00 00 FE 00 56 
  1508)      1277.5  Rx         01AC  8  2D 83 00 00 69 01 14 D2 
  1509)      1278.0  Rx         04A0  8  00 00 00 00 00 00 00 00 
  1510)      1278.4  Rx         04A8  8  00 00 08 14 00 00 30 2C 
  1511)      1278.8  Rx         05A0  8  7C 00 00 32 00 DC 10 AB 
  1512)      1280.2  Rx         0280  8  01 0D 91 0C 0F 00 33 0F 
  1513)      1280.7  Rx         0288  8  64 6C 13 04 00 50 8D 0E 
  1514)      1281.1  Rx         0380  8  00 53 00 41 20 00 00 0D 
  1515)      1281.6  Rx         0488  8  E0 1B 1B 7E FE FF FF 60 
  1516)      1282.0  Rx         0440  8  00 80 00 FE 80 00 20 00 
  1517)      1282.2  Rx         05DC  8  77 18 C0 3F 1E 00 30 42 
  1518)      1283.1  Rx         0480  8  54 00 D1 88 19 00 06 12 
  1519)      1284.3  Rx         0588  8  1A 82 7E 00 00 00 00 00 
