;$FILEVERSION=1.1
;$STARTTIME=45334.8011924306
;
;   Start time: 12.02.2024 19:13:43.026.0
;   Generated by PCAN-View v4.3.4.615
;
;   Message Number
;   |         Time Offset (ms)
;   |         |        Type
;   |         |        |        ID (hex)
;   |         |        |        |     Data Length
;   |         |        |        |     |   Data Bytes (hex) ...
;   |         |        |        |     |   |
;---+--   ----+----  --+--  ----+---  +  -+ -- -- -- -- -- -- --
     1)         1.2  Rx         0280  8  01 0D 91 0E 0F 00 33 0F 
     2)         1.4  Rx         0540  8  40 00 FF 00 FE 00 00 26 
     3)         1.6  Rx         0288  8  8A 6E 33 04 00 5C 8E 0E 
     4)         2.2  Rx         0380  8  00 53 00 40 20 00 00 0E 
     5)         2.9  Rx         0488  8  20 1A 1A 7E FE FF FF A0 
     6)         3.4  Rx         01A0  8  00 4A 00 00 00 FE 00 51 
     7)         3.9  Rx         04A0  8  00 00 00 00 00 00 00 00 
     8)         4.3  Rx         038A  4  45 01 44 00 
     9)         6.8  Rx         0480  8  C2 08 F3 1D 19 00 06 3B 
    10)         7.3  Rx         0588  8  1B 63 7E 00 00 00 00 00 
    11)         7.5  Rx         0440  8  00 80 00 FE 80 00 28 00 
    12)         8.4  Rx         056A  8  91 00 08 00 1A 00 02 81 
    13)        10.2  Rx         0280  8  01 0D 91 0E 0F 00 33 0F 
    14)        10.8  Rx         0288  8  8A 6E 33 04 00 5C 8E 0E 
    15)        11.3  Rx         0540  8  50 00 FF 00 FE 00 00 26 
    16)        12.8  Rx         0380  8  00 53 00 40 20 00 00 0E 
    17)        13.2  Rx         0488  8  30 1A 1A 7E FE FF FF B0 
    18)        13.7  Rx         01A0  8  00 4A 00 00 00 FE 00 52 
    19)        14.2  Rx         01AC  8  26 89 00 00 69 01 15 D2 
    20)        15.1  Rx         04A0  8  00 00 00 00 00 00 00 00 
    21)        15.5  Rx         04A8  8  0C 00 74 11 00 00 90 F9 
    22)        16.0  Rx         05A0  8  7B 00 00 92 00 00 10 AB 
    23)        17.4  Rx         0440  8  00 80 00 FE 80 00 30 00 
    24)        18.0  Rx         0580  8  91 14 00 7F 00 F0 47 01 
    25)        21.3  Rx         0540  8  60 00 FF 00 FE 00 00 26 
    26)        27.3  Rx         0440  8  00 80 00 FE 80 00 38 00 
    27)        29.0  Rx         0280  8  01 0D 94 0E 0F 00 33 0F 
    28)        29.5  Rx         0288  8  E8 6E 33 04 00 5C 8E 0E 
    29)        30.0  Rx         0380  8  00 53 00 40 20 00 00 0E 
    30)        30.5  Rx         0488  8  40 1A 1A 7E FE FF FF C0 
    31)        31.0  Rx         01A0  8  00 4A 00 00 00 FE 00 53 
    32)        31.4  Rx         0540  8  70 00 FF 00 FE 00 00 2F 
    33)        31.6  Rx         04A0  8  00 00 00 00 00 00 00 00 
    34)        31.8  Rx         038A  4  55 01 54 00 
    35)        33.0  Rx         0480  8  C2 08 FC 1D 19 00 06 34 
    36)        33.9  Rx         0588  8  1B 63 7E 00 00 00 00 00 
    37)        35.6  Rx         056A  8  81 00 08 00 1A 00 02 91 
    38)        36.9  Rx         0280  8  01 0D 94 0E 0F 00 33 0F 
    39)        37.3  Rx         0440  8  00 80 00 FE 80 00 40 00 
    40)        37.6  Rx         0288  8  E8 6E 33 04 00 5C 8E 0E 
    41)        38.0  Rx         0380  8  00 53 00 3F 20 00 00 0E 
    42)        39.1  Rx         0488  8  50 1A 1A 7E FE FF FF D0 
    43)        40.7  Rx         01A0  8  00 4A 00 00 00 FE 00 54 
    44)        41.2  Rx         01AC  8  25 8A 00 00 69 01 15 D2 
    45)        41.5  Rx         0540  8  80 00 FF 00 FE 00 00 2F 
    46)        42.2  Rx         04A0  8  00 00 00 00 00 00 00 00 
    47)        42.9  Rx         04A8  8  00 00 6F 11 00 00 A0 DE 
    48)        43.4  Rx         05A0  8  7B 00 00 A2 00 00 10 AB 
    49)        45.7  Rx         0280  8  01 0D 94 0E 0F 00 33 0F 
    50)        46.2  Rx         0288  8  E8 6E 33 04 00 5C 8E 0E 
    51)        46.6  Rx         0380  8  00 53 00 3F 20 00 00 0E 
    52)        47.1  Rx         0488  8  60 1A 1A 7E FE FF FF E0 
    53)        47.4  Rx         0440  8  00 80 00 FE 80 00 48 00 
    54)        47.7  Rx         01A0  8  00 4A 00 00 00 FE 00 55 
    55)        48.3  Rx         04A0  8  00 00 00 00 00 00 00 00 
    56)        48.6  Rx         038A  4  65 01 64 00 
    57)        51.3  Rx         0540  8  90 00 FF 00 FE 00 00 2F 
    58)        51.5  Rx         0480  8  1C 08 05 1E 19 00 06 10 
    59)        52.0  Rx         0588  8  1B 63 7E 00 00 00 00 00 
    60)        52.4  Rx         056A  8  B1 00 08 00 1A 00 02 A1 
    61)        54.4  Rx         0280  8  01 0D 8A 0E 0F 00 33 0F 
    62)        55.0  Rx         0288  8  E8 6E 33 04 00 5C 8E 0E 
    63)        55.9  Rx         0380  8  00 53 00 3F 20 00 00 0E 
    64)        56.3  Rx         0488  8  70 1A 1A 7E FE FF FF F0 
    65)        57.1  Rx         01A0  8  00 4A 00 00 00 FE 00 56 
    66)        57.4  Rx         0440  8  00 80 00 FE 80 00 50 00 
    67)        58.5  Rx         01AC  8  25 8B 00 00 69 01 14 D2 
    68)        59.1  Rx         04A0  8  00 00 00 00 00 00 00 00 
    69)        59.9  Rx         04A8  8  00 00 72 11 00 00 B0 D3 
    70)        60.4  Rx         05A0  8  7C 00 00 B2 00 00 10 AB 
    71)        61.3  Rx         0540  8  A0 00 FF 00 FE 00 00 2F 
    72)        62.9  Rx         0520  8  A6 87 00 D6 69 57 33 03 
    73)        63.6  Rx         0280  8  01 0D 8A 0E 0F 00 33 0F 
    74)        64.6  Rx         0288  8  2C 6E 33 04 00 5C 8E 0E 
    75)        65.1  Rx         0380  8  00 53 00 3F 20 00 00 0E 
    76)        65.5  Rx         0488  8  45 1A 1A 7E FE FF 3A 00 
    77)        66.0  Rx         01A0  8  00 4A 00 00 00 FE 00 57 
    78)        66.5  Rx         04A0  8  00 00 00 00 00 00 00 00 
    79)        67.0  Rx         0390  8  6A 40 50 00 00 00 20 00 
    80)        67.4  Rx         0440  8  00 80 00 FE 80 00 58 00 
    81)        69.8  Rx         038A  4  75 01 74 00 
    82)        71.3  Rx         0540  8  B0 00 FF 00 FE 00 00 26 
    83)        71.6  Rx         0480  8  1C 08 0D 1E 19 00 06 18 
    84)        72.1  Rx         056A  8  A1 00 08 00 1A 00 02 B1 
    85)        72.7  Rx         0588  8  1B 63 7E 82 00 00 00 00 
    86)        74.4  Rx         05D0  8  C0 04 51 AF 29 48 01 00 
    87)        75.5  Rx         0280  8  01 0D 8A 0E 0F 00 33 0F 
    88)        75.9  Rx         0288  8  2C 6E 33 04 00 5C 8E 0E 
    89)        76.8  Rx         0380  8  00 53 00 3F 20 00 00 0E 
    90)        77.2  Rx         0488  8  49 1A 1A 7E FE FF 26 10 
    91)        77.5  Rx         0440  8  00 80 00 FE 80 00 60 00 
    92)        77.9  Rx         01A0  8  00 4A 00 00 00 FE 00 58 
    93)        78.8  Rx         01AC  8  22 8C 00 00 69 01 14 D2 
    94)        79.8  Rx         04A0  8  00 00 00 00 00 00 00 00 
    95)        80.2  Rx         04A8  8  1F 00 6F 11 00 00 C0 A1 
    96)        80.7  Rx         05A0  8  7C 00 00 C2 00 00 10 AB 
    97)        81.3  Rx         0540  8  C0 00 FF 00 FE 00 00 26 
    98)        82.7  Rx         05DC  8  77 18 C0 3F 1E 00 30 42 
    99)        83.8  Rx         0280  8  01 0D 8A 0E 0F 00 33 0F 
   100)        84.3  Rx         0288  8  2C 6E 33 04 00 5C 8E 0E 
   101)        84.8  Rx         0380  8  00 53 00 3F 20 00 00 0E 
   102)        85.3  Rx         0488  8  14 1A 1A 7E FE FF 4B 20 
   103)        85.7  Rx         01A0  8  00 4A 00 00 00 FE 00 59 
   104)        86.2  Rx         04A0  8  00 00 00 00 00 00 00 00 
   105)        87.3  Rx         0440  8  00 80 00 FE 80 00 68 00 
   106)        88.4  Rx         038A  4  85 01 84 00 
   107)        89.4  Rx         0480  8  1C 08 16 1E 19 00 06 03 
   108)        89.9  Rx         0588  8  1B 62 7E 81 00 00 00 00 
   109)        90.4  Rx         056A  8  D1 00 08 00 1A 00 02 C1 
   110)        91.3  Rx         0540  8  D0 00 FF 00 FE 00 00 26 
   111)        92.4  Rx         0280  8  01 0D 85 0E 0F 00 33 0F 
   112)        93.0  Rx         0288  8  2C 6E 33 04 00 5C 8E 0E 
   113)        93.9  Rx         0380  8  00 53 00 40 20 00 00 0E 
   114)        94.3  Rx         0488  8  48 1A 1A 7E FE FF 07 30 
   115)        94.9  Rx         01A0  8  00 4A 00 00 00 FE 00 5A 
   116)        95.3  Rx         01AC  8  22 8D 00 00 69 01 15 D2 
   117)        96.5  Rx         04A0  8  00 00 00 00 00 00 00 00 
   118)        97.0  Rx         04A8  8  0C 80 72 11 00 00 D0 3F 
   119)        97.3  Rx         0440  8  00 80 00 FE 80 00 70 00 
   120)        97.6  Rx         05A0  8  7C 00 00 D2 00 00 10 AB 
   121)       100.1  Rx         0280  8  01 0D 85 0E 0F 00 33 0F 
   122)       100.5  Rx         0288  8  64 6E 33 04 00 5C 8E 0E 
   123)       101.0  Rx         0380  8  00 53 00 40 20 00 00 0E 
   124)       101.3  Rx         0540  8  E0 00 FF 00 FE 00 00 26 
   125)       101.6  Rx         0488  8  19 1A 1A 7E FE FF 26 40 
   126)       101.9  Rx         01A0  8  00 4A 00 00 00 FE 00 5B 
   127)       102.4  Rx         04A0  8  00 00 00 00 00 00 00 00 
   128)       103.1  Rx         038A  4  95 01 94 00 
   129)       104.1  Rx         0480  8  1C 08 1F 1E 19 00 06 0A 
   130)       106.2  Rx         056A  8  C1 00 08 00 1A 00 02 D1 
   131)       106.7  Rx         0588  8  1B 62 7E 00 00 00 00 00 
   132)       107.3  Rx         0440  8  00 80 00 FE 80 00 78 00 
   133)       109.1  Rx         0280  8  01 0D 85 0E 0F 00 33 0F 
   134)       109.6  Rx         0288  8  64 6E 33 04 00 5B 8E 0E 
   135)       110.1  Rx         0380  8  00 53 00 41 20 00 00 0E 
   136)       110.6  Rx         0488  8  D0 1A 1A 7E FE FF FF 50 
   137)       111.3  Rx         0540  8  F0 00 FF 00 FE 00 00 2F 
   138)       112.1  Rx         01A0  8  00 4A 00 00 00 FE 00 5C 
   139)       112.7  Rx         01AC  8  22 8E 00 00 69 01 16 D2 
   140)       113.8  Rx         04A0  8  00 00 00 00 00 00 00 00 
   141)       114.2  Rx         04A8  8  00 00 72 11 00 00 E0 83 
   142)       115.2  Rx         05A0  8  7C 00 00 E2 00 00 10 AB 
   143)       117.3  Rx         0440  8  00 80 00 FE 80 00 00 00 
   144)       121.3  Rx         0540  8  00 00 FF 00 FE 00 00 2F 
   145)       127.3  Rx         0440  8  00 80 00 FE 80 00 08 00 
   146)       127.8  Rx         0280  8  01 0D 88 0E 0F 00 33 0F 
   147)       128.2  Rx         0288  8  64 6E 33 04 00 5B 8E 0E 
   148)       128.8  Rx         0380  8  00 53 00 41 20 00 00 0E 
   149)       129.2  Rx         0488  8  E0 1A 1A 7E FE FF FF 60 
   150)       129.8  Rx         01A0  8  00 4A 00 00 00 FE 00 5D 
   151)       130.3  Rx         04A0  8  00 00 00 00 00 00 00 00 
   152)       130.8  Rx         0480  8  54 08 27 1E 19 00 06 7A 
   153)       131.3  Rx         0540  8  10 00 FF 00 FE 00 00 2F 
   154)       132.2  Rx         0588  8  1B 62 7E 00 00 00 00 00 
   155)       133.1  Rx         038A  4  A5 01 A4 00 
   156)       134.4  Rx         056A  8  F1 00 08 00 1A 00 02 E1 
   157)       136.3  Rx         0280  8  01 0D 88 0E 0F 00 33 0F 
   158)       136.8  Rx         0288  8  64 6E 33 04 00 5B 8E 0E 
   159)       137.2  Rx         0380  8  00 53 00 3C 20 00 00 0E 
   160)       137.5  Rx         0440  8  00 80 00 FE 80 00 10 00 
   161)       137.9  Rx         0488  8  F0 1A 1A 7E FE FF FF 70 
   162)       138.8  Rx         01A0  8  00 4A 00 00 00 FE 00 5E 
   163)       139.3  Rx         01AC  8  23 8F 00 00 69 01 16 D2 
   164)       140.2  Rx         04A0  8  00 00 00 00 00 00 00 00 
   165)       140.6  Rx         04A8  8  0C 00 6F 11 00 00 F0 82 
   166)       141.2  Rx         05A0  8  7C 00 00 F2 00 00 10 AB 
   167)       141.4  Rx         0540  8  20 00 FF 00 FE 00 00 2F 
   168)       144.2  Rx         0280  8  01 0D 88 0E 0F 00 33 0F 
   169)       144.7  Rx         0288  8  8A 6E 33 04 00 5B 8E 0E 
   170)       145.2  Rx         0380  8  00 53 00 3C 20 00 00 0E 
   171)       145.6  Rx         0488  8  00 1A 1A 7E FE FF FF 80 
   172)       146.1  Rx         01A0  8  00 4A 00 00 00 FE 00 5F 
   173)       146.5  Rx         04A0  8  00 00 00 00 00 00 00 00 
   174)       146.9  Rx         038A  4  B5 01 B4 00 
   175)       147.4  Rx         0440  8  00 80 00 FE 80 00 18 00 
   176)       148.1  Rx         0480  8  54 08 30 1E 19 00 06 6D 
   177)       150.3  Rx         056A  8  E1 00 08 00 1A 00 02 F1 
   178)       150.8  Rx         0588  8  1B 62 7E 00 00 00 00 00 
   179)       151.3  Rx         0540  8  30 00 FF 00 FE 00 00 26 
   180)       152.2  Rx         0280  8  01 0D 99 0E 0F 00 33 0F 
   181)       152.9  Rx         0288  8  8A 6E 33 04 00 5B 8E 0E 
   182)       153.4  Rx         0380  8  00 53 00 3C 20 00 00 0E 
   183)       154.3  Rx         0488  8  10 1A 1A 7E FE FF FF 90 
   184)       155.3  Rx         01A0  8  00 4A 00 00 00 FE 00 50 
   185)       155.7  Rx         01AC  8  2F 80 00 00 69 01 15 D2 
   186)       156.5  Rx         04A0  8  00 00 00 00 00 00 00 00 
   187)       157.3  Rx         0440  8  00 80 00 FE 80 00 20 00 
   188)       157.6  Rx         04A8  8  00 00 74 11 00 00 00 65 
   189)       158.4  Rx         05A0  8  7C 00 00 02 00 00 10 AB 
   190)       161.2  Rx         0540  8  40 00 FF 00 FE 00 00 26 
   191)       162.2  Rx         0280  8  01 0D 99 0E 0F 00 33 0F 
   192)       162.9  Rx         0288  8  8A 6E 33 04 00 5B 8E 0E 
   193)       163.5  Rx         0380  8  00 53 00 3C 20 00 00 0E 
   194)       163.9  Rx         0488  8  20 1A 1A 7E FE FF FF A0 
   195)       164.4  Rx         01A0  8  00 4A 00 00 00 FE 00 51 
   196)       165.0  Rx         0390  8  6A 40 50 00 00 00 20 00 
   197)       165.4  Rx         04A0  8  00 00 00 00 00 00 00 00 
   198)       167.3  Rx         0440  8  00 80 00 FE 80 00 28 00 
   199)       167.4  Rx         038A  4  C5 01 C4 00 
   200)       169.9  Rx         0480  8  54 08 38 1E 19 00 06 65 
   201)       170.4  Rx         056A  8  11 00 08 00 1A 00 02 01 
   202)       171.0  Rx         0588  8  1B 62 7E 04 00 00 00 00 
   203)       171.3  Rx         0540  8  50 00 FF 00 FE 00 00 26 
   204)       172.2  Rx         05D0  8  C0 04 51 AF 29 48 01 00 
   205)       173.5  Rx         0280  8  01 0D 99 0E 0F 00 33 0F 
   206)       173.9  Rx         0288  8  8A 6E 33 04 00 5B 8E 0E 
   207)       174.8  Rx         0380  8  00 53 00 3C 20 00 00 0E 
   208)       175.3  Rx         0488  8  30 1A 1A 7E FE FF FF B0 
   209)       175.8  Rx         01A0  8  00 4A 00 00 00 FE 00 52 
   210)       176.2  Rx         01AC  8  28 81 00 00 69 01 13 D2 
   211)       177.1  Rx         04A0  8  00 00 00 00 00 00 00 00 
   212)       177.4  Rx         0440  8  00 80 00 FE 80 00 30 00 
   213)       177.7  Rx         04A8  8  00 00 72 11 00 00 10 73 
   214)       178.1  Rx         05A0  8  7B 00 00 12 00 00 10 AB 
   215)       180.4  Rx         05DC  8  77 18 C0 3F 1E 00 30 42 
   216)       181.3  Rx         0540  8  60 00 FF 00 FE 00 00 26 
   217)       181.5  Rx         0280  8  01 0D 88 0E 0F 00 33 0F 
   218)       182.0  Rx         0288  8  E8 6E 33 04 00 5B 8E 0E 
   219)       182.5  Rx         0380  8  00 53 00 3C 20 00 00 0E 
   220)       183.2  Rx         0488  8  40 1A 1A 7E FE FF FF C0 
   221)       183.7  Rx         01A0  8  00 4A 00 00 00 FE 00 53 
   222)       184.2  Rx         04A0  8  00 00 00 00 00 00 00 00 
   223)       185.1  Rx         038A  4  D5 01 D4 00 
   224)       185.6  Rx         0480  8  54 08 41 1E 19 00 06 1C 
   225)       187.3  Rx         0440  8  00 80 00 FE 80 00 38 00 
   226)       187.8  Rx         056A  8  01 00 08 00 1A 00 02 11 
   227)       188.3  Rx         0588  8  1B 62 7E 84 00 00 00 00 
   228)       189.8  Rx         0280  8  01 0D 88 0E 0F 00 33 0F 
   229)       190.2  Rx         0288  8  E8 6E 33 04 00 5B 8E 0E 
   230)       191.3  Rx         0540  8  70 00 FF 00 FE 00 00 2F 
   231)       191.7  Rx         0380  8  00 53 00 3A 20 00 00 0E 
   232)       192.1  Rx         0488  8  50 1A 1A 7E FE FF FF D0 
   233)       193.2  Rx         01A0  8  00 4A 00 00 00 FE 00 54 
   234)       193.7  Rx         01AC  8  2D 82 00 00 69 01 15 D2 
   235)       194.5  Rx         04A0  8  00 00 00 00 00 00 00 00 
   236)       195.0  Rx         04A8  8  00 00 6F 11 00 00 20 5E 
   237)       195.5  Rx         05A0  8  7B 00 00 22 00 00 10 AB 
   238)       197.3  Rx         0440  8  00 80 00 FE 80 00 40 00 
   239)       201.3  Rx         0540  8  80 00 FF 00 FE 00 00 2F 
   240)       207.3  Rx         0440  8  00 80 00 FE 80 00 48 00 
   241)       208.2  Rx         0280  8  01 0D 88 0E 0F 00 33 0F 
   242)       208.6  Rx         0288  8  E8 6E 33 04 00 5B 8E 0E 
   243)       209.2  Rx         0380  8  00 53 00 3A 20 00 00 0E 
   244)       209.7  Rx         0488  8  60 1A 1A 7E FE FF FF E0 
   245)       210.2  Rx         01A0  8  00 4A 00 00 00 FE 00 55 
   246)       210.7  Rx         04A0  8  00 00 00 00 00 00 00 00 
   247)       211.1  Rx         038A  4  E5 01 E4 00 
   248)       211.4  Rx         0540  8  90 00 FF 00 FE 00 00 2F 
   249)       214.0  Rx         0480  8  84 08 49 1E 19 00 06 C4 
   250)       214.4  Rx         0588  8  1B 62 7E 00 00 00 00 00 
   251)       215.0  Rx         056A  8  31 00 08 00 1A 00 02 21 
   252)       217.3  Rx         0440  8  00 80 00 FE 80 00 50 00 
   253)       217.8  Rx         0280  8  01 0D 88 0E 0F 00 33 0F 
   254)       218.2  Rx         0288  8  E8 6E 33 04 00 5B 8E 0E 
   255)       218.8  Rx         0380  8  00 53 00 3C 20 00 00 0E 
   256)       219.3  Rx         0488  8  70 1A 1A 7E FE FF FF F0 
   257)       219.8  Rx         01A0  8  00 4A 00 00 00 FE 00 56 
   258)       220.2  Rx         01AC  8  2C 83 00 00 69 01 15 D2 
   259)       221.3  Rx         0540  8  A0 00 FF 00 FE 00 00 2F 
   260)       221.5  Rx         04A0  8  00 00 00 00 00 00 00 00 
   261)       222.0  Rx         04A8  8  0C 00 6F 11 00 00 30 42 
   262)       222.4  Rx         05A0  8  7B 00 00 32 00 00 10 AB 
   263)       227.3  Rx         0440  8  00 80 00 FE 80 00 58 00 
   264)       228.1  Rx         0280  8  01 0D 7B 0E 0F 00 33 0F 
   265)       228.6  Rx         0288  8  2C 6E 33 04 00 5B 8E 0E 
   266)       229.1  Rx         0380  8  00 53 00 3C 20 00 00 0E 
   267)       229.7  Rx         0488  8  45 1A 1A 7E FE FF 3A 00 
   268)       230.2  Rx         01A0  8  00 4A 00 00 00 FE 00 57 
   269)       230.7  Rx         04A0  8  00 00 00 00 00 00 00 00 
   270)       231.1  Rx         038A  4  F5 01 F4 00 
   271)       231.4  Rx         0540  8  B0 00 FF 00 FE 00 00 26 
   272)       232.4  Rx         0480  8  84 08 52 1E 19 00 06 DF 
   273)       233.1  Rx         0588  8  1B 62 7E 83 00 00 00 00 
   274)       234.8  Rx         056A  8  21 00 08 00 1A 00 02 31 
   275)       237.1  Rx         0280  8  01 0D 7B 0E 0F 00 33 0F 
   276)       237.4  Rx         0440  8  00 80 00 FE 80 00 60 00 
   277)       237.7  Rx         0288  8  2C 6E 33 04 00 5B 8E 0E 
   278)       238.2  Rx         0380  8  00 53 00 3C 20 00 00 0E 
   279)       238.7  Rx         0488  8  49 1A 1A 7E FE FF 26 10 
   280)       239.2  Rx         01A0  8  00 4A 00 00 00 FE 00 58 
   281)       239.7  Rx         01AC  8  2B 84 00 00 69 01 15 D2 
   282)       240.6  Rx         04A0  8  00 00 00 00 00 00 00 00 
   283)       241.1  Rx         04A8  8  0C 00 72 11 00 00 40 2F 
   284)       241.3  Rx         0540  8  C0 00 FF 00 FE 00 00 26 
   285)       241.5  Rx         05A0  8  7B 00 00 42 00 00 10 AB 
   286)       245.0  Rx         0280  8  01 0D 7B 0E 0F 00 33 0F 
   287)       245.4  Rx         0288  8  2C 6E 33 04 00 5B 8E 0E 
   288)       245.9  Rx         0380  8  00 53 00 3C 20 00 00 0E 
   289)       246.3  Rx         0488  8  14 1A 1A 7E FE FF 4B 20 
   290)       246.8  Rx         01A0  8  00 4A 00 00 00 FE 00 59 
   291)       247.3  Rx         04A0  8  00 00 00 00 00 00 00 00 
   292)       247.5  Rx         0440  8  00 80 00 FE 80 00 68 00 
   293)       247.8  Rx         038A  4  05 01 04 00 
   294)       250.6  Rx         0480  8  84 08 5A 1E 19 00 06 D7 
   295)       251.2  Rx         0588  8  1B 62 7E 81 00 00 00 00 
   296)       251.4  Rx         0540  8  D0 00 FF 00 FE 00 00 26 
   297)       251.7  Rx         056A  8  51 00 08 00 1A 00 02 41 
   298)       254.1  Rx         0280  8  01 0D 76 0E 0F 00 33 0F 
   299)       254.6  Rx         0288  8  2C 6E 33 04 00 5B 8E 0E 
   300)       255.1  Rx         0380  8  00 53 00 3D 20 00 00 0E 
   301)       255.6  Rx         0488  8  48 1A 1A 7E FE FF 07 30 
   302)       256.0  Rx         01A0  8  00 4A 00 00 00 FE 00 5A 
   303)       256.5  Rx         01AC  8  29 85 00 00 69 01 16 D2 
   304)       257.3  Rx         04A0  8  00 00 00 00 00 00 00 00 
   305)       257.5  Rx         0440  8  00 80 00 FE 80 00 70 00 
   306)       258.7  Rx         04A8  8  0C 80 72 11 00 00 50 BF 
   307)       259.2  Rx         05A0  8  7C 00 00 52 00 00 10 AB 
   308)       261.3  Rx         0540  8  E0 00 FF 00 FE 00 00 26 
   309)       261.9  Rx         0520  8  57 C4 00 D6 69 57 33 03 
   310)       263.3  Rx         0280  8  01 0D 76 0E 0F 00 33 0F 
   311)       263.8  Rx         0288  8  64 6E 33 04 00 5B 8E 0E 
   312)       264.2  Rx         0380  8  00 53 00 3D 20 00 00 0E 
   313)       264.8  Rx         0488  8  19 1A 1A 7E FE FF 26 40 
   314)       265.3  Rx         01A0  8  00 4A 00 00 00 FE 00 5B 
   315)       265.8  Rx         04A0  8  00 00 00 00 00 00 00 00 
   316)       266.2  Rx         0390  8  6A 40 50 00 00 00 20 00 
   317)       267.3  Rx         0440  8  00 80 00 FE 80 00 78 00 
   318)       268.6  Rx         038A  4  15 01 14 00 
   319)       270.9  Rx         0480  8  84 08 63 1E 19 00 06 EE 
   320)       271.3  Rx         0540  8  F0 00 FF 00 FE 00 00 2F 
   321)       271.5  Rx         056A  8  41 00 08 00 1A 00 02 51 
   322)       271.9  Rx         0588  8  1B 62 7E 00 00 00 00 00 
   323)       273.7  Rx         05D0  8  C0 04 51 AF 29 48 01 00 
   324)       274.2  Rx         0280  8  01 0D 76 0E 0F 00 33 0F 
   325)       274.7  Rx         0288  8  64 6E 33 04 00 5B 8E 0E 
   326)       275.7  Rx         0380  8  00 53 00 3D 20 00 00 0E 
   327)       276.6  Rx         0488  8  D0 1A 1A 7E FE FF FF 50 
   328)       277.1  Rx         01A0  8  00 4A 00 00 00 FE 00 5C 
   329)       277.3  Rx         0440  8  00 80 00 FE 80 00 00 00 
   330)       277.6  Rx         01AC  8  2A 86 00 00 69 01 16 D2 
   331)       278.6  Rx         04A0  8  00 00 00 00 00 00 00 00 
   332)       279.1  Rx         04A8  8  00 00 74 11 00 00 60 05 
   333)       279.6  Rx         05A0  8  7B 00 00 62 00 00 10 AB 
   334)       281.3  Rx         0540  8  00 00 FF 00 FE 00 00 2F 
   335)       281.8  Rx         05DC  8  77 18 C0 3F 1E 00 30 42 
   336)       283.1  Rx         0280  8  01 0D 76 0E 0F 00 33 0F 
   337)       283.6  Rx         0288  8  64 6E 33 04 00 5B 8E 0E 
   338)       284.1  Rx         0380  8  00 53 00 3D 20 00 00 0E 
   339)       284.6  Rx         01A0  8  00 4A 00 00 00 FE 00 5D 
   340)       285.1  Rx         0488  8  E0 1A 1A 7E FE FF FF 60 
   341)       285.5  Rx         04A0  8  00 00 00 00 00 00 00 00 
   342)       286.0  Rx         0480  8  C2 08 6C 1E 19 00 06 A7 
   343)       287.3  Rx         0440  8  00 80 00 FE 80 00 08 00 
   344)       287.8  Rx         038A  4  25 01 24 00 
   345)       289.2  Rx         056A  8  71 00 08 00 1A 00 02 61 
   346)       289.7  Rx         0588  8  1B 62 7E 00 00 00 00 00 
   347)       291.3  Rx         0540  8  10 00 FF 00 FE 00 00 2F 
   348)       292.1  Rx         0280  8  01 0D 76 0E 0F 00 33 0F 
   349)       292.7  Rx         0288  8  64 6E 33 04 00 5B 8E 0E 
   350)       293.2  Rx         0380  8  00 53 00 3E 20 00 00 0E 
   351)       293.7  Rx         01A0  8  00 4A 00 00 00 FE 00 5E 
   352)       294.1  Rx         0488  8  F0 1A 1A 7E FE FF FF 70 
   353)       294.6  Rx         01AC  8  29 87 00 00 69 01 14 D2 
   354)       295.5  Rx         04A0  8  00 00 00 00 00 00 00 00 
   355)       295.9  Rx         04A8  8  0C 00 6F 11 00 00 70 02 
   356)       296.4  Rx         05A0  8  7B 00 00 72 00 00 10 AB 
   357)       297.3  Rx         0440  8  00 80 00 FE 80 00 10 00 
   358)       299.3  Rx         0280  8  01 0D 76 0E 0F 00 33 0F 
   359)       299.8  Rx         0288  8  8A 6E 33 04 00 5B 8E 0E 
   360)       300.3  Rx         0380  8  00 53 00 3E 20 00 00 0E 
   361)       300.8  Rx         01A0  8  00 4A 00 00 00 FE 00 5F 
   362)       301.3  Rx         0488  8  00 1A 1A 7E FE FF FF 80 
   363)       301.5  Rx         0540  8  20 00 FF 00 FE 00 00 2F 
   364)       301.8  Rx         04A0  8  00 00 00 00 00 00 00 00 
   365)       302.1  Rx         038A  4  35 01 34 00 
   366)       305.2  Rx         0480  8  C2 08 74 1E 19 00 06 BF 
   367)       305.6  Rx         056A  8  61 00 08 00 1A 00 02 71 
   368)       306.1  Rx         0588  8  1B 62 7E 00 00 00 00 00 
   369)       307.3  Rx         0440  8  00 80 00 FE 80 00 18 00 
   370)       311.3  Rx         0540  8  30 00 FF 00 FE 00 00 26 
   371)       317.3  Rx         0440  8  00 80 00 FE 80 00 20 00 
   372)       318.2  Rx         0280  8  01 0D 6D 0E 0F 00 33 0F 
   373)       318.9  Rx         0288  8  8A 6E 33 04 00 5B 8E 0E 
   374)       319.4  Rx         0380  8  00 53 00 3E 20 00 00 0E 
   375)       320.0  Rx         01A0  8  00 4A 00 00 00 FE 00 50 
   376)       320.4  Rx         0488  8  10 1A 1A 7E FE FF FF 90 
   377)       320.9  Rx         01AC  8  26 88 00 00 69 01 14 D2 
   378)       321.4  Rx         0540  8  40 00 FF 00 FE 00 00 26 
   379)       321.8  Rx         04A0  8  00 00 00 00 00 00 00 00 
   380)       322.3  Rx         04A8  8  00 00 72 11 00 00 80 E3 
   381)       323.0  Rx         05A0  8  7C 00 00 82 00 00 10 AB 
   382)       325.8  Rx         0280  8  01 0D 6D 0E 0F 00 33 0F 
   383)       326.2  Rx         0288  8  8A 6E 33 04 00 5B 8E 0E 
   384)       326.7  Rx         0380  8  00 53 00 3E 20 00 00 0E 
   385)       327.2  Rx         01A0  8  00 4A 00 00 00 FE 00 51 
   386)       327.4  Rx         0440  8  00 80 00 FE 80 00 28 00 
   387)       327.8  Rx         0488  8  20 1A 1A 7E FE FF FF A0 
   388)       328.3  Rx         04A0  8  00 00 00 00 00 00 00 00 
   389)       330.0  Rx         038A  4  45 01 44 00 
   390)       331.3  Rx         0540  8  50 00 FF 00 FE 00 00 26 
   391)       331.5  Rx         0480  8  C2 08 7D 1E 19 00 06 B6 
   392)       332.0  Rx         056A  8  91 00 08 00 1A 00 02 81 
   393)       332.4  Rx         0588  8  1B 62 7E 82 00 00 00 00 
   394)       334.9  Rx         0280  8  01 0D 6D 0E 0F 00 33 0F 
   395)       335.3  Rx         0288  8  8A 6E 33 04 00 5B 8E 0E 
   396)       335.9  Rx         0380  8  00 53 00 3E 20 00 00 0E 
   397)       336.3  Rx         01A0  8  00 4A 00 00 00 FE 00 52 
   398)       336.7  Rx         0488  8  30 1A 1A 7E FE FF FF B0 
   399)       337.2  Rx         01AC  8  26 89 00 00 69 01 15 D2 
   400)       337.4  Rx         0440  8  00 80 00 FE 80 00 30 00 
   401)       337.9  Rx         04A0  8  00 00 00 00 00 00 00 00 
   402)       338.7  Rx         04A8  8  00 00 6F 11 00 00 90 EE 
   403)       339.2  Rx         05A0  8  7B 00 00 92 00 00 10 AB 
   404)       341.3  Rx         0540  8  60 00 FF 00 FE 00 00 26 
   405)       342.1  Rx         0280  8  01 0D 6D 0E 0F 00 33 0F 
   406)       342.7  Rx         0288  8  E8 6E 33 04 00 5B 8E 0E 
   407)       343.3  Rx         0380  8  00 53 00 3E 20 00 00 0E 
   408)       343.8  Rx         01A0  8  00 4A 00 00 00 FE 00 53 
   409)       344.2  Rx         0488  8  40 1A 1A 7E FE FF FF C0 
   410)       344.7  Rx         04A0  8  00 00 00 00 00 00 00 00 
   411)       345.1  Rx         038A  4  55 01 54 00 
   412)       347.3  Rx         0440  8  00 80 00 FE 80 00 38 00 
   413)       347.9  Rx         0480  8  C2 08 85 1E 19 00 06 4E 
   414)       348.4  Rx         0588  8  1B 62 7E 81 00 00 00 00 
   415)       348.9  Rx         056A  8  81 00 08 00 1A 00 02 91 
   416)       350.3  Rx         0280  8  01 0D 68 0E 0F 00 33 0F 
   417)       351.3  Rx         0540  8  70 00 FF 00 FE 00 00 2F 
   418)       351.5  Rx         0288  8  E8 6E 33 04 00 5B 8E 0E 
   419)       352.2  Rx         0380  8  00 53 00 3F 20 00 00 0E 
   420)       352.9  Rx         0488  8  50 1A 1A 7E FE FF FF D0 
   421)       353.4  Rx         01A0  8  00 4A 00 00 00 FE 00 54 
   422)       353.8  Rx         01AC  8  26 8A 00 00 69 01 16 D2 
   423)       354.3  Rx         04A0  8  00 00 00 00 00 00 00 00 
   424)       355.2  Rx         04A8  8  19 00 6F 11 00 00 A0 C7 
   425)       356.0  Rx         05A0  8  7B 00 00 A2 00 00 10 AB 
   426)       357.3  Rx         0440  8  00 80 00 FE 80 00 40 00 
   427)       360.3  Rx         0280  8  01 0D 68 0E 0F 00 33 0F 
   428)       360.7  Rx         0288  8  E8 6E 33 04 00 5B 8E 0E 
   429)       361.3  Rx         0380  8  00 53 00 3F 20 00 00 0E 
   430)       361.5  Rx         0540  8  80 00 FF 00 FE 00 00 2F 
   431)       361.8  Rx         01A0  8  00 4A 00 00 00 FE 00 55 
   432)       362.3  Rx         0488  8  60 1A 1A 7E FE FF FF E0 
   433)       363.0  Rx         0390  8  6A 40 50 00 00 00 20 00 
   434)       363.6  Rx         04A0  8  00 00 00 00 00 00 00 00 
   435)       365.7  Rx         038A  4  65 01 64 00 
   436)       367.3  Rx         0440  8  00 80 00 FE 80 00 48 00 
   437)       368.0  Rx         0480  8  1C 08 8E 1E 19 00 06 9B 
   438)       368.4  Rx         0588  8  1B 66 7E 00 00 00 00 00 
   439)       369.0  Rx         056A  8  B1 00 08 00 1A 00 02 A1 
   440)       370.3  Rx         05D0  8  C0 04 51 AF 29 48 01 00 
   441)       371.3  Rx         0540  8  90 00 FF 00 FE 00 00 2F 
   442)       371.9  Rx         0280  8  01 0D 68 0E 0F 00 33 0F 
   443)       372.4  Rx         0288  8  E8 6E 33 04 00 5B 8E 0E 
   444)       373.0  Rx         0380  8  00 53 00 3F 20 00 00 0E 
   445)       373.5  Rx         01A0  8  00 4A 00 00 00 FE 00 56 
   446)       374.0  Rx         0488  8  70 1A 1A 7E FE FF FF F0 
   447)       374.4  Rx         01AC  8  24 8B 00 00 69 01 15 D2 
   448)       375.4  Rx         04A0  8  00 00 00 00 00 00 00 00 
   449)       375.8  Rx         04A8  8  00 00 72 11 00 00 B0 D3 
   450)       376.2  Rx         05A0  8  7C 00 00 B2 00 00 10 AB 
   451)       377.3  Rx         0440  8  00 80 00 FE 80 00 50 00 
   452)       377.8  Rx         05DC  8  77 18 C0 3F 1E 00 30 42 
   453)       379.7  Rx         0280  8  01 0D 65 0E 0F 00 33 0F 
   454)       380.2  Rx         0288  8  2C 6E 33 04 00 5B 8E 0E 
   455)       380.6  Rx         0380  8  00 53 00 3F 20 00 00 0E 
   456)       381.1  Rx         01A0  8  00 4A 00 00 00 FE 00 57 
   457)       381.4  Rx         0540  8  A0 00 FF 00 FE 00 00 2F 
   458)       381.6  Rx         0488  8  45 1A 1A 7E FE FF 3A 00 
   459)       382.1  Rx         04A0  8  00 00 00 00 00 00 00 00 
   460)       383.3  Rx         0480  8  1C 08 96 1E 19 00 06 83 
   461)       384.1  Rx         038A  4  75 01 74 00 
   462)       385.9  Rx         056A  8  A1 00 08 00 1A 00 02 B1 
   463)       386.3  Rx         0588  8  1B 66 7E 80 00 00 00 00 
   464)       387.3  Rx         0440  8  00 80 00 FE 80 00 58 00 
   465)       391.3  Rx         0540  8  B0 00 FF 00 FE 00 00 26 
   466)       397.3  Rx         0440  8  00 80 00 FE 80 00 60 00 
   467)       398.2  Rx         0280  8  01 0D 65 0E 0F 00 33 0F 
   468)       398.6  Rx         0288  8  2C 6E 33 04 00 5B 8E 0E 
   469)       399.2  Rx         0380  8  00 53 00 3F 20 00 00 0E 
   470)       399.7  Rx         01A0  8  00 4A 00 00 00 FE 00 58 
   471)       400.2  Rx         01AC  8  22 8C 00 00 69 01 14 D2 
   472)       400.6  Rx         0488  8  49 1A 1A 7E FE FF 26 10 
   473)       401.1  Rx         04A0  8  00 00 00 00 00 00 00 00 
   474)       401.4  Rx         0540  8  C0 00 FF 00 FE 00 00 26 
   475)       402.1  Rx         04A8  8  06 00 6F 11 00 00 C0 B8 
   476)       402.8  Rx         05A0  8  7C 00 00 C2 00 00 10 AB 
   477)       405.6  Rx         0280  8  01 0D 65 0E 0F 00 33 0F 
   478)       406.0  Rx         0288  8  2C 6E 33 04 00 5B 8E 0E 
   479)       406.5  Rx         0380  8  00 53 00 3F 20 00 00 0E 
   480)       407.0  Rx         01A0  8  00 4A 00 00 00 FE 00 59 
   481)       407.3  Rx         0440  8  00 80 00 FE 80 00 68 00 
   482)       407.6  Rx         04A0  8  00 00 00 00 00 00 00 00 
   483)       408.4  Rx         0488  8  14 1A 1A 7E FE FF 4B 20 
   484)       408.8  Rx         038A  4  85 01 84 00 
   485)       411.3  Rx         0540  8  D0 00 FF 00 FE 00 00 26 
   486)       411.7  Rx         0480  8  1C 08 9F 1E 19 00 06 8A 
   487)       412.1  Rx         056A  8  D1 00 08 00 1A 00 02 C1 
   488)       412.8  Rx         0588  8  1B 66 7E 00 00 00 00 00 
   489)       415.5  Rx         0280  8  01 0D 65 0E 0F 00 33 0F 
   490)       415.9  Rx         0288  8  2C 6E 33 04 00 5B 8E 0E 
   491)       416.4  Rx         0380  8  00 53 00 40 20 00 00 0E 
   492)       416.8  Rx         01A0  8  00 4A 00 00 00 FE 00 5A 
   493)       417.3  Rx         01AC  8  22 8D 00 00 69 01 15 D2 
   494)       417.6  Rx         0440  8  00 80 00 FE 80 00 70 00 
   495)       418.0  Rx         0488  8  48 1A 1A 7E FE FF 07 30 
   496)       418.4  Rx         04A0  8  00 00 00 00 00 00 00 00 
   497)       419.4  Rx         04A8  8  12 80 74 11 00 00 D0 27 
   498)       419.9  Rx         05A0  8  7C 00 00 D2 00 00 10 AB 
   499)       421.3  Rx         0540  8  E0 00 FF 00 FE 00 00 26 
   500)       423.5  Rx         0280  8  01 0D 65 0E 0F 00 33 0F 
   501)       424.0  Rx         0288  8  64 6E 33 04 00 5B 8E 0E 
   502)       424.7  Rx         0380  8  00 53 00 40 20 00 00 0E 
   503)       425.2  Rx         01A0  8  00 4A 00 00 00 FE 00 5B 
   504)       425.7  Rx         04A0  8  00 00 00 00 00 00 00 00 
   505)       426.1  Rx         0488  8  19 1A 1A 7E FE FF 26 40 
   506)       426.5  Rx         038A  4  95 01 94 00 
   507)       427.4  Rx         0440  8  00 80 00 FE 80 00 78 00 
   508)       429.3  Rx         0480  8  1C 08 A8 1E 19 00 06 BD 
   509)       429.9  Rx         0588  8  1B 66 7E 00 00 00 00 00 
   510)       430.3  Rx         056A  8  C1 00 08 00 1A 00 02 D1 
   511)       431.3  Rx         0540  8  F0 00 FF 00 FE 00 00 2F 
   512)       432.9  Rx         0280  8  01 0D 65 0E 0F 00 33 0F 
   513)       433.3  Rx         0288  8  64 6E 33 04 00 5B 8E 0E 
   514)       433.8  Rx         0380  8  00 53 00 40 20 00 00 0E 
   515)       434.2  Rx         01A0  8  00 4A 00 00 00 FE 00 5C 
   516)       434.7  Rx         01AC  8  21 8E 00 00 69 01 15 D2 
   517)       435.3  Rx         0488  8  D0 1A 1A 7E FE FF FF 50 
   518)       435.7  Rx         04A0  8  00 00 00 00 00 00 00 00 
   519)       436.5  Rx         04A8  8  0C 00 6F 11 00 00 E0 92 
   520)       437.0  Rx         05A0  8  7C 00 00 E2 00 00 10 AB 
   521)       437.4  Rx         0440  8  00 80 00 FE 80 00 00 00 
   522)       440.4  Rx         0280  8  01 0D 52 0E 0F 00 33 0F 
   523)       440.9  Rx         0288  8  64 6E 33 04 00 5B 8E 0E 
   524)       441.3  Rx         0540  8  00 00 FF 00 FE 00 00 2F 
   525)       441.6  Rx         0380  8  00 53 00 40 20 00 00 0E 
   526)       441.9  Rx         01A0  8  00 4A 00 00 00 FE 00 5D 
   527)       442.4  Rx         0488  8  E0 1A 1A 7E FE FF FF 60 
   528)       443.1  Rx         04A0  8  00 00 00 00 00 00 00 00 
   529)       443.5  Rx         038A  4  A5 01 A4 00 
   530)       445.7  Rx         0480  8  54 08 B0 1E 19 00 06 ED 
   531)       446.6  Rx         0588  8  1B 66 7E 84 00 00 00 00 
   532)       447.1  Rx         056A  8  F1 00 08 00 1A 00 02 E1 
   533)       447.3  Rx         0440  8  00 80 00 FE 80 00 08 00 
   534)       451.3  Rx         0540  8  10 00 FF 00 FE 00 00 2F 
   535)       457.3  Rx         0440  8  00 80 00 FE 80 00 10 00 
   536)       459.2  Rx         0280  8  01 0D 52 0E 0F 00 33 0F 
   537)       459.7  Rx         0288  8  64 6E 33 04 00 5B 8E 0E 
   538)       460.2  Rx         01A0  8  00 4A 00 00 00 FE 00 5E 
   539)       460.7  Rx         0380  8  00 53 00 40 20 00 00 0E 
   540)       461.2  Rx         01AC  8  23 8F 00 00 69 01 16 D2 
   541)       461.5  Rx         0540  8  20 00 FF 00 FE 00 00 2F 
   542)       461.7  Rx         0488  8  F0 1A 1A 7E FE FF FF 70 
   543)       462.2  Rx         04A0  8  00 00 00 00 00 00 00 00 
   544)       463.4  Rx         04A8  8  06 80 6F 11 00 00 F0 08 
   545)       464.2  Rx         05A0  8  7C 00 00 F2 00 00 10 AB 
   546)       466.3  Rx         0520  8  02 02 00 D6 69 57 33 03 
   547)       467.3  Rx         0440  8  00 80 00 FE 80 00 18 00 
   548)       468.4  Rx         0280  8  01 0D 52 0E 0F 00 33 0F 
   549)       468.9  Rx         0288  8  8A 6E 33 04 00 5B 8E 0E 
   550)       469.4  Rx         0380  8  00 53 00 40 20 00 00 0E 
   551)       469.9  Rx         01A0  8  00 4A 00 00 00 FE 00 5F 
   552)       470.4  Rx         04A0  8  00 00 00 00 00 00 00 00 
   553)       471.0  Rx         0390  8  6A 40 50 00 00 00 20 00 
   554)       471.3  Rx         0540  8  30 00 FF 00 FE 00 00 26 
   555)       471.6  Rx         0488  8  00 1A 1A 7E FE FF FF 80 
   556)       476.0  Rx         038A  4  B5 01 B4 00 
   557)       477.3  Rx         0440  8  00 80 00 FE 80 00 20 00 
   558)       477.5  Rx         0480  8  54 08 B9 1E 19 00 06 E4 
   559)       478.0  Rx         056A  8  E1 00 08 00 1A 00 02 F1 
   560)       478.4  Rx         0588  8  1B 68 7E 00 00 00 00 00 
   561)       480.3  Rx         05D0  8  C0 04 51 AF 29 48 01 00 
   562)       481.3  Rx         0540  8  40 00 FF 00 FE 00 00 26 
   563)       481.6  Rx         0280  8  01 0D 52 0E 0F 00 33 0F 
   564)       481.9  Rx         0288  8  8A 6E 33 04 00 5B 8E 0E 
   565)       483.0  Rx         0380  8  00 53 00 42 20 00 00 0E 
   566)       483.5  Rx         0488  8  10 1A 1A 7E FE FF FF 90 
   567)       484.0  Rx         01A0  8  00 4A 00 00 00 FE 00 50 
   568)       484.4  Rx         01AC  8  2E 80 00 00 69 01 14 D2 
   569)       485.4  Rx         04A8  8  00 00 6D 11 00 00 00 7C 
   570)       486.7  Rx         05DC  8  77 18 C0 3F 1E 00 30 42 
   571)       487.3  Rx         0440  8  00 80 00 FE 80 00 28 00 
   572)       488.3  Rx         0280  8  01 0D 48 0E 0F 00 33 0F 
   573)       488.8  Rx         0288  8  8A 6E 33 04 00 5B 8E 0E 
   574)       489.7  Rx         01A0  8  00 4A 00 00 00 FE 00 51 
   575)       490.2  Rx         0380  8  00 53 00 42 20 00 00 0E 
   576)       490.8  Rx         0488  8  20 1A 1A 7E FE FF FF A0 
   577)       491.3  Rx         04A0  8  00 00 00 00 00 00 00 00 
   578)       491.5  Rx         0540  8  50 00 FF 00 FE 00 00 26 
   579)       493.5  Rx         038A  4  C5 01 C4 00 
   580)       494.4  Rx         0480  8  54 08 C1 1E 19 00 06 9C 
   581)       494.9  Rx         0588  8  1B 68 7E 82 00 00 00 00 
   582)       495.4  Rx         056A  8  11 00 08 00 1A 00 02 01 
   583)       497.3  Rx         0440  8  00 80 00 FE 80 00 30 00 
   584)       497.8  Rx         0280  8  01 0D 48 0E 0F 00 33 0F 
   585)       498.2  Rx         0288  8  8A 6E 33 04 00 5B 8E 0E 
   586)       498.7  Rx         01A0  8  00 4A 00 00 00 FE 00 52 
   587)       499.2  Rx         0380  8  00 53 00 42 20 00 00 0E 
   588)       499.7  Rx         01AC  8  2E 81 00 00 69 01 15 D2 
   589)       500.2  Rx         0488  8  30 1A 1A 7E FE FF FF B0 
   590)       500.7  Rx         04A0  8  00 00 00 00 00 00 00 00 
   591)       501.4  Rx         0540  8  60 00 FF 00 FE 00 00 26 
   592)       501.7  Rx         04A8  8  19 00 6F 11 00 00 10 77 
   593)       502.1  Rx         05A0  8  7C 00 00 12 00 00 10 AB 
   594)       504.8  Rx         0280  8  01 0D 48 0E 0F 00 33 0F 
   595)       505.3  Rx         0288  8  E8 6E 33 04 00 5B 8E 0E 
   596)       505.8  Rx         01A0  8  00 4A 00 00 00 FE 00 53 
   597)       506.2  Rx         0380  8  00 53 00 42 20 00 00 0E 
   598)       507.1  Rx         0488  8  40 1A 1A 7E FE FF FF C0 
   599)       507.4  Rx         0440  8  00 80 00 FE 80 00 38 00 
   600)       507.6  Rx         04A0  8  00 00 00 00 00 00 00 00 
   601)       508.5  Rx         038A  4  D5 01 D4 00 
   602)       510.8  Rx         0480  8  54 08 CA 1E 19 00 06 97 
   603)       511.3  Rx         0540  8  70 00 FF 00 FE 00 00 2F 
   604)       511.8  Rx         0588  8  1B 68 7E 03 00 00 00 00 
   605)       512.8  Rx         056A  8  01 00 08 00 1A 00 02 11 
   606)       514.1  Rx         0280  8  01 0D 54 0E 0F 00 33 0F 
   607)       515.6  Rx         0288  8  E8 6E 33 04 00 5B 8E 0E 
   608)       516.4  Rx         0380  8  00 53 00 43 20 00 00 0E 
   609)       516.9  Rx         0488  8  50 1A 1A 7E FE FF FF D0 
   610)       517.3  Rx         0440  8  00 80 00 FE 80 00 40 00 
   611)       517.6  Rx         01A0  8  00 4A 00 00 00 FE 00 54 
   612)       518.0  Rx         01AC  8  2D 82 00 00 69 01 15 D2 
   613)       518.8  Rx         04A0  8  00 00 00 00 00 00 00 00 
   614)       519.4  Rx         04A8  8  06 00 6F 11 00 00 20 58 
   615)       519.9  Rx         05A0  8  7C 00 00 22 00 00 10 AB 
   616)       521.3  Rx         0540  8  80 00 FF 00 FE 00 00 2F 
   617)       522.4  Rx         0280  8  01 0D 54 0E 0F 00 33 0F 
   618)       523.0  Rx         01A0  8  00 4A 00 00 00 FE 00 55 
   619)       523.6  Rx         0288  8  E8 6E 33 04 00 5B 8E 0E 
   620)       524.1  Rx         0380  8  00 53 00 43 20 00 00 0E 
   621)       524.5  Rx         04A0  8  00 00 00 00 00 00 00 00 
   622)       525.0  Rx         0488  8  60 1A 1A 7E FE FF FF E0 
   623)       527.3  Rx         0440  8  00 80 00 FE 80 00 48 00 
   624)       527.5  Rx         038A  4  E5 01 E4 00 
   625)       528.6  Rx         0480  8  84 08 D3 1E 19 00 06 5E 
   626)       529.6  Rx         0588  8  1B 68 7E 00 00 00 00 00 
   627)       530.6  Rx         056A  8  31 00 08 00 1A 00 02 21 
   628)       531.3  Rx         0540  8  90 00 FF 00 FE 00 00 2F 
   629)       533.0  Rx         0280  8  01 0D 54 0E 0F 00 33 0F 
   630)       533.4  Rx         0288  8  E8 6E 33 04 00 5B 8E 0E 
   631)       533.9  Rx         01A0  8  00 4A 00 00 00 FE 00 56 
   632)       534.3  Rx         0380  8  00 53 00 43 20 00 00 0E 
   633)       534.8  Rx         01AC  8  2C 83 00 00 69 01 15 D2 
   634)       535.3  Rx         0488  8  70 1A 1A 7E FE FF FF F0 
   635)       535.8  Rx         04A0  8  00 00 00 00 00 00 00 00 
   636)       536.6  Rx         04A8  8  06 00 6F 11 00 00 30 48 
   637)       537.1  Rx         05A0  8  7C 00 00 32 00 00 10 AB 
   638)       537.4  Rx         0440  8  00 80 00 FE 80 00 50 00 
   639)       539.6  Rx         0280  8  01 0D 5E 0E 0F 00 33 0F 
   640)       540.1  Rx         01A0  8  00 4A 00 00 00 FE 00 57 
   641)       540.6  Rx         0288  8  2C 6E 33 04 00 5B 8E 0E 
   642)       541.1  Rx         0380  8  00 53 00 43 20 00 00 0E 
   643)       541.4  Rx         0540  8  A0 00 FF 00 FE 00 00 2F 
   644)       541.6  Rx         0488  8  44 1A 1A 7E FE FF 3B 00 
   645)       542.1  Rx         04A0  8  00 00 00 00 00 00 00 00 
   646)       543.1  Rx         038A  4  F5 01 F4 00 
   647)       545.4  Rx         0480  8  84 08 DB 1E 19 00 06 56 
   648)       546.2  Rx         0588  8  1B 68 7E 02 00 00 00 00 
   649)       547.1  Rx         056A  8  21 00 08 00 1A 00 02 31 
   650)       547.4  Rx         0440  8  00 80 00 FE 80 00 58 00 
   651)       549.3  Rx         0280  8  01 0D 5E 0E 0F 00 33 0F 
   652)       549.8  Rx         0288  8  2C 6E 33 04 00 5B 8E 0E 
   653)       550.3  Rx         0380  8  00 53 00 42 20 00 00 0E 
   654)       550.8  Rx         0488  8  49 1A 1A 7E FE FF 26 10 
   655)       551.3  Rx         01A0  8  00 4A 00 00 00 FE 00 58 
   656)       551.6  Rx         0540  8  B0 00 FF 00 FE 00 00 26 
   657)       551.8  Rx         01AC  8  2B 84 00 00 69 01 15 D2 
   658)       552.2  Rx         04A0  8  00 00 00 00 00 00 00 00 
   659)       553.3  Rx         04A8  8  06 00 6F 11 00 00 40 38 
   660)       554.1  Rx         05A0  8  7C 00 00 42 00 00 10 AB 
   661)       557.3  Rx         0440  8  00 80 00 FE 80 00 60 00 
   662)       561.3  Rx         0540  8  C0 00 FF 00 FE 00 00 26 
   663)       566.6  Rx         0280  8  01 0D 5E 0E 0F 00 33 0F 
   664)       567.1  Rx         0288  8  2C 6E 33 04 00 5B 8E 0E 
   665)       567.3  Rx         0440  8  00 80 00 FE 80 00 68 00 
   666)       567.7  Rx         01A0  8  00 4A 00 00 00 FE 00 59 
   667)       568.2  Rx         0380  8  00 53 00 42 20 00 00 0E 
   668)       568.7  Rx         0390  8  6A 40 50 00 00 00 20 00 
   669)       569.2  Rx         0488  8  14 1A 1A 7E FE FF 4B 20 
   670)       569.7  Rx         04A0  8  00 00 00 00 00 00 00 00 
   671)       571.3  Rx         0540  8  D0 00 FF 00 FE 00 00 26 
   672)       572.2  Rx         038A  4  05 01 04 00 
   673)       574.2  Rx         0480  8  84 08 E4 1E 19 00 06 69 
   674)       575.1  Rx         0588  8  1B 68 7E 00 00 00 00 00 
   675)       575.9  Rx         056A  8  51 00 08 00 1A 00 02 41 
   676)       576.8  Rx         05D0  8  C0 04 51 AF 29 48 01 00 
   677)       577.3  Rx         0440  8  00 80 00 FE 80 00 70 00 
   678)       578.4  Rx         0280  8  01 0D 4F 0E 0F 00 33 0F 
   679)       578.9  Rx         0288  8  2C 6E 33 04 00 5B 8E 0E 
   680)       579.4  Rx         01A0  8  00 4A 00 00 00 FE 00 5A 
   681)       579.9  Rx         0380  8  00 53 00 41 20 00 00 0E 
   682)       580.4  Rx         01AC  8  2B 85 00 00 69 01 14 D2 
   683)       580.9  Rx         0488  8  47 1A 1A 7E FE FF 08 30 
   684)       581.4  Rx         04A0  8  00 00 00 00 00 00 00 00 
   685)       581.6  Rx         0540  8  E0 00 FF 00 FE 00 00 26 
   686)       582.3  Rx         04A8  8  06 00 6F 11 00 00 50 28 
   687)       583.0  Rx         05A0  8  7B 00 00 52 00 00 10 AB 
   688)       584.4  Rx         05DC  8  77 18 C0 3F 1E 00 30 42 
   689)       585.9  Rx         0280  8  01 0D 4F 0E 0F 00 33 0F 
   690)       586.4  Rx         01A0  8  00 4A 00 00 00 FE 00 5B 
   691)       586.8  Rx         0288  8  64 6E 33 04 00 5B 8E 0E 
   692)       587.3  Rx         0380  8  00 53 00 41 20 00 00 0E 
   693)       587.5  Rx         0440  8  00 80 00 FE 80 00 78 00 
   694)       587.9  Rx         04A0  8  00 00 00 00 00 00 00 00 
   695)       588.4  Rx         0488  8  19 1A 1A 7E FE FF 26 40 
   696)       589.7  Rx         038A  4  15 01 14 00 
   697)       591.3  Rx         0540  8  F0 00 FF 00 FE 00 00 2F 
   698)       591.6  Rx         0480  8  84 08 ED 1E 19 00 06 60 
   699)       592.5  Rx         0588  8  1B 6A 7E 83 00 00 00 00 
   700)       593.5  Rx         056A  8  41 00 08 00 1A 00 02 51 
   701)       595.8  Rx         0280  8  01 0D 4F 0E 0F 00 33 0F 
   702)       596.2  Rx         01A0  8  00 4A 00 00 00 FE 00 5C 
   703)       596.7  Rx         0288  8  64 6E 33 04 00 5B 8E 0E 
   704)       597.1  Rx         01AC  8  28 86 00 00 69 01 14 D2 
   705)       597.4  Rx         0440  8  00 80 00 FE 80 00 00 00 
   706)       597.8  Rx         0380  8  00 53 00 41 20 00 00 0E 
   707)       598.2  Rx         0488  8  D0 1A 1A 7E FE FF FF 50 
   708)       598.7  Rx         04A0  8  00 00 00 00 00 00 00 00 
   709)       599.2  Rx         04A8  8  06 80 6F 11 00 00 60 98 
   710)       600.6  Rx         05A0  8  7C 00 00 62 00 00 10 AB 
   711)       601.3  Rx         0540  8  00 00 FF 00 FE 00 00 2F 
   712)       602.8  Rx         0280  8  01 0D 4F 0E 0F 00 33 0F 
   713)       603.3  Rx         01A0  8  00 4A 00 00 00 FE 00 5D 
   714)       603.8  Rx         0288  8  64 6E 33 04 00 5B 8E 0E 
   715)       604.3  Rx         0380  8  00 53 00 41 20 00 00 0E 
   716)       604.8  Rx         04A0  8  00 00 00 00 00 00 00 00 
   717)       605.2  Rx         0488  8  E0 1A 1A 7E FE FF FF 60 
   718)       606.5  Rx         038A  4  25 01 24 00 
   719)       607.3  Rx         0440  8  00 80 00 FE 80 00 08 00 
   720)       608.7  Rx         0480  8  C2 08 F6 1E 19 00 06 3D 
   721)       609.7  Rx         0588  8  1B 6A 7E 02 00 00 00 00 
   722)       610.6  Rx         056A  8  71 00 08 00 1A 00 02 61 
   723)       611.3  Rx         0540  8  10 00 FF 00 FE 00 00 2F 
   724)       613.2  Rx         0280  8  01 0D 57 0E 0F 00 33 0F 
   725)       613.7  Rx         01A0  8  00 4A 00 00 00 FE 00 5E 
   726)       614.1  Rx         0288  8  64 6E 33 04 00 5B 8E 0E 
   727)       614.5  Rx         01AC  8  28 87 00 00 69 01 15 D2 
   728)       615.0  Rx         0380  8  00 53 00 42 20 00 00 0E 
   729)       615.5  Rx         0488  8  F0 1A 1A 7E FE FF FF 70 
   730)       616.0  Rx         04A0  8  00 00 00 00 00 00 00 00 
   731)       616.8  Rx         04A8  8  00 00 72 11 00 00 70 13 
   732)       617.3  Rx         05A0  8  7C 00 00 72 00 00 10 AB 
   733)       617.6  Rx         0440  8  00 80 00 FE 80 00 10 00 
   734)       619.9  Rx         0280  8  01 0D 57 0E 0F 00 33 0F 
   735)       620.3  Rx         01A0  8  00 4A 00 00 00 FE 00 5F 
   736)       620.9  Rx         0288  8  8A 6E 33 04 00 5B 8E 0E 
   737)       621.3  Rx         0380  8  00 53 00 42 20 00 00 0E 
   738)       621.6  Rx         0540  8  20 00 FF 00 FE 00 00 2F 
   739)       621.8  Rx         0488  8  00 1A 1A 7E FE FF FF 80 
   740)       622.3  Rx         04A0  8  00 00 00 00 00 00 00 00 
   741)       622.9  Rx         038A  4  35 01 34 00 
   742)       625.6  Rx         0480  8  C2 08 FE 1E 19 00 06 35 
   743)       626.5  Rx         0588  8  1B 6A 7E 00 00 00 00 00 
   744)       627.3  Rx         0440  8  00 80 00 FE 80 00 18 00 
   745)       627.6  Rx         056A  8  61 00 08 00 1A 00 02 71 
   746)       629.5  Rx         0280  8  01 0D 57 0E 0F 00 33 0F 
   747)       630.0  Rx         0288  8  8A 6E 33 04 00 5B 8E 0E 
   748)       630.5  Rx         0380  8  00 53 00 41 20 00 00 0E 
   749)       631.1  Rx         01A0  8  00 4A 00 00 00 FE 00 50 
   750)       631.4  Rx         0540  8  30 00 FF 00 FE 00 00 26 
   751)       631.7  Rx         0488  8  10 1A 1A 7E FE FF FF 90 
   752)       632.0  Rx         01AC  8  24 88 00 00 69 01 16 D2 
   753)       633.3  Rx         04A0  8  00 00 00 00 00 00 00 00 
   754)       633.7  Rx         04A8  8  0C 80 6D 11 00 00 80 70 
   755)       634.2  Rx         05A0  8  7C 00 00 82 00 00 10 AB 
   756)       637.3  Rx         0440  8  00 80 00 FE 80 00 20 00 
   757)       641.3  Rx         0540  8  40 00 FF 00 FE 00 00 26 
   758)       646.0  Rx         01A0  8  00 4A 00 00 00 FE 00 51 
   759)       646.5  Rx         0280  8  01 0D 65 0E 0F 00 33 0F 
   760)       647.0  Rx         0288  8  8A 6E 33 04 00 5B 8E 0E 
   761)       647.4  Rx         0440  8  00 80 00 FE 80 00 28 00 
   762)       647.6  Rx         0380  8  00 53 00 41 20 00 00 0E 
   763)       648.1  Rx         04A0  8  00 00 00 00 00 00 00 00 
   764)       648.5  Rx         0488  8  20 1A 1A 7E FE FF FF A0 
   765)       649.8  Rx         038A  4  45 01 44 00 
   766)       651.3  Rx         0540  8  50 00 FF 00 FE 00 00 26 
   767)       651.8  Rx         0480  8  C2 08 07 1F 19 00 06 CD 
   768)       652.2  Rx         0588  8  1B 6A 7E 03 00 00 00 00 
   769)       653.3  Rx         056A  8  91 00 08 00 1A 00 02 81 
   770)       655.9  Rx         01A0  8  00 4A 00 00 00 FE 00 52 
   771)       656.4  Rx         0280  8  01 0D 65 0E 0F 00 33 0F 
   772)       656.9  Rx         01AC  8  25 89 00 00 69 01 16 D2 
   773)       657.4  Rx         0288  8  8A 6E 33 04 00 5B 8E 0E 
   774)       657.6  Rx         0440  8  00 80 00 FE 80 00 30 00 
   775)       658.4  Rx         0380  8  00 53 00 41 20 00 00 0E 
   776)       658.8  Rx         0488  8  30 1A 1A 7E FE FF FF B0 
   777)       659.3  Rx         04A0  8  00 00 00 00 00 00 00 00 
   778)       659.8  Rx         04A8  8  25 00 6F 11 00 00 90 CB 
   779)       661.3  Rx         05A0  8  7B 00 00 92 00 00 10 AB 
   780)       661.5  Rx         0540  8  60 00 FF 00 FE 00 00 26 
   781)       663.2  Rx         0520  8  60 44 00 D6 69 57 33 03 
   782)       664.7  Rx         01A0  8  00 4A 00 00 00 FE 00 53 
   783)       665.3  Rx         0280  8  01 0D 65 0E 0F 00 33 0F 
   784)       665.7  Rx         0288  8  E8 6E 33 04 00 5B 8E 0E 
   785)       666.3  Rx         0380  8  00 53 00 41 20 00 00 0E 
   786)       666.7  Rx         0390  8  6A 40 50 00 00 00 20 00 
   787)       667.2  Rx         0488  8  40 1A 1A 7E FE FF FF C0 
   788)       667.5  Rx         0440  8  00 80 00 FE 80 00 38 00 
   789)       667.8  Rx         04A0  8  00 00 00 00 00 00 00 00 
   790)       670.0  Rx         038A  4  55 01 54 00 
   791)       671.3  Rx         0540  8  70 00 FF 00 FE 00 00 2F 
   792)       671.9  Rx         0480  8  C2 08 10 1F 19 00 06 DA 
   793)       673.4  Rx         0588  8  1B 6A 7E 00 00 00 00 00 
   794)       674.2  Rx         056A  8  81 00 08 00 1A 00 02 91 
   795)       675.5  Rx         05D0  8  C0 04 51 AF 29 48 01 00 
   796)       677.0  Rx         0280  8  01 0D 5C 0E 0F 00 33 0F 
   797)       677.3  Rx         0440  8  00 80 00 FE 80 00 40 00 
   798)       677.5  Rx         01A0  8  00 4A 00 00 00 FE 00 54 
   799)       678.1  Rx         0288  8  E8 6E 33 04 00 5B 8E 0E 
   800)       678.5  Rx         01AC  8  24 8A 00 00 69 01 14 D2 
   801)       679.0  Rx         0380  8  00 53 00 40 20 00 00 0E 
   802)       679.5  Rx         0488  8  50 1A 1A 7E FE FF FF D0 
   803)       680.0  Rx         04A0  8  00 00 00 00 00 00 00 00 
   804)       680.5  Rx         04A8  8  06 80 6D 11 00 00 A0 5A 
   805)       681.4  Rx         0540  8  80 00 FF 00 FE 00 00 2F 
   806)       682.0  Rx         05A0  8  7B 00 00 A2 00 00 10 AB 
   807)       683.1  Rx         05DC  8  77 18 C0 3F 1E 00 30 42 
   808)       684.5  Rx         01A0  8  00 4A 00 00 00 FE 00 55 
   809)       685.1  Rx         0280  8  01 0D 5C 0E 0F 00 33 0F 
   810)       685.5  Rx         0288  8  E8 6E 33 04 00 5B 8E 0E 
   811)       686.0  Rx         0380  8  00 53 00 40 20 00 00 0E 
   812)       686.5  Rx         04A0  8  00 00 00 00 00 00 00 00 
   813)       687.0  Rx         0488  8  60 1A 1A 7E FE FF FF E0 
   814)       687.4  Rx         0440  8  00 80 00 FE 80 00 48 00 
   815)       688.7  Rx         038A  4  65 01 64 00 
   816)       690.2  Rx         0480  8  1C 08 18 1F 19 00 06 0C 
   817)       690.7  Rx         0588  8  1B 6A 7E 82 00 00 00 00 
   818)       691.2  Rx         056A  8  B1 00 08 00 1A 00 02 A1 
   819)       691.5  Rx         0540  8  90 00 FF 00 FE 00 00 2F 
   820)       694.0  Rx         01A0  8  00 4A 00 00 00 FE 00 56 
   821)       694.5  Rx         0280  8  01 0D 5C 0E 0F 00 33 0F 
   822)       695.0  Rx         01AC  8  22 8B 00 00 69 01 13 D2 
   823)       695.5  Rx         0288  8  E8 6E 33 04 00 5B 8E 0E 
   824)       696.0  Rx         0380  8  00 53 00 40 20 00 00 0E 
   825)       696.4  Rx         0488  8  70 1A 1A 7E FE FF FF F0 
   826)       696.9  Rx         04A0  8  00 00 00 00 00 00 00 00 
   827)       697.4  Rx         0440  8  00 80 00 FE 80 00 50 00 
   828)       697.9  Rx         04A8  8  06 00 6F 11 00 00 B0 C8 
   829)       698.3  Rx         05A0  8  7B 00 00 B2 00 00 10 AB 
   830)       700.7  Rx         01A0  8  00 4A 00 00 00 FE 00 57 
   831)       701.3  Rx         0280  8  01 0D 5C 0E 0F 00 33 0F 
   832)       701.5  Rx         0540  8  A0 00 FF 00 FE 00 00 2F 
   833)       701.8  Rx         0288  8  2C 6E 33 04 00 5B 8E 0E 
   834)       702.2  Rx         0380  8  00 53 00 40 20 00 00 0E 
   835)       702.9  Rx         04A0  8  00 00 00 00 00 00 00 00 
   836)       703.4  Rx         0488  8  45 1A 1A 7E FE FF 3A 00 
   837)       703.8  Rx         038A  4  75 01 74 00 
   838)       706.1  Rx         0480  8  1C 08 21 1F 19 00 06 35 
   839)       707.0  Rx         0588  8  1B 6A 7E 86 00 00 00 00 
   840)       707.3  Rx         0440  8  00 80 00 FE 80 00 58 00 
   841)       708.4  Rx         056A  8  A1 00 08 00 1A 00 02 B1 
   842)       711.2  Rx         01A0  8  00 4A 00 00 00 FE 00 58 
   843)       711.5  Rx         0540  8  B0 00 FF 00 FE 00 00 26 
   844)       711.8  Rx         0280  8  01 0D 43 0E 0F 00 33 0F 
   845)       712.3  Rx         01AC  8  23 8C 00 00 69 01 15 D2 
   846)       713.0  Rx         0288  8  2C 6E 33 04 00 5B 8E 0E 
   847)       713.5  Rx         0380  8  00 53 00 41 20 00 00 0E 
   848)       714.1  Rx         0488  8  49 1A 1A 7E FE FF 26 10 
   849)       714.7  Rx         04A0  8  00 00 00 00 00 00 00 00 
   850)       717.3  Rx         0440  8  00 80 00 FE 80 00 60 00 
   851)       718.1  Rx         04A8  8  06 00 6F 11 00 00 C0 B8 
   852)       719.0  Rx         05A0  8  7B 00 00 C2 00 00 10 AB 
   853)       720.6  Rx         01A0  8  00 4A 00 00 00 FE 00 59 
   854)       721.2  Rx         04A0  8  00 00 00 00 00 00 00 00 
   855)       721.5  Rx         0540  8  C0 00 FF 00 FE 00 00 26 
   856)       721.8  Rx         0280  8  01 0D 43 0E 0F 00 33 0F 
   857)       722.3  Rx         0288  8  2C 6E 33 04 00 5B 8E 0E 
   858)       722.9  Rx         0380  8  00 53 00 41 20 00 00 0E 
   859)       723.4  Rx         0488  8  14 1A 1A 7E FE FF 4B 20 
   860)       725.2  Rx         038A  4  85 01 84 00 
   861)       726.1  Rx         0480  8  1C 08 2A 1F 19 00 06 3E 
   862)       727.0  Rx         0588  8  1B 6A 7E 00 00 00 00 00 
   863)       727.4  Rx         0440  8  00 80 00 FE 80 00 68 00 
   864)       728.0  Rx         056A  8  D1 00 08 00 1A 00 02 C1 
   865)       730.3  Rx         01A0  8  00 4A 00 00 00 FE 00 5A 
   866)       730.9  Rx         0280  8  01 0D 43 0E 0F 00 33 0F 
   867)       731.3  Rx         0540  8  D0 00 FF 00 FE 00 00 26 
   868)       731.6  Rx         01AC  8  21 8D 00 00 69 01 16 D2 
   869)       731.9  Rx         0288  8  2C 6E 33 04 00 5B 8E 0E 
   870)       732.4  Rx         0380  8  00 53 00 43 20 00 00 0E 
   871)       733.0  Rx         0488  8  47 1A 1A 7E FE FF 08 30 
   872)       733.5  Rx         04A0  8  00 00 00 00 00 00 00 00 
   873)       734.3  Rx         04A8  8  12 00 72 11 00 00 D0 A1 
   874)       735.3  Rx         05A0  8  7C 00 00 D2 00 00 10 AB 
   875)       737.3  Rx         0440  8  00 80 00 FE 80 00 70 00 
   876)       741.3  Rx         0540  8  E0 00 FF 00 FE 00 00 26 
   877)       747.0  Rx         01A0  8  00 4A 00 00 00 FE 00 5B 
   878)       747.3  Rx         0440  8  00 80 00 FE 80 00 78 00 
   879)       747.6  Rx         04A0  8  00 00 00 00 00 00 00 00 
   880)       748.1  Rx         0280  8  01 0D 3C 0E 0F 00 33 0F 
   881)       748.6  Rx         0288  8  64 6E 33 04 00 5B 8E 0E 
   882)       749.1  Rx         0380  8  00 53 00 43 20 00 00 0E 
   883)       749.6  Rx         0488  8  19 1A 1A 7E FE FF 26 40 
   884)       750.4  Rx         038A  4  95 01 94 00 
   885)       751.3  Rx         0540  8  F0 00 FF 00 FE 00 00 2F 
   886)       752.9  Rx         0480  8  1C 08 32 1F 19 00 06 26 
   887)       753.4  Rx         0588  8  1B 6A 7E 81 00 00 00 00 
   888)       753.8  Rx         056A  8  C1 00 08 00 1A 00 02 D1 
   889)       756.5  Rx         01A0  8  00 4A 00 00 00 FE 00 5C 
   890)       756.9  Rx         01AC  8  23 8E 00 00 69 01 17 D2 
   891)       757.3  Rx         0440  8  00 80 00 FE 80 00 00 00 
   892)       757.6  Rx         0280  8  01 0D 3C 0E 0F 00 33 0F 
   893)       758.4  Rx         0288  8  64 6E 33 04 00 5B 8E 0E 
   894)       759.0  Rx         0380  8  00 53 00 43 20 00 00 0E 
   895)       759.5  Rx         04A0  8  00 00 00 00 00 00 00 00 
   896)       760.0  Rx         0488  8  D0 1A 1A 7E FE FF FF 50 
   897)       760.4  Rx         04A8  8  06 00 6F 11 00 00 E0 98 
   898)       761.0  Rx         05A0  8  7C 00 00 E2 00 00 10 AB 
   899)       761.4  Rx         0540  8  00 00 FF 00 FE 00 00 2F 
   900)       766.5  Rx         01A0  8  00 4A 00 00 00 FE 00 5D 
   901)       767.0  Rx         04A0  8  00 00 00 00 00 00 00 00 
   902)       767.3  Rx         0440  8  00 80 00 FE 80 00 08 00 
   903)       767.8  Rx         0280  8  01 0D 3C 0E 0F 00 33 0F 
   904)       768.2  Rx         0288  8  64 6E 33 04 00 5B 8E 0E 
   905)       768.7  Rx         0380  8  00 53 00 43 20 00 00 0E 
   906)       769.2  Rx         0390  8  6A 40 50 00 00 00 20 00 
   907)       769.7  Rx         0488  8  E0 1A 1A 7E FE FF FF 60 
   908)       771.3  Rx         0540  8  10 00 FF 00 FE 00 00 2F 
   909)       771.9  Rx         038A  4  A5 01 A4 00 
   910)       773.8  Rx         0480  8  54 08 3B 1F 19 00 06 67 
   911)       774.7  Rx         0588  8  1B 6A 7E 00 00 00 00 00 
   912)       775.6  Rx         056A  8  F1 00 08 00 1A 00 02 E1 
   913)       776.8  Rx         05D0  8  C0 04 51 AF 29 48 01 00 
   914)       777.3  Rx         0440  8  00 80 00 FE 80 00 10 00 
   915)       778.4  Rx         01A0  8  00 4A 00 00 00 FE 00 5E 
   916)       778.8  Rx         01AC  8  20 8F 00 00 69 01 15 D2 
   917)       779.4  Rx         0280  8  01 0D 48 0E 0F 00 33 0F 
   918)       779.9  Rx         0288  8  64 6E 33 04 00 5B 8E 0E 
   919)       780.4  Rx         0380  8  00 53 00 44 20 00 00 0E 
   920)       781.0  Rx         04A0  8  00 00 00 00 00 00 00 00 
   921)       781.4  Rx         0488  8  F0 1A 1A 7E FE FF FF 70 
   922)       781.7  Rx         0540  8  20 00 FF 00 FE 00 00 2F 
   923)       781.9  Rx         04A8  8  0C 00 6F 11 00 00 F0 82 
   924)       783.0  Rx         05A0  8  7C 00 00 F2 00 00 10 AB 
   925)       784.3  Rx         05DC  8  77 18 C0 3F 1E 00 30 42 
   926)       785.8  Rx         01A0  8  00 4A 00 00 00 FE 00 5F 
   927)       786.3  Rx         04A0  8  00 00 00 00 00 00 00 00 
   928)       786.8  Rx         0280  8  01 0D 48 0E 0F 00 33 0F 
   929)       787.3  Rx         0288  8  8A 6E 33 04 00 5B 8E 0E 
   930)       787.6  Rx         0440  8  00 80 00 FE 80 00 18 00 
   931)       787.9  Rx         0380  8  00 53 00 44 20 00 00 0E 
   932)       788.4  Rx         0488  8  00 1A 1A 7E FE FF FF 80 
   933)       788.7  Rx         038A  4  B5 01 B4 00 
   934)       791.2  Rx         0480  8  54 08 44 1F 19 00 06 18 
   935)       791.4  Rx         0540  8  30 00 FF 00 FE 00 00 26 
   936)       792.1  Rx         0588  8  1B 68 7E 03 00 00 00 00 
   937)       793.2  Rx         056A  8  E1 00 08 00 1A 00 02 F1 
   938)       795.3  Rx         01A0  8  00 4A 00 00 00 FE 00 50 
   939)       795.8  Rx         01AC  8  2E 80 00 00 69 01 14 D2 
   940)       796.3  Rx         0280  8  01 0D 48 0E 0F 00 33 0F 
   941)       796.8  Rx         0288  8  8A 6E 33 04 00 5B 8E 0E 
   942)       797.3  Rx         0380  8  00 53 00 44 20 00 00 0E 
   943)       797.5  Rx         0440  8  00 80 00 FE 80 00 20 00 
   944)       797.9  Rx         04A0  8  00 00 00 00 00 00 00 00 
   945)       798.3  Rx         0488  8  10 1A 1A 7E FE FF FF 90 
   946)       798.8  Rx         04A8  8  00 00 6F 11 00 00 00 7E 
   947)       799.3  Rx         05A0  8  7B 00 00 02 00 00 10 AB 
   948)       801.3  Rx         0540  8  40 00 FF 00 FE 00 00 26 
   949)       802.2  Rx         01A0  8  00 4A 00 00 00 FE 00 51 
   950)       802.8  Rx         04A0  8  00 00 00 00 00 00 00 00 
   951)       803.4  Rx         0280  8  01 0D 54 0E 0F 00 33 0F 
   952)       803.5  Rx         0300  1  A3 
   953)       803.8  Rx         0288  8  8A 6E 33 04 00 5B 8E 0E 
   954)       804.4  Rx         0380  8  00 53 00 44 20 00 00 0E 
   955)       804.9  Rx         0488  8  20 1A 1A 7E FE FF FF A0 
   956)       806.5  Rx         038A  4  C5 01 C4 00 
   957)       807.3  Rx         0440  8  00 80 00 FE 80 00 28 00 
   958)       807.6  Rx         0480  8  54 08 4C 1F 19 00 06 10 
   959)       809.4  Rx         0588  8  1B 68 7E 03 00 00 00 00 
   960)       810.3  Rx         056A  8  11 00 08 00 1A 00 02 01 
   961)       811.3  Rx         0540  8  50 00 FF 00 FE 00 00 26 
   962)       813.3  Rx         01A0  8  00 4A 00 00 00 FE 00 52 
   963)       813.7  Rx         01AC  8  2E 81 00 00 69 01 15 D2 
   964)       814.2  Rx         0280  8  01 0D 54 0E 0F 00 33 0F 
   965)       814.7  Rx         0288  8  8A 6E 33 04 00 5B 8E 0E 
   966)       815.2  Rx         0380  8  00 53 00 43 20 00 00 0E 
   967)       815.6  Rx         04A0  8  00 00 00 00 00 00 00 00 
   968)       816.1  Rx         0488  8  30 1A 1A 7E FE FF FF B0 
   969)       816.5  Rx         04A8  8  00 00 6D 11 00 00 10 6C 
   970)       817.4  Rx         0440  8  00 80 00 FE 80 00 30 00 
   971)       817.6  Rx         05A0  8  7C 00 00 12 00 00 10 AB 
   972)       818.5  Rx         0760  6  A1 0F 8A FF 4A FF 
   973)       820.4  Rx         01A0  8  00 4A 00 00 00 FE 00 53 
   974)       820.9  Rx         04A0  8  00 00 00 00 00 00 00 00 
   975)       821.4  Rx         0540  8  60 00 FF 00 FE 00 00 26 
   976)       821.6  Rx         0280  8  01 0D 54 0E 0F 00 33 0F 
   977)       822.1  Rx         0288  8  E8 6E 33 04 00 5B 8E 0E 
   978)       822.9  Rx         0380  8  00 53 00 43 20 00 00 0E 
   979)       823.4  Rx         0488  8  40 1A 1A 7E FE FF FF C0 
   980)       824.4  Rx         038A  4  D5 01 D4 00 
   981)       826.4  Rx         0480  8  54 08 55 1F 19 00 06 09 
   982)       827.3  Rx         0588  8  1B 68 7E 00 00 00 00 00 
   983)       827.5  Rx         0440  8  00 80 00 FE 80 00 38 00 
   984)       828.5  Rx         056A  8  01 00 08 00 1A 00 02 11 
   985)       830.8  Rx         01A0  8  00 4A 00 00 00 FE 00 54 
   986)       831.4  Rx         0540  8  70 00 FF 00 FE 00 00 2F 
   987)       831.6  Rx         01AC  8  2C 82 00 00 69 01 14 D2 
   988)       832.0  Rx         0280  8  01 0D 54 0E 0F 00 33 0F 
   989)       832.4  Rx         0288  8  E8 6E 33 04 00 5B 8E 0E 
   990)       833.0  Rx         0380  8  00 53 00 42 20 00 00 0E 
   991)       833.5  Rx         04A0  8  00 00 00 00 00 00 00 00 
   992)       834.0  Rx         0488  8  50 1A 1A 7E FE FF FF D0 
   993)       834.4  Rx         04A8  8  0C 80 72 11 00 00 20 CF 
   994)       835.8  Rx         05A0  8  7C 00 00 22 00 00 10 AB 
   995)       837.3  Rx         0440  8  00 80 00 FE 80 00 40 00 
   996)       841.3  Rx         0540  8  80 00 FF 00 FE 00 00 2F 
   997)       847.0  Rx         01A0  8  00 4A 00 00 00 FE 00 55 
   998)       847.4  Rx         0440  8  00 80 00 FE 80 00 48 00 
   999)       847.7  Rx         04A0  8  00 00 00 00 00 00 00 00 
  1000)       848.2  Rx         0280  8  01 0D 4B 0E 0F 00 33 0F 
  1001)       848.6  Rx         0288  8  E8 6E 33 04 00 5B 8E 0E 
  1002)       849.1  Rx         0380  8  00 53 00 42 20 00 00 0E 
  1003)       849.7  Rx         0488  8  60 1A 1A 7E FE FF FF E0 
  1004)       851.3  Rx         0540  8  90 00 FF 00 FE 00 00 2F 
  1005)       851.5  Rx         038A  4  E5 01 E4 00 
  1006)       852.4  Rx         0480  8  84 08 5E 1F 19 00 06 D2 
  1007)       853.5  Rx         0588  8  1B 68 7E 82 00 00 00 00 
  1008)       854.3  Rx         056A  8  31 00 08 00 1A 00 02 21 
  1009)       857.0  Rx         01A0  8  00 4A 00 00 00 FE 00 56 
  1010)       857.4  Rx         0440  8  00 80 00 FE 80 00 50 00 
  1011)       857.6  Rx         01AC  8  2C 83 00 00 69 01 15 D2 
  1012)       858.4  Rx         04A0  8  00 00 00 00 00 00 00 00 
  1013)       858.9  Rx         0280  8  01 0D 4B 0E 0F 00 33 0F 
  1014)       859.5  Rx         0288  8  E8 6E 33 04 00 5B 8E 0E 
  1015)       860.0  Rx         0380  8  00 53 00 42 20 00 00 0E 
  1016)       860.5  Rx         04A8  8  06 00 74 11 00 00 30 53 
  1017)       861.0  Rx         0488  8  70 1A 1A 7E FE FF FF F0 
  1018)       861.5  Rx         0540  8  A0 00 FF 00 FE 00 00 2F 
  1019)       861.7  Rx         05A0  8  7C 00 00 32 00 00 10 AB 
  1020)       864.3  Rx         0520  8  A6 87 00 D6 69 57 33 03 
  1021)       865.9  Rx         01A0  8  00 4A 00 00 00 FE 00 57 
  1022)       866.3  Rx         04A0  8  00 00 00 00 00 00 00 00 
  1023)       866.9  Rx         0280  8  01 0D 4B 0E 0F 00 33 0F 
  1024)       867.4  Rx         0288  8  2C 6E 33 04 00 5B 8E 0E 
  1025)       867.6  Rx         0440  8  00 80 00 FE 80 00 58 00 
  1026)       868.0  Rx         0380  8  00 53 00 42 20 00 00 0E 
  1027)       868.5  Rx         0390  8  6A 40 50 00 00 00 20 00 
  1028)       869.0  Rx         0488  8  44 1A 1A 7E FE FF 3B 00 
  1029)       871.2  Rx         038A  4  F5 01 F4 00 
  1030)       871.4  Rx         0540  8  B0 00 FF 00 FE 00 00 26 
  1031)       873.9  Rx         0480  8  84 08 66 1F 19 00 06 EA 
  1032)       874.4  Rx         0588  8  1B 68 7E 00 00 00 00 00 
  1033)       875.3  Rx         056A  8  21 00 08 00 1A 00 02 31 
  1034)       876.2  Rx         05D0  8  C0 04 51 AF 29 48 01 00 
  1035)       877.3  Rx         0440  8  00 80 00 FE 80 00 60 00 
  1036)       878.1  Rx         01A0  8  00 4A 00 00 00 FE 00 58 
  1037)       878.6  Rx         01AC  8  2B 84 00 00 69 01 15 D2 
  1038)       879.1  Rx         04A0  8  00 00 00 00 00 00 00 00 
  1039)       879.6  Rx         0280  8  01 0D 57 0E 0F 00 33 0F 
  1040)       880.1  Rx         0288  8  2C 6E 33 04 00 5B 8E 0E 
  1041)       880.6  Rx         0380  8  00 53 00 43 20 00 00 0E 
  1042)       881.2  Rx         04A8  8  00 00 6F 11 00 00 40 3E 
  1043)       881.4  Rx         0540  8  C0 00 FF 00 FE 00 00 26 
  1044)       881.6  Rx         0488  8  49 1A 1A 7E FE FF 26 10 
  1045)       882.2  Rx         05A0  8  7B 00 00 42 00 00 10 AB 
  1046)       884.1  Rx         05DC  8  77 18 C0 3F 1E 00 30 42 
  1047)       885.6  Rx         01A0  8  00 4A 00 00 00 FE 00 59 
  1048)       886.0  Rx         04A0  8  00 00 00 00 00 00 00 00 
  1049)       886.6  Rx         0280  8  01 0D 57 0E 0F 00 33 0F 
  1050)       887.1  Rx         0288  8  2C 6E 33 04 00 5B 8E 0E 
  1051)       887.4  Rx         0440  8  00 80 00 FE 80 00 68 00 
  1052)       887.7  Rx         0380  8  00 53 00 43 20 00 00 0E 
  1053)       888.1  Rx         0488  8  14 1A 1A 7E FE FF 4B 20 
  1054)       889.9  Rx         038A  4  05 01 04 00 
  1055)       891.3  Rx         0540  8  D0 00 FF 00 FE 00 00 26 
  1056)       891.9  Rx         0480  8  84 08 72 1F 19 00 06 FE 
  1057)       892.3  Rx         0588  8  1B 66 7E 03 00 00 00 00 
  1058)       892.9  Rx         056A  8  51 00 08 00 1A 00 02 41 
  1059)       895.1  Rx         01A0  8  00 4A 00 00 00 FE 00 5A 
  1060)       895.6  Rx         01AC  8  29 85 00 00 69 01 16 D2 
  1061)       896.1  Rx         0280  8  01 0D 57 0E 0F 00 33 0F 
  1062)       896.6  Rx         0288  8  2C 6E 33 04 00 5B 8E 0E 
  1063)       897.1  Rx         0380  8  00 53 00 43 20 00 00 0E 
  1064)       897.4  Rx         0440  8  00 80 00 FE 80 00 70 00 
  1065)       897.7  Rx         04A0  8  00 00 00 00 00 00 00 00 
  1066)       898.5  Rx         0488  8  47 1A 1A 7E FE FF 08 30 
  1067)       899.0  Rx         04A8  8  00 00 6F 11 00 00 50 2E 
  1068)       900.0  Rx         05A0  8  7C 00 00 52 00 00 10 AB 
  1069)       901.4  Rx         0540  8  E0 00 FF 00 FE 00 00 26 
  1070)       901.9  Rx         01A0  8  00 4A 00 00 00 FE 00 5B 
  1071)       902.4  Rx         04A0  8  00 00 00 00 00 00 00 00 
  1072)       903.1  Rx         0280  8  01 0D 65 0E 0F 00 33 0F 
  1073)       903.6  Rx         0288  8  64 6E 33 04 00 5B 8E 0E 
  1074)       904.1  Rx         0380  8  00 53 00 43 20 00 00 0E 
  1075)       904.6  Rx         0488  8  19 1A 1A 7E FE FF 26 40 
  1076)       905.5  Rx         038A  4  15 01 14 00 
  1077)       907.4  Rx         0440  8  00 80 00 FE 80 00 78 00 
  1078)       908.6  Rx         0480  8  84 08 7E 1F 19 00 06 F2 
  1079)       909.1  Rx         0588  8  1B 66 7E 03 00 00 00 00 
  1080)       909.6  Rx         056A  8  41 00 08 00 1A 00 02 51 
  1081)       910.1  Rx         07D0  8  CC 57 33 73 39 B6 04 10 
  1082)       911.3  Rx         0540  8  F0 00 FF 00 FE 00 00 2F 
  1083)       912.5  Rx         01A0  8  00 4A 00 00 00 FE 00 5C 
  1084)       913.5  Rx         01AC  8  2A 86 00 00 69 01 16 D2 
  1085)       914.0  Rx         04A0  8  00 00 00 00 00 00 00 00 
  1086)       914.5  Rx         0280  8  01 0D 65 0E 0F 00 33 0F 
  1087)       915.0  Rx         0288  8  64 6E 33 04 00 5B 8E 0E 
  1088)       915.5  Rx         0380  8  00 53 00 41 20 00 00 0E 
  1089)       915.9  Rx         04A8  8  0C 80 6F 11 00 00 60 92 
  1090)       916.4  Rx         0488  8  D0 1A 1A 7E FE FF FF 50 
  1091)       916.8  Rx         05A0  8  7B 00 00 62 00 00 10 AB 
  1092)       917.4  Rx         0440  8  00 80 00 FE 80 00 00 00 
  1093)       920.1  Rx         01A0  8  00 4A 00 00 00 FE 00 5D 
  1094)       920.6  Rx         04A0  8  00 00 00 00 00 00 00 00 
  1095)       921.2  Rx         0280  8  01 0D 65 0E 0F 00 33 0F 
  1096)       921.4  Rx         0540  8  00 00 FF 00 FE 00 00 2F 
  1097)       921.7  Rx         0288  8  64 6E 33 04 00 5B 8E 0E 
  1098)       922.3  Rx         0380  8  00 53 00 41 20 00 00 0E 
  1099)       922.9  Rx         0488  8  E0 1A 1A 7E FE FF FF 60 
  1100)       924.6  Rx         038A  4  25 01 24 00 
  1101)       926.3  Rx         0480  8  C2 08 89 1F 19 00 06 43 
  1102)       926.8  Rx         0588  8  1B 66 7E 00 00 00 00 00 
  1103)       927.3  Rx         056A  8  71 00 08 00 1A 00 02 61 
  1104)       927.6  Rx         0440  8  00 80 00 FE 80 00 08 00 
  1105)       931.3  Rx         0540  8  10 00 FF 00 FE 00 00 2F 
  1106)       937.4  Rx         0440  8  00 80 00 FE 80 00 10 00 
  1107)       939.1  Rx         01A0  8  00 4A 00 00 00 FE 00 5E 
  1108)       939.6  Rx         01AC  8  29 87 00 00 69 01 14 D2 
  1109)       940.1  Rx         04A0  8  00 00 00 00 00 00 00 00 
  1110)       941.0  Rx         04A8  8  00 00 6F 11 00 00 70 0E 
  1111)       941.4  Rx         0540  8  20 00 FF 00 FE 00 00 2F 
  1112)       941.9  Rx         05A0  8  7B 00 00 72 00 00 10 AB 
  1113)       942.5  Rx         0280  8  01 0D 7B 0E 0F 00 33 0F 
  1114)       943.2  Rx         0288  8  64 6E 33 04 00 5B 8E 0E 
  1115)       943.6  Rx         0380  8  00 53 00 40 20 00 00 0E 
  1116)       944.6  Rx         0488  8  F0 1A 1A 7E FE FF FF 70 
  1117)       946.4  Rx         01A0  8  00 4A 00 00 00 FE 00 5F 
  1118)       946.9  Rx         04A0  8  00 00 00 00 00 00 00 00 
  1119)       947.4  Rx         0440  8  00 80 00 FE 80 00 18 00 
  1120)       947.7  Rx         0280  8  01 0D 7B 0E 0F 00 33 0F 
  1121)       948.1  Rx         0288  8  8A 6E 33 04 00 5B 8E 0E 
  1122)       948.6  Rx         0380  8  00 53 00 40 20 00 00 0E 
  1123)       949.1  Rx         0488  8  00 1A 1A 7E FE FF FF 80 
  1124)       949.9  Rx         038A  4  35 01 34 00 
  1125)       951.4  Rx         0540  8  30 00 FF 00 FE 00 00 26 
  1126)       952.3  Rx         0480  8  C2 08 95 1F 19 00 06 5F 
  1127)       953.4  Rx         0588  8  1B 66 7E 05 00 00 00 00 
  1128)       953.8  Rx         056A  8  61 00 08 00 1A 00 02 71 
  1129)       955.7  Rx         01A0  8  00 4A 00 00 00 FE 00 50 
  1130)       956.1  Rx         01AC  8  26 88 00 00 69 01 14 D2 
  1131)       956.5  Rx         04A0  8  00 00 00 00 00 00 00 00 
  1132)       957.1  Rx         0280  8  01 0D 7B 0E 0F 00 33 0F 
  1133)       957.4  Rx         0440  8  00 80 00 FE 80 00 20 00 
  1134)       958.5  Rx         0288  8  8A 6E 33 04 00 5B 8E 0E 
  1135)       959.0  Rx         0380  8  00 53 00 40 20 00 00 0E 
  1136)       959.5  Rx         0488  8  10 1A 1A 7E FE FF FF 90 
  1137)       960.0  Rx         04A8  8  19 00 6F 11 00 00 80 E7 
  1138)       961.4  Rx         0540  8  40 00 FF 00 FE 00 00 26 
  1139)       961.6  Rx         05A0  8  7C 00 00 82 00 00 10 AB 
  1140)       964.9  Rx         01A0  8  00 4A 00 00 00 FE 00 51 
  1141)       965.4  Rx         04A0  8  00 00 00 00 00 00 00 00 
  1142)       965.8  Rx         0390  8  6A 40 50 00 00 00 20 00 
  1143)       966.4  Rx         0280  8  01 0D 7B 0E 0F 00 33 0F 
  1144)       966.9  Rx         0288  8  8A 6E 33 04 00 5B 8E 0E 
  1145)       967.4  Rx         0380  8  00 53 00 40 20 00 00 0E 
  1146)       967.7  Rx         0440  8  00 80 00 FE 80 00 28 00 
  1147)       971.3  Rx         0540  8  50 00 FF 00 FE 00 00 26 
  1148)       971.9  Rx         038A  4  45 01 44 00 
  1149)       973.4  Rx         0488  8  20 1A 1A 7E FE FF FF A0 
  1150)       973.9  Rx         0480  8  C2 08 A0 1F 19 00 06 6A 
  1151)       974.3  Rx         0588  8  1B 66 7E 81 00 00 00 00 
  1152)       975.3  Rx         056A  8  91 00 08 00 1A 00 02 81 
  1153)       976.5  Rx         05D0  8  C0 04 51 AF 29 48 01 00 
  1154)       977.4  Rx         0440  8  00 80 00 FE 80 00 30 00 
  1155)       978.1  Rx         01A0  8  00 4A 00 00 00 FE 00 52 
  1156)       978.5  Rx         01AC  8  25 89 00 00 69 01 16 D2 
  1157)       979.0  Rx         04A0  8  00 00 00 00 00 00 00 00 
  1158)       979.5  Rx         0280  8  01 0D 76 0E 0F 00 33 0F 
  1159)       980.0  Rx         0288  8  8A 6E 33 04 00 5B 8E 0E 
  1160)       980.5  Rx         0380  8  00 53 00 3D 20 00 00 0E 
  1161)       981.4  Rx         0540  8  60 00 FF 00 FE 00 00 26 
  1162)       981.6  Rx         04A8  8  00 00 6D 11 00 00 90 EC 
  1163)       981.9  Rx         0488  8  30 1A 1A 7E FE FF FF B0 
  1164)       982.4  Rx         05A0  8  7C 00 00 92 00 00 10 AB 
  1165)       984.4  Rx         05DC  8  77 18 C0 3F 1E 00 30 42 
  1166)       985.9  Rx         01A0  8  00 4A 00 00 00 FE 00 53 
  1167)       986.3  Rx         04A0  8  00 00 00 00 00 00 00 00 
  1168)       986.9  Rx         0280  8  01 0D 76 0E 0F 00 33 0F 
  1169)       987.4  Rx         0288  8  E8 6E 33 04 00 5B 8E 0E 
  1170)       987.6  Rx         0440  8  00 80 00 FE 80 00 38 00 
  1171)       988.0  Rx         0380  8  00 53 00 3D 20 00 00 0E 
  1172)       988.5  Rx         0488  8  40 1A 1A 7E FE FF FF C0 
  1173)       990.6  Rx         038A  4  55 01 54 00 
  1174)       991.3  Rx         0540  8  70 00 FF 00 FE 00 00 2F 
  1175)       991.7  Rx         0480  8  C2 08 A9 1F 19 00 06 63 
  1176)       992.8  Rx         0588  8  1B 64 7E 00 00 00 00 00 
  1177)       993.3  Rx         056A  8  81 00 08 00 1A 00 02 91 
  1178)       995.4  Rx         01A0  8  00 4A 00 00 00 FE 00 54 
  1179)       995.8  Rx         01AC  8  24 8A 00 00 69 01 14 D2 
  1180)       996.3  Rx         04A0  8  00 00 00 00 00 00 00 00 
  1181)       997.3  Rx         0280  8  01 0D 76 0E 0F 00 33 0F 
  1182)       997.5  Rx         0440  8  00 80 00 FE 80 00 40 00 
  1183)       997.9  Rx         0288  8  E8 6E 33 04 00 5B 8E 0E 
  1184)       998.4  Rx         0380  8  00 53 00 3E 20 00 00 0E 
  1185)       998.8  Rx         04A8  8  00 00 6F 11 00 00 A0 DE 
  1186)       999.7  Rx         0488  8  50 1A 1A 7E FE FF FF D0 
  1187)      1000.7  Rx         05A0  8  7C 00 00 A2 00 00 10 AB 
  1188)      1001.4  Rx         0540  8  80 00 FF 00 FE 00 00 2F 
  1189)      1002.6  Rx         01A0  8  00 4A 00 00 00 FE 00 55 
  1190)      1003.3  Rx         04A0  8  00 00 00 00 00 00 00 00 
  1191)      1003.8  Rx         0280  8  01 0D 79 0E 0F 00 33 0F 
  1192)      1004.3  Rx         0288  8  E8 6E 33 04 00 5B 8E 0E 
  1193)      1004.8  Rx         0380  8  00 53 00 3E 20 00 00 0E 
  1194)      1005.3  Rx         0488  8  60 1A 1A 7E FE FF FF E0 
  1195)      1007.4  Rx         0440  8  00 80 00 FE 80 00 48 00 
  1196)      1007.6  Rx         038A  4  65 01 64 00 
  1197)      1008.8  Rx         0480  8  1C 08 B2 1F 19 00 06 A6 
  1198)      1009.8  Rx         0588  8  1B 64 7E 00 00 00 00 00 
  1199)      1010.3  Rx         056A  8  B1 00 08 00 1A 00 02 A1 
  1200)      1011.4  Rx         0540  8  90 00 FF 00 FE 00 00 2F 
  1201)      1012.9  Rx         01A0  8  00 4A 00 00 00 FE 00 56 
  1202)      1013.3  Rx         01AC  8  24 8B 00 00 69 01 15 D2 
  1203)      1013.8  Rx         04A0  8  00 00 00 00 00 00 00 00 
  1204)      1014.2  Rx         04A8  8  06 00 6D 11 00 00 B0 CA 
  1205)      1015.2  Rx         0280  8  01 0D 79 0E 0F 00 33 0F 
  1206)      1015.7  Rx         0288  8  E8 6E 33 04 00 5B 8E 0E 
  1207)      1016.1  Rx         0380  8  00 53 00 3E 20 00 00 0E 
  1208)      1016.6  Rx         05A0  8  7C 00 00 B2 00 00 10 AB 
  1209)      1017.1  Rx         0488  8  70 1A 1A 7E FE FF FF F0 
  1210)      1017.4  Rx         0440  8  00 80 00 FE 80 00 50 00 
  1211)      1019.9  Rx         01A0  8  00 4A 00 00 00 FE 00 57 
  1212)      1020.4  Rx         04A0  8  00 00 00 00 00 00 00 00 
  1213)      1021.0  Rx         0280  8  01 0D 79 0E 0F 00 33 0F 
  1214)      1021.4  Rx         0540  8  A0 00 FF 00 FE 00 00 2F 
  1215)      1021.6  Rx         0288  8  2C 6E 33 04 00 5B 8E 0E 
  1216)      1022.0  Rx         0380  8  00 53 00 3E 20 00 00 0E 
  1217)      1022.4  Rx         0488  8  45 1A 1A 7E FE FF 3A 00 
  1218)      1023.5  Rx         038A  4  75 01 74 00 
  1219)      1025.8  Rx         0480  8  1C 08 BA 1F 19 00 06 AE 
  1220)      1026.6  Rx         0588  8  1B 64 7E 00 00 00 00 00 
  1221)      1027.1  Rx         056A  8  A1 00 08 00 1A 00 02 B1 
  1222)      1027.3  Rx         0440  8  00 80 00 FE 80 00 58 00 
  1223)      1028.2  Rx         0580  8  92 00 00 14 1C 93 48 14 
  1224)      1031.3  Rx         0540  8  B0 00 FF 00 FE 00 00 26 
  1225)      1037.4  Rx         0440  8  00 80 00 FE 80 00 60 00 
  1226)      1039.4  Rx         01A0  8  00 4A 00 00 00 FE 00 58 
  1227)      1039.9  Rx         01AC  8  23 8C 00 00 69 01 15 D2 
  1228)      1040.4  Rx         04A0  8  00 00 00 00 00 00 00 00 
  1229)      1041.0  Rx         04A8  8  00 00 6F 11 00 00 C0 BE 
  1230)      1041.4  Rx         0540  8  C0 00 FF 00 FE 00 00 26 
  1231)      1042.1  Rx         0280  8  01 0D 79 0E 0F 00 33 0F 
  1232)      1042.6  Rx         0288  8  2C 6E 33 04 00 5B 8E 0E 
  1233)      1043.4  Rx         0380  8  00 53 00 3D 20 00 00 0E 
  1234)      1043.9  Rx         05A0  8  7C 00 00 C2 00 00 10 AB 
  1235)      1044.3  Rx         0488  8  49 1A 1A 7E FE FF 26 10 
  1236)      1047.1  Rx         01A0  8  00 4A 00 00 00 FE 00 59 
  1237)      1047.4  Rx         0440  8  00 80 00 FE 80 00 68 00 
  1238)      1047.6  Rx         04A0  8  00 00 00 00 00 00 00 00 
  1239)      1048.3  Rx         0280  8  01 0D 79 0E 0F 00 33 0F 
  1240)      1048.7  Rx         0288  8  2C 6E 33 04 00 5B 8E 0E 
  1241)      1049.3  Rx         0380  8  00 53 00 3D 20 00 00 0E 
  1242)      1049.8  Rx         0488  8  14 1A 1A 7E FE FF 4B 20 
  1243)      1051.4  Rx         0540  8  D0 00 FF 00 FE 00 00 26 
  1244)      1052.0  Rx         038A  4  85 01 84 00 
  1245)      1053.2  Rx         0480  8  1C 08 C3 1F 19 00 06 D7 
  1246)      1054.0  Rx         0588  8  1B 64 7E 00 00 00 00 00 
  1247)      1054.4  Rx         056A  8  D1 00 08 00 1A 00 02 C1 
  1248)      1056.3  Rx         01A0  8  00 4A 00 00 00 FE 00 5A 
  1249)      1056.7  Rx         01AC  8  21 8D 00 00 69 01 16 D2 
  1250)      1057.3  Rx         04A0  8  00 00 00 00 00 00 00 00 
  1251)      1057.5  Rx         0440  8  00 80 00 FE 80 00 70 00 
  1252)      1058.2  Rx         04A8  8  06 00 72 11 00 00 D0 B5 
  1253)      1059.2  Rx         0280  8  01 0D 79 0E 0F 00 33 0F 
  1254)      1059.7  Rx         0288  8  2C 6E 33 04 00 5B 8E 0E 
  1255)      1060.2  Rx         0380  8  00 53 00 3D 20 00 00 0E 
  1256)      1060.7  Rx         0488  8  48 1A 1A 7E FE FF 07 30 
  1257)      1061.4  Rx         0540  8  E0 00 FF 00 FE 00 00 26 
  1258)      1062.1  Rx         05A0  8  7B 00 00 D2 00 00 10 AB 
  1259)      1064.4  Rx         0520  8  57 C4 00 D6 69 57 33 03 
  1260)      1065.9  Rx         01A0  8  00 4A 00 00 00 FE 00 5B 
  1261)      1066.3  Rx         04A0  8  00 00 00 00 00 00 00 00 
  1262)      1066.9  Rx         0390  8  6A 40 50 00 00 00 20 00 
  1263)      1067.4  Rx         0440  8  00 80 00 FE 80 00 78 00 
  1264)      1067.6  Rx         0280  8  01 0D 74 0E 0F 00 33 0F 
  1265)      1068.0  Rx         0288  8  64 6E 33 04 00 5B 8E 0E 
  1266)      1068.5  Rx         0380  8  00 53 00 3D 20 00 00 0E 
  1267)      1070.8  Rx         0488  8  19 1A 1A 7E FE FF 26 40 
  1268)      1071.3  Rx         0540  8  F0 00 FF 00 FE 00 00 2F 
  1269)      1072.5  Rx         038A  4  95 01 94 00 
  1270)      1073.7  Rx         0480  8  1C 08 CC 1F 19 00 06 D8 
  1271)      1074.5  Rx         0588  8  1B 64 7E 81 00 00 00 00 
  1272)      1075.0  Rx         056A  8  C1 00 08 00 1A 00 02 D1 
  1273)      1075.9  Rx         05D0  8  C0 04 51 AF 29 48 01 00 
  1274)      1077.4  Rx         0440  8  00 80 00 FE 80 00 00 00 
  1275)      1077.9  Rx         01A0  8  00 4A 00 00 00 FE 00 5C 
  1276)      1078.3  Rx         01AC  8  21 8E 00 00 69 01 15 D2 
  1277)      1078.8  Rx         04A0  8  00 00 00 00 00 00 00 00 
  1278)      1079.3  Rx         04A8  8  00 00 74 11 00 00 E0 85 
  1279)      1079.8  Rx         0280  8  01 0D 74 0E 0F 00 33 0F 
  1280)      1080.2  Rx         0288  8  64 6E 33 04 00 5B 8E 0E 
  1281)      1080.8  Rx         0380  8  00 53 00 3D 20 00 00 0E 
  1282)      1081.3  Rx         05A0  8  7C 00 00 E2 00 00 10 AB 
  1283)      1081.5  Rx         0540  8  00 00 FF 00 FE 00 00 2F 
  1284)      1081.9  Rx         0488  8  D0 1A 1A 7E FE FF FF 50 
  1285)      1084.1  Rx         05DC  8  77 18 C0 3F 1E 00 30 42 
  1286)      1085.7  Rx         01A0  8  00 4A 00 00 00 FE 00 5D 
  1287)      1086.1  Rx         04A0  8  00 00 00 00 00 00 00 00 
  1288)      1086.6  Rx         0280  8  01 0D 74 0E 0F 00 33 0F 
  1289)      1087.1  Rx         0288  8  64 6E 33 04 00 5B 8E 0E 
  1290)      1087.4  Rx         0440  8  00 80 00 FE 80 00 08 00 
  1291)      1087.7  Rx         0380  8  00 53 00 3D 20 00 00 0E 
  1292)      1088.2  Rx         0488  8  E0 1A 1A 7E FE FF FF 60 
  1293)      1090.3  Rx         038A  4  A5 01 A4 00 
  1294)      1091.3  Rx         0540  8  10 00 FF 00 FE 00 00 2F 
  1295)      1091.6  Rx         0480  8  54 08 D4 1F 19 00 06 88 
  1296)      1092.3  Rx         0588  8  1B 66 7E 00 00 00 00 00 
  1297)      1092.9  Rx         056A  8  F1 00 08 00 1A 00 02 E1 
  1298)      1094.7  Rx         01A0  8  00 4A 00 00 00 FE 00 5E 
  1299)      1095.2  Rx         01AC  8  21 8F 00 00 69 01 14 D2 
  1300)      1095.7  Rx         04A0  8  00 00 00 00 00 00 00 00 
  1301)      1096.1  Rx         04A8  8  06 00 6F 11 00 00 F0 88 
  1302)      1097.1  Rx         0280  8  01 0D 74 0E 0F 00 33 0F 
  1303)      1097.4  Rx         0440  8  00 80 00 FE 80 00 10 00 
  1304)      1097.7  Rx         0288  8  64 6E 33 04 00 5B 8E 0E 
  1305)      1098.2  Rx         0380  8  00 53 00 3D 20 00 00 0E 
  1306)      1098.6  Rx         05A0  8  7C 00 00 F2 00 00 10 AB 
  1307)      1099.1  Rx         0488  8  F0 1A 1A 7E FE FF FF 70 
  1308)      1101.4  Rx         0540  8  20 00 FF 00 FE 00 00 2F 
  1309)      1101.9  Rx         01A0  8  00 4A 00 00 00 FE 00 5F 
  1310)      1102.4  Rx         04A0  8  00 00 00 00 00 00 00 00 
  1311)      1103.1  Rx         0280  8  01 0D 60 0E 0F 00 33 0F 
  1312)      1103.6  Rx         0288  8  8A 6E 33 04 00 5B 8E 0E 
  1313)      1104.1  Rx         0380  8  00 53 00 3D 20 00 00 0E 
  1314)      1104.5  Rx         0488  8  00 1A 1A 7E FE FF FF 80 
  1315)      1105.4  Rx         038A  4  B5 01 B4 00 
  1316)      1107.4  Rx         0440  8  00 80 00 FE 80 00 18 00 
  1317)      1108.2  Rx         0480  8  54 08 DD 1F 19 00 06 81 
  1318)      1109.1  Rx         0588  8  1B 66 7E 85 00 00 00 00 
  1319)      1109.6  Rx         056A  8  E1 00 08 00 1A 00 02 F1 
  1320)      1111.4  Rx         0540  8  30 00 FF 00 FE 00 00 26 
  1321)      1112.0  Rx         01A0  8  00 4A 00 00 00 FE 00 50 
  1322)      1112.4  Rx         01AC  8  2F 80 00 00 69 01 15 D2 
  1323)      1113.1  Rx         04A0  8  00 00 00 00 00 00 00 00 
  1324)      1113.5  Rx         04A8  8  12 80 6F 11 00 00 00 EC 
  1325)      1114.7  Rx         05A0  8  7B 00 00 02 00 00 10 AB 
  1326)      1115.2  Rx         0280  8  01 0D 60 0E 0F 00 33 0F 
  1327)      1115.9  Rx         0288  8  8A 6E 33 04 00 5B 8E 0E 
  1328)      1116.4  Rx         0380  8  00 53 00 3D 20 00 00 0E 
  1329)      1116.8  Rx         0488  8  10 1A 1A 7E FE FF FF 90 
  1330)      1117.5  Rx         0440  8  00 80 00 FE 80 00 20 00 
  1331)      1120.0  Rx         01A0  8  00 4A 00 00 00 FE 00 51 
  1332)      1120.4  Rx         04A0  8  00 00 00 00 00 00 00 00 
  1333)      1121.4  Rx         0540  8  40 00 FF 00 FE 00 00 26 
  1334)      1127.3  Rx         0440  8  00 80 00 FE 80 00 28 00 
  1335)      1130.2  Rx         0280  8  01 0D 60 0E 0F 00 33 0F 
  1336)      1130.7  Rx         0288  8  8A 6E 33 04 00 5B 8E 0E 
  1337)      1131.2  Rx         0380  8  00 53 00 3D 20 00 00 0E 
  1338)      1131.5  Rx         0540  8  50 00 FF 00 FE 00 00 26 
  1339)      1131.8  Rx         0488  8  20 1A 1A 7E FE FF FF A0 
  1340)      1133.9  Rx         038A  4  C5 01 C4 00 
  1341)      1134.9  Rx         0480  8  54 08 E6 1F 19 00 06 BA 
  1342)      1135.8  Rx         0588  8  1B 66 7E 00 00 00 00 00 
  1343)      1136.2  Rx         056A  8  11 00 08 00 1A 00 02 01 
  1344)      1137.4  Rx         0440  8  00 80 00 FE 80 00 30 00 
  1345)      1138.2  Rx         01A0  8  00 4A 00 00 00 FE 00 52 
  1346)      1138.6  Rx         01AC  8  2F 81 00 00 69 01 14 D2 
  1347)      1139.1  Rx         04A0  8  00 00 00 00 00 00 00 00 
  1348)      1139.6  Rx         04A8  8  06 80 6F 11 00 00 10 E8 
  1349)      1140.5  Rx         05A0  8  7B 00 00 12 00 00 10 AB 
  1350)      1141.1  Rx         0280  8  01 0D 54 0E 0F 00 33 0F 
  1351)      1141.4  Rx         0540  8  60 00 FF 00 FE 00 00 26 
  1352)      1141.6  Rx         0288  8  8A 6E 33 04 00 5B 8E 0E 
  1353)      1142.1  Rx         0380  8  00 53 00 3F 20 00 00 0E 
  1354)      1142.6  Rx         0488  8  30 1A 1A 7E FE FF FF B0 
  1355)      1145.5  Rx         01A0  8  00 4A 00 00 00 FE 00 53 
  1356)      1146.0  Rx         04A0  8  00 00 00 00 00 00 00 00 
  1357)      1146.5  Rx         0280  8  01 0D 54 0E 0F 00 33 0F 
  1358)      1147.0  Rx         0288  8  E8 6E 33 04 00 5B 8E 0E 
  1359)      1147.4  Rx         0440  8  00 80 00 FE 80 00 38 00 
  1360)      1147.7  Rx         0380  8  00 53 00 3F 20 00 00 0E 
  1361)      1148.1  Rx         0488  8  40 1A 1A 7E FE FF FF C0 
  1362)      1148.9  Rx         038A  4  D5 01 D4 00 
  1363)      1151.3  Rx         0480  8  54 08 EE 1F 19 00 06 B2 
  1364)      1151.5  Rx         0540  8  70 00 FF 00 FE 00 00 2F 
  1365)      1152.2  Rx         0588  8  1B 66 7E 83 00 00 00 00 
  1366)      1152.9  Rx         056A  8  01 00 08 00 1A 00 02 11 
  1367)      1154.7  Rx         01A0  8  00 4A 00 00 00 FE 00 54 
  1368)      1155.2  Rx         01AC  8  2C 82 00 00 69 01 14 D2 
  1369)      1155.7  Rx         04A0  8  00 00 00 00 00 00 00 00 
  1370)      1156.1  Rx         04A8  8  0C 00 6F 11 00 00 20 52 
  1371)      1157.0  Rx         05A0  8  7C 00 00 22 00 00 10 AB 
  1372)      1157.4  Rx         0440  8  00 80 00 FE 80 00 40 00 
  1373)      1157.7  Rx         0280  8  01 0D 54 0E 0F 00 33 0F 
  1374)      1158.6  Rx         0288  8  E8 6E 33 04 00 5B 8E 0E 
  1375)      1159.1  Rx         0380  8  00 53 00 3F 20 00 00 0E 
  1376)      1159.9  Rx         0488  8  50 1A 1A 7E FE FF FF D0 
  1377)      1161.3  Rx         0540  8  80 00 FF 00 FE 00 00 2F 
  1378)      1163.8  Rx         01A0  8  00 4A 00 00 00 FE 00 55 
  1379)      1164.3  Rx         04A0  8  00 00 00 00 00 00 00 00 
  1380)      1164.8  Rx         0390  8  6A 40 50 00 00 00 20 00 
  1381)      1165.4  Rx         0280  8  01 0D 60 0E 0F 00 33 0F 
  1382)      1165.8  Rx         0288  8  E8 6E 33 04 00 5B 8E 0E 
  1383)      1166.3  Rx         0380  8  00 53 00 3F 20 00 00 0E 
  1384)      1167.4  Rx         0440  8  00 80 00 FE 80 00 48 00 
  1385)      1168.7  Rx         0488  8  60 1A 1A 7E FE FF FF E0 
  1386)      1169.5  Rx         038A  4  E5 01 E4 00 
  1387)      1171.3  Rx         0540  8  90 00 FF 00 FE 00 00 2F 
  1388)      1171.6  Rx         0480  8  84 08 F7 1F 19 00 06 7B 
  1389)      1172.3  Rx         056A  8  31 00 08 00 1A 00 02 21 
  1390)      1173.0  Rx         0588  8  1B 66 7E 03 00 00 00 00 
  1391)      1173.4  Rx         05D0  8  C0 04 51 AF 29 48 01 00 
  1392)      1175.3  Rx         01A0  8  00 4A 00 00 00 FE 00 56 
  1393)      1175.7  Rx         01AC  8  2F 83 00 00 69 01 16 D2 
  1394)      1176.2  Rx         04A0  8  00 00 00 00 00 00 00 00 
  1395)      1176.6  Rx         04A8  8  19 00 6F 11 00 00 30 57 
  1396)      1177.4  Rx         0440  8  00 80 00 FE 80 00 50 00 
  1397)      1177.7  Rx         05A0  8  7B 00 00 32 00 00 10 AB 
  1398)      1178.2  Rx         0280  8  01 0D 60 0E 0F 00 33 0F 
  1399)      1178.7  Rx         0288  8  E8 6E 33 04 00 5B 8E 0E 
  1400)      1179.2  Rx         0380  8  00 53 00 41 20 00 00 0E 
  1401)      1179.7  Rx         0488  8  70 1A 1A 7E FE FF FF F0 
  1402)      1181.1  Rx         05DC  8  77 18 C0 3F 1E 00 30 42 
  1403)      1181.3  Rx         0540  8  A0 00 FF 00 FE 00 00 2F 
  1404)      1183.1  Rx         01A0  8  00 4A 00 00 00 FE 00 57 
  1405)      1183.6  Rx         04A0  8  00 00 00 00 00 00 00 00 
  1406)      1184.2  Rx         0280  8  01 0D 60 0E 0F 00 33 0F 
  1407)      1184.6  Rx         0288  8  2C 6E 33 04 00 5B 8E 0E 
  1408)      1185.2  Rx         0380  8  00 53 00 41 20 00 00 0E 
  1409)      1185.7  Rx         0488  8  45 1A 1A 7E FE FF 3A 00 
  1410)      1186.4  Rx         038A  4  F5 01 F4 00 
  1411)      1187.4  Rx         0440  8  00 80 00 FE 80 00 58 00 
  1412)      1188.8  Rx         0480  8  84 08 00 20 19 00 06 B3 
  1413)      1189.8  Rx         0588  8  1B 66 7E 00 00 00 00 00 
  1414)      1190.3  Rx         056A  8  21 00 08 00 1A 00 02 31 
  1415)      1191.4  Rx         0540  8  B0 00 FF 00 FE 00 00 26 
  1416)      1192.2  Rx         01A0  8  00 4A 00 00 00 FE 00 58 
  1417)      1192.8  Rx         01AC  8  28 84 00 00 69 01 16 D2 
  1418)      1193.3  Rx         04A0  8  00 00 00 00 00 00 00 00 
  1419)      1193.8  Rx         04A8  8  19 80 6D 11 00 00 40 A5 
  1420)      1194.6  Rx         05A0  8  7C 00 00 42 00 00 10 AB 
  1421)      1195.2  Rx         0280  8  01 0D 72 0E 0F 00 33 0F 
  1422)      1195.6  Rx         0288  8  2C 6E 33 04 00 5B 8E 0E 
  1423)      1196.1  Rx         0380  8  00 53 00 3F 20 00 00 0E 
  1424)      1197.0  Rx         0488  8  49 1A 1A 7E FE FF 26 10 
  1425)      1197.5  Rx         0440  8  00 80 00 FE 80 00 60 00 
  1426)      1201.4  Rx         0540  8  C0 00 FF 00 FE 00 00 26 
  1427)      1207.3  Rx         0440  8  00 80 00 FE 80 00 68 00 
  1428)      1209.1  Rx         01A0  8  00 4A 00 00 00 FE 00 59 
  1429)      1209.7  Rx         04A0  8  00 00 00 00 00 00 00 00 
  1430)      1210.2  Rx         0280  8  01 0D 72 0E 0F 00 33 0F 
  1431)      1210.7  Rx         0288  8  2C 6E 33 04 00 5B 8E 0E 
  1432)      1211.3  Rx         0380  8  00 53 00 3F 20 00 00 0E 
  1433)      1211.5  Rx         0540  8  D0 00 FF 00 FE 00 00 26 
  1434)      1213.7  Rx         0488  8  14 1A 1A 7E FE FF 4B 20 
  1435)      1214.1  Rx         038A  4  05 01 04 00 
  1436)      1215.0  Rx         0480  8  84 08 08 20 19 00 06 BB 
  1437)      1215.9  Rx         0588  8  1B 66 7E 04 00 00 00 00 
  1438)      1216.3  Rx         056A  8  51 00 08 00 1A 00 02 41 
  1439)      1217.4  Rx         0440  8  00 80 00 FE 80 00 70 00 
  1440)      1218.7  Rx         01A0  8  00 4A 00 00 00 FE 00 5A 
  1441)      1219.2  Rx         01AC  8  2C 85 00 00 69 01 13 D2 
  1442)      1219.7  Rx         04A0  8  00 00 00 00 00 00 00 00 
  1443)      1220.5  Rx         04A8  8  06 80 6F 11 00 00 50 A8 
  1444)      1221.1  Rx         05A0  8  7B 00 00 52 00 00 10 AB 
  1445)      1221.4  Rx         0540  8  E0 00 FF 00 FE 00 00 26 
  1446)      1221.7  Rx         0280  8  01 0D 72 0E 0F 00 33 0F 
  1447)      1222.3  Rx         0288  8  2C 6E 33 04 00 5B 8E 0E 
  1448)      1225.5  Rx         0380  8  00 53 00 3F 20 00 00 0E 
  1449)      1226.5  Rx         0488  8  47 1A 1A 7E FE FF 08 30 
  1450)      1227.4  Rx         0440  8  00 80 00 FE 80 00 78 00 
  1451)      1228.6  Rx         01A0  8  00 4A 00 00 00 FE 00 5B 
  1452)      1229.2  Rx         04A0  8  00 00 00 00 00 00 00 00 
  1453)      1229.7  Rx         0280  8  01 0D 72 0E 0F 00 33 0F 
  1454)      1230.2  Rx         0288  8  64 6E 33 04 00 5B 8E 0E 
  1455)      1230.7  Rx         0380  8  00 53 00 3F 20 00 00 0E 
  1456)      1231.4  Rx         0540  8  F0 00 FF 00 FE 00 00 2F 
  1457)      1231.8  Rx         0488  8  19 1A 1A 7E FE FF 26 40 
  1458)      1232.1  Rx         038A  4  15 01 14 00 
  1459)      1234.4  Rx         0480  8  84 08 11 20 19 00 06 A2 
  1460)      1235.3  Rx         0588  8  1B 66 7E 82 00 00 00 00 
  1461)      1235.8  Rx         056A  8  41 00 08 00 1A 00 02 51 
  1462)      1237.4  Rx         0440  8  00 80 00 FE 80 00 00 00 
  1463)      1237.6  Rx         01A0  8  00 4A 00 00 00 FE 00 5C 
  1464)      1238.2  Rx         01AC  8  28 86 00 00 69 01 14 D2 
  1465)      1238.7  Rx         04A0  8  00 00 00 00 00 00 00 00 
  1466)      1239.2  Rx         04A8  8  0C 80 72 11 00 00 60 8F 
  1467)      1240.0  Rx         05A0  8  7B 00 00 62 00 00 10 AB 
  1468)      1240.6  Rx         0280  8  01 0D 6A 0E 0F 00 33 0F 
  1469)      1241.1  Rx         0288  8  64 6E 33 04 00 5B 8E 0E 
  1470)      1241.4  Rx         0540  8  00 00 FF 00 FE 00 00 2F 
  1471)      1241.6  Rx         0380  8  00 53 00 3D 20 00 00 0E 
  1472)      1242.8  Rx         0488  8  D0 1A 1A 7E FE FF FF 50 
  1473)      1245.1  Rx         01A0  8  00 4A 00 00 00 FE 00 5D 
  1474)      1245.5  Rx         04A0  8  00 00 00 00 00 00 00 00 
  1475)      1246.1  Rx         0280  8  01 0D 6A 0E 0F 00 33 0F 
  1476)      1246.5  Rx         0288  8  64 6E 33 04 00 5B 8E 0E 
  1477)      1247.0  Rx         0380  8  00 53 00 3D 20 00 00 0E 
  1478)      1247.4  Rx         0440  8  00 80 00 FE 80 00 08 00 
  1479)      1249.3  Rx         038A  4  25 01 24 00 
  1480)      1249.9  Rx         0488  8  E0 1A 1A 7E FE FF FF 60 
  1481)      1250.8  Rx         0480  8  C2 08 1A 20 19 00 06 EF 
  1482)      1251.4  Rx         0540  8  10 00 FF 00 FE 00 00 2F 
  1483)      1251.8  Rx         0588  8  1B 66 7E 00 00 00 00 00 
  1484)      1252.2  Rx         056A  8  71 00 08 00 1A 00 02 61 
  1485)      1254.2  Rx         01A0  8  00 4A 00 00 00 FE 00 5E 
  1486)      1254.7  Rx         01AC  8  28 87 00 00 69 01 15 D2 
  1487)      1255.3  Rx         04A0  8  00 00 00 00 00 00 00 00 
  1488)      1255.7  Rx         04A8  8  06 00 6F 11 00 00 70 08 
  1489)      1256.5  Rx         05A0  8  7C 00 00 72 00 00 10 AB 
  1490)      1257.1  Rx         0280  8  01 0D 6A 0E 0F 00 33 0F 
  1491)      1257.4  Rx         0440  8  00 80 00 FE 80 00 10 00 
  1492)      1257.7  Rx         0288  8  64 6E 33 04 00 5B 8E 0E 
  1493)      1258.6  Rx         0380  8  00 53 00 3E 20 00 00 0E 
  1494)      1259.9  Rx         0488  8  F0 1A 1A 7E FE FF FF 70 
  1495)      1261.3  Rx         0520  8  02 02 00 D6 69 57 33 03 
  1496)      1261.5  Rx         0540  8  20 00 FF 00 FE 00 00 2F 
  1497)      1263.8  Rx         01A0  8  00 4A 00 00 00 FE 00 5F 
  1498)      1264.3  Rx         04A0  8  00 00 00 00 00 00 00 00 
  1499)      1264.8  Rx         0390  8  6A 40 50 00 00 00 20 00 
  1500)      1265.4  Rx         0280  8  01 0D 65 0E 0F 00 33 0F 
  1501)      1265.8  Rx         0288  8  8A 6E 33 04 00 5B 8E 0E 
  1502)      1267.4  Rx         0440  8  00 80 00 FE 80 00 18 00 
  1503)      1268.3  Rx         0380  8  00 53 00 3E 20 00 00 0E 
  1504)      1268.8  Rx         0488  8  00 1A 1A 7E FE FF FF 80 
  1505)      1270.5  Rx         038A  4  35 01 34 00 
  1506)      1271.4  Rx         0540  8  30 00 FF 00 FE 00 00 26 
  1507)      1271.6  Rx         0480  8  C2 08 22 20 19 00 06 D7 
  1508)      1272.4  Rx         056A  8  61 00 08 00 1A 00 02 71 
  1509)      1274.0  Rx         0588  8  1B 66 7E 81 00 00 00 00 
  1510)      1274.8  Rx         05D0  8  C0 04 51 AF 29 48 01 00 
  1511)      1275.7  Rx         01A0  8  00 4A 00 00 00 FE 00 50 
  1512)      1276.2  Rx         01AC  8  27 88 00 00 69 01 15 D2 
  1513)      1276.6  Rx         04A0  8  00 00 00 00 00 00 00 00 
  1514)      1277.1  Rx         04A8  8  00 00 6F 11 00 00 80 FE 
  1515)      1277.4  Rx         0440  8  00 80 00 FE 80 00 20 00 
  1516)      1278.2  Rx         05A0  8  7B 00 00 82 00 00 10 AB 
  1517)      1278.7  Rx         0280  8  01 0D 65 0E 0F 00 33 0F 
  1518)      1279.2  Rx         0288  8  8A 6E 33 04 00 5B 8E 0E 
  1519)      1279.7  Rx         0380  8  00 53 00 3E 20 00 00 0E 
  1520)      1280.6  Rx         0488  8  10 1A 1A 7E FE FF FF 90 
