;$FILEVERSION=1.1
;$STARTTIME=45333.476535162
;
;   Start time: 11.02.2024 11:26:12.638.0
;   Generated by PCAN-View v4.3.4.615
;
;   Message Number
;   |         Time Offset (ms)
;   |         |        Type
;   |         |        |        ID (hex)
;   |         |        |        |     Data Length
;   |         |        |        |     |   Data Bytes (hex) ...
;   |         |        |        |     |   |
;---+--   ----+----  --+--  ----+---  +  -+ -- -- -- -- -- -- --
     1)         0.5  Rx         01A0  8  00 42 00 00 00 FE 00 5F 
     2)         1.2  Rx         04A0  8  00 00 00 00 00 00 00 00 
     3)         3.0  Rx         056A  8  31 00 08 00 1A 00 02 21 
     4)         3.5  Rx         0540  8  70 00 FF 00 FE 00 10 2F 
     5)         5.7  Rx         0288  8  E8 75 10 04 00 4E 8D 0D 
     6)         9.1  Rx         01A0  8  00 42 00 00 00 FE 00 50 
     7)         9.5  Rx         0440  8  00 80 00 FE 80 00 40 00 
     8)         9.7  Rx         01AC  8  A1 08 00 00 69 01 13 D2 
     9)        10.0  Rx         04A0  8  00 00 00 00 00 00 00 00 
    10)        10.6  Rx         04A8  8  0C 00 00 10 00 00 80 9C 
    11)        11.2  Rx         05A0  8  7B 00 00 82 00 DC 10 AB 
    12)        13.2  Rx         0288  8  2C 75 10 04 00 4E 8D 0D 
    13)        13.5  Rx         0540  8  80 00 FF 00 FE 00 10 2F 
    14)        14.0  Rx         038A  4  C5 01 C4 00 
    15)        17.4  Rx         01A0  8  00 42 00 00 00 FE 00 51 
    16)        17.9  Rx         04A0  8  00 00 00 00 00 00 00 00 
    17)        19.5  Rx         0440  8  00 80 00 FE 80 00 48 00 
    18)        20.7  Rx         056A  8  21 00 08 00 1A 00 02 31 
    19)        22.6  Rx         0288  8  2C 75 10 04 00 4E 8D 0D 
    20)        23.5  Rx         0540  8  90 00 FF 00 FE 00 10 2F 
    21)        26.8  Rx         01A0  8  00 42 00 00 00 FE 00 52 
    22)        27.3  Rx         01AC  8  A5 09 00 00 69 01 16 D2 
    23)        27.7  Rx         04A0  8  00 00 00 00 00 00 00 00 
    24)        28.7  Rx         04A8  8  00 00 00 10 00 00 90 80 
    25)        29.2  Rx         05A0  8  7C 00 00 92 00 DC 10 AB 
    26)        29.5  Rx         0440  8  00 80 00 FE 80 00 50 00 
    27)        30.7  Rx         0288  8  2C 75 10 04 00 4E 8D 0D 
    28)        31.6  Rx         038A  4  D5 01 D4 00 
    29)        33.5  Rx         0540  8  A0 00 FF 00 FE 00 10 2F 
    30)        34.6  Rx         01A0  8  00 42 00 00 00 FE 00 53 
    31)        35.1  Rx         04A0  8  00 00 00 00 00 00 00 00 
    32)        37.0  Rx         056A  8  51 00 08 00 1A 00 02 41 
    33)        39.5  Rx         0440  8  00 80 00 FE 80 00 58 00 
    34)        40.2  Rx         0288  8  2C 75 10 04 00 4E 8D 0D 
    35)        42.1  Rx         0520  8  A6 87 00 93 7A 57 33 03 
    36)        43.5  Rx         0540  8  B0 00 FF 00 FE 00 10 26 
    37)        45.0  Rx         01A0  8  00 42 00 00 00 FE 00 54 
    38)        45.4  Rx         01AC  8  A5 0A 00 00 69 01 15 D2 
    39)        45.9  Rx         04A0  8  00 00 00 00 00 00 00 00 
    40)        46.6  Rx         04A8  8  00 00 00 10 00 00 A0 B0 
    41)        47.1  Rx         05A0  8  7B 00 00 A2 00 DC 10 AB 
    42)        48.0  Rx         0390  8  6A 40 51 00 00 00 20 00 
    43)        48.6  Rx         0280  8  01 0D 39 0C 0F 11 33 0F 
    44)        48.8  Rx         0380  8  00 68 11 0F 20 00 00 11 
    45)        49.0  Rx         0480  8  9C 2B F3 55 19 00 00 08 
    46)        49.2  Rx         0488  8  80 0D 0F 7E FE 8D FF 70 
    47)        49.5  Rx         0588  8  1A 66 7E 00 00 00 00 00 
    48)        49.7  Rx         0440  8  00 80 00 FE 80 00 60 00 
    49)        50.0  Rx         0580  8  9C 00 00 14 1C 93 48 14 
    50)        53.5  Rx         0540  8  C0 00 FF 00 FE 00 10 26 
    51)        59.5  Rx         0440  8  00 80 00 FE 80 00 68 00 
    52)        60.0  Rx         0288  8  64 75 10 04 00 4E 8D 0D 
    53)        60.8  Rx         038A  4  E5 01 E4 00 
    54)        61.5  Rx         05D0  8  C0 04 51 AF 29 48 01 00 
    55)        63.5  Rx         0540  8  D0 00 FF 00 FE 00 10 26 
    56)        63.9  Rx         01A0  8  00 42 00 00 00 FE 00 55 
    57)        64.4  Rx         04A0  8  00 00 00 00 00 00 00 00 
    58)        67.5  Rx         056A  8  41 00 08 00 1A 00 02 51 
    59)        69.5  Rx         0440  8  00 80 00 FE 80 00 70 00 
    60)        69.8  Rx         0288  8  64 75 10 04 00 4E 8D 0D 
    61)        70.8  Rx         05DC  8  77 18 C0 3F 1E 00 30 42 
    62)        73.5  Rx         0540  8  E0 00 FF 00 FE 00 10 26 
    63)        74.0  Rx         01A0  8  00 42 00 00 00 FE 00 56 
    64)        74.5  Rx         01AC  8  A6 0B 00 00 69 01 17 D2 
    65)        75.0  Rx         04A0  8  00 00 00 00 00 00 00 00 
    66)        75.5  Rx         04A8  8  0C 00 00 10 00 00 B0 AC 
    67)        76.1  Rx         05A0  8  7C 00 00 B2 00 DC 10 AB 
    68)        77.4  Rx         038A  4  F5 01 F4 00 
    69)        78.5  Rx         0288  8  64 75 10 04 00 4E 8D 0D 
    70)        79.5  Rx         0440  8  00 80 00 FE 80 00 78 00 
    71)        81.5  Rx         01A0  8  00 42 00 00 00 FE 00 57 
    72)        83.5  Rx         0540  8  F0 00 FF 00 FE 00 10 2F 
    73)        83.7  Rx         04A0  8  00 00 00 00 00 00 00 00 
    74)        84.7  Rx         056A  8  71 00 08 00 1A 00 02 61 
    75)        87.0  Rx         0288  8  64 75 10 04 00 4E 8D 0D 
    76)        89.5  Rx         0440  8  00 80 00 FE 80 00 00 00 
    77)        90.2  Rx         01A0  8  00 42 00 00 00 FE 00 58 
    78)        90.7  Rx         01AC  8  A2 0C 00 00 69 01 14 D2 
    79)        91.8  Rx         04A0  8  00 00 00 00 00 00 00 00 
    80)        92.4  Rx         04A8  8  12 80 00 10 00 00 C0 42 
    81)        92.8  Rx         05A0  8  7C 00 00 C2 00 DC 10 AB 
    82)        93.5  Rx         0540  8  00 00 FF 00 FE 00 10 2F 
    83)        94.1  Rx         038A  4  05 01 04 00 
    84)        95.7  Rx         0288  8  8A 75 10 04 00 4E 8D 0D 
    85)        98.1  Rx         01A0  8  00 42 00 00 00 FE 00 59 
    86)        98.6  Rx         04A0  8  00 00 00 00 00 00 00 00 
    87)        99.5  Rx         0440  8  00 80 00 FE 80 00 08 00 
    88)       102.0  Rx         056A  8  61 00 08 00 1A 00 02 71 
    89)       103.5  Rx         0540  8  10 00 FF 00 FE 00 10 2F 
    90)       104.3  Rx         0288  8  8A 75 10 04 00 4E 8D 0D 
    91)       107.6  Rx         01A0  8  00 42 00 00 00 FE 00 5A 
    92)       108.0  Rx         01AC  8  A2 0D 00 00 69 01 15 D2 
    93)       108.6  Rx         04A0  8  00 00 00 00 00 00 00 00 
    94)       109.0  Rx         04A8  8  00 00 00 10 00 00 D0 C0 
    95)       109.5  Rx         0440  8  00 80 00 FE 80 00 10 00 
    96)       109.8  Rx         05A0  8  7C 00 00 D2 00 DC 10 AB 
    97)       111.0  Rx         038A  4  15 01 14 00 
    98)       112.1  Rx         0288  8  8A 75 10 04 00 4E 8D 0D 
    99)       113.5  Rx         0540  8  20 00 FF 00 FE 00 10 2F 
   100)       115.0  Rx         01A0  8  00 42 00 00 00 FE 00 5B 
   101)       115.4  Rx         04A0  8  00 00 00 00 00 00 00 00 
   102)       117.4  Rx         056A  8  91 00 08 00 1A 00 02 81 
   103)       119.5  Rx         0440  8  00 80 00 FE 80 00 18 00 
   104)       120.6  Rx         0288  8  8A 75 10 04 00 4E 8D 0D 
   105)       123.5  Rx         0540  8  30 00 FF 00 FE 00 10 26 
   106)       124.2  Rx         01A0  8  00 42 00 00 00 FE 00 5C 
   107)       124.7  Rx         01AC  8  A0 0E 00 00 69 01 14 D2 
   108)       125.1  Rx         04A0  8  00 00 00 00 00 00 00 00 
   109)       126.2  Rx         04A8  8  0C 80 00 10 00 00 E0 7C 
   110)       126.7  Rx         05A0  8  7C 00 00 E2 00 DC 10 AB 
   111)       126.9  Rx         0280  8  01 0D 3E 0C 0F 11 33 0F 
   112)       127.2  Rx         0380  8  00 68 11 0F 20 00 00 11 
   113)       127.4  Rx         0480  8  1C 2E F3 55 19 00 00 8D 
   114)       127.7  Rx         0488  8  70 0D 0F 7E FE 8D FF 80 
   115)       127.9  Rx         0588  8  1A 66 7E 00 00 00 00 00 
   116)       129.6  Rx         0440  8  00 80 00 FE 80 00 20 00 
   117)       133.5  Rx         0540  8  40 00 FF 00 FE 00 10 26 
   118)       137.7  Rx         038A  4  25 01 24 00 
   119)       139.3  Rx         0288  8  E8 75 10 04 00 4E 8D 0D 
   120)       139.6  Rx         0440  8  00 80 00 FE 80 00 28 00 
   121)       142.3  Rx         01A0  8  00 42 00 00 00 FE 00 5D 
   122)       142.8  Rx         04A0  8  00 00 00 00 00 00 00 00 
   123)       143.5  Rx         0540  8  50 00 FF 00 FE 00 10 26 
   124)       145.8  Rx         056A  8  81 00 08 00 1A 00 02 91 
   125)       148.2  Rx         0288  8  E8 75 10 04 00 4E 8D 0D 
   126)       149.5  Rx         0440  8  00 80 00 FE 80 00 30 00 
   127)       152.6  Rx         01A0  8  00 42 00 00 00 FE 00 5E 
   128)       153.0  Rx         01AC  8  A3 0F 00 00 69 01 16 D2 
   129)       153.5  Rx         04A0  8  00 00 00 00 00 00 00 00 
   130)       153.7  Rx         0540  8  60 00 FF 00 FE 00 10 26 
   131)       154.0  Rx         04A8  8  1F 00 00 10 00 00 F0 FF 
   132)       154.6  Rx         05A0  8  7B 00 00 F2 00 DC 10 AB 
   133)       155.5  Rx         0390  8  6A 40 51 00 00 00 20 00 
   134)       156.5  Rx         038A  4  35 01 34 00 
   135)       157.5  Rx         0288  8  E8 75 10 04 00 4E 8D 0D 
   136)       158.5  Rx         05D0  8  C0 04 51 AF 29 48 01 00 
   137)       159.5  Rx         0440  8  00 80 00 FE 80 00 38 00 
   138)       161.1  Rx         01A0  8  00 42 00 00 00 FE 00 5F 
   139)       161.6  Rx         04A0  8  00 00 00 00 00 00 00 00 
   140)       163.5  Rx         0540  8  70 00 FF 00 FE 00 10 2F 
   141)       164.3  Rx         056A  8  B1 00 08 00 1A 00 02 A1 
   142)       167.0  Rx         0288  8  E8 75 10 04 00 4E 8D 0D 
   143)       168.5  Rx         05DC  8  77 18 C0 3F 1E 00 30 42 
   144)       169.5  Rx         0440  8  00 80 00 FE 80 00 40 00 
   145)       170.8  Rx         01A0  8  00 42 00 00 00 FE 00 50 
   146)       171.4  Rx         01AC  8  AE 00 00 00 69 01 14 D2 
   147)       171.9  Rx         04A0  8  00 00 00 00 00 00 00 00 
   148)       172.5  Rx         04A8  8  0C 80 00 10 00 00 00 9C 
   149)       172.9  Rx         05A0  8  7B 00 00 02 00 DC 10 AB 
   150)       173.5  Rx         0540  8  80 00 FF 00 FE 00 10 2F 
   151)       174.3  Rx         038A  4  45 01 44 00 
   152)       175.3  Rx         0288  8  2C 75 10 04 00 4E 8D 0D 
   153)       178.2  Rx         01A0  8  00 42 00 00 00 FE 00 51 
   154)       178.7  Rx         04A0  8  00 00 00 00 00 00 00 00 
   155)       179.5  Rx         0440  8  00 80 00 FE 80 00 48 00 
   156)       181.2  Rx         056A  8  A1 00 08 00 1A 00 02 B1 
   157)       183.5  Rx         0540  8  90 00 FF 00 FE 00 10 2F 
   158)       183.9  Rx         0288  8  2C 75 10 04 00 4E 8D 0D 
   159)       187.2  Rx         01A0  8  00 42 00 00 00 FE 00 52 
   160)       187.6  Rx         01AC  8  AE 01 00 00 69 01 15 D2 
   161)       188.2  Rx         04A0  8  00 00 00 00 00 00 00 00 
   162)       188.6  Rx         04A8  8  00 00 00 10 00 00 10 00 
   163)       189.1  Rx         05A0  8  7B 00 00 12 00 DC 10 AB 
   164)       189.6  Rx         0440  8  00 80 00 FE 80 00 50 00 
   165)       191.6  Rx         0288  8  2C 75 10 04 00 4E 8D 0D 
   166)       192.5  Rx         038A  4  55 01 54 00 
   167)       193.5  Rx         0540  8  A0 00 FF 00 FE 00 10 2F 
   168)       194.9  Rx         01A0  8  00 42 00 00 00 FE 00 53 
   169)       195.4  Rx         04A0  8  00 00 00 00 00 00 00 00 
   170)       198.2  Rx         056A  8  D1 00 08 00 1A 00 02 C1 
   171)       199.5  Rx         0440  8  00 80 00 FE 80 00 58 00 
   172)       200.6  Rx         0288  8  2C 75 10 04 00 4E 8D 0D 
   173)       203.5  Rx         0540  8  B0 00 FF 00 FE 00 10 26 
   174)       204.0  Rx         01A0  8  00 42 00 00 00 FE 00 54 
   175)       204.5  Rx         01AC  8  AD 02 00 00 69 01 15 D2 
   176)       205.0  Rx         04A0  8  00 00 00 00 00 00 00 00 
   177)       205.4  Rx         04A8  8  00 00 00 10 00 00 20 30 
   178)       205.8  Rx         05A0  8  7B 00 00 22 00 DC 10 AB 
   179)       206.6  Rx         0280  8  01 0D 2D 0C 0F 11 33 0F 
   180)       206.8  Rx         0380  8  00 68 11 0F 20 00 00 11 
   181)       207.0  Rx         0480  8  1C 2E F3 55 19 00 00 8D 
   182)       207.3  Rx         0488  8  60 0D 0F 7E FE 8D FF 90 
   183)       207.6  Rx         0588  8  1A 66 7E 00 00 00 00 00 
   184)       209.5  Rx         0440  8  00 80 00 FE 80 00 60 00 
   185)       213.5  Rx         0540  8  C0 00 FF 00 FE 00 10 26 
   186)       217.7  Rx         038A  4  65 01 64 00 
   187)       218.7  Rx         0288  8  64 75 10 04 00 4E 8D 0D 
   188)       219.6  Rx         0440  8  00 80 00 FE 80 00 68 00 
   189)       221.7  Rx         01A0  8  00 42 00 00 00 FE 00 55 
   190)       222.3  Rx         04A0  8  00 00 00 00 00 00 00 00 
   191)       223.5  Rx         0540  8  D0 00 FF 00 FE 00 10 26 
   192)       225.1  Rx         056A  8  C1 00 08 00 1A 00 02 D1 
   193)       228.5  Rx         0288  8  64 75 10 04 00 4E 8D 0D 
   194)       229.5  Rx         0440  8  00 80 00 FE 80 00 70 00 
   195)       231.9  Rx         01A0  8  00 42 00 00 00 FE 00 56 
   196)       232.5  Rx         01AC  8  AE 03 00 00 69 01 17 D2 
   197)       232.9  Rx         04A0  8  00 00 00 00 00 00 00 00 
   198)       233.5  Rx         04A8  8  00 00 00 10 00 00 30 20 
   199)       233.7  Rx         0540  8  E0 00 FF 00 FE 00 10 26 
   200)       234.5  Rx         05A0  8  7C 00 00 32 00 DC 10 AB 
   201)       235.3  Rx         038A  4  75 01 74 00 
   202)       236.5  Rx         0288  8  64 75 10 04 00 4E 8D 0D 
   203)       239.3  Rx         01A0  8  00 42 00 00 00 FE 00 57 
   204)       239.5  Rx         0440  8  00 80 00 FE 80 00 78 00 
   205)       239.8  Rx         04A0  8  00 00 00 00 00 00 00 00 
   206)       242.7  Rx         056A  8  F1 00 08 00 1A 00 02 E1 
   207)       243.5  Rx         0540  8  F0 00 FF 00 FE 00 10 2F 
   208)       245.7  Rx         0288  8  64 75 10 04 00 4E 8D 0D 
   209)       247.8  Rx         0520  8  57 C4 00 93 7A 57 33 03 
   210)       249.5  Rx         0440  8  00 80 00 FE 80 00 00 00 
   211)       250.1  Rx         01A0  8  00 42 00 00 00 FE 00 58 
   212)       250.6  Rx         01AC  8  AA 04 00 00 69 01 14 D2 
   213)       251.2  Rx         04A0  8  00 00 00 00 00 00 00 00 
   214)       251.7  Rx         04A8  8  0C 00 00 10 00 00 40 5C 
   215)       252.2  Rx         05A0  8  7B 00 00 42 00 DC 10 AB 
   216)       253.2  Rx         0390  8  6A 40 51 00 00 00 20 00 
   217)       253.5  Rx         0540  8  00 00 FF 00 FE 00 10 2F 
   218)       254.1  Rx         038A  4  85 01 84 00 
   219)       255.1  Rx         0288  8  8A 75 10 04 00 4E 8D 0D 
   220)       256.7  Rx         05D0  8  C0 04 51 AF 29 48 01 00 
   221)       258.5  Rx         01A0  8  00 42 00 00 00 FE 00 59 
   222)       259.0  Rx         04A0  8  00 00 00 00 00 00 00 00 
   223)       259.5  Rx         0440  8  00 80 00 FE 80 00 08 00 
   224)       261.5  Rx         056A  8  E1 00 08 00 1A 00 02 F1 
   225)       263.5  Rx         0540  8  10 00 FF 00 FE 00 10 2F 
   226)       264.7  Rx         0288  8  8A 75 10 04 00 4E 8D 0D 
   227)       267.9  Rx         05DC  8  77 18 C0 3F 1E 00 30 42 
   228)       268.4  Rx         01A0  8  00 42 00 00 00 FE 00 5A 
   229)       268.9  Rx         01AC  8  AA 05 00 00 69 01 15 D2 
   230)       269.4  Rx         04A0  8  00 00 00 00 00 00 00 00 
   231)       269.6  Rx         0440  8  00 80 00 FE 80 00 10 00 
   232)       269.9  Rx         04A8  8  00 00 00 10 00 00 50 40 
   233)       270.4  Rx         05A0  8  7C 00 00 52 00 DC 10 AB 
   234)       271.9  Rx         038A  4  95 01 94 00 
   235)       273.5  Rx         0540  8  20 00 FF 00 FE 00 10 2F 
   236)       274.0  Rx         0288  8  8A 75 10 04 00 4E 8D 0D 
   237)       275.7  Rx         01A0  8  00 42 00 00 00 FE 00 5B 
   238)       276.4  Rx         04A0  8  00 00 00 00 00 00 00 00 
   239)       278.7  Rx         056A  8  11 00 08 00 1A 00 02 01 
   240)       279.5  Rx         0440  8  00 80 00 FE 80 00 18 00 
   241)       281.5  Rx         0288  8  8A 75 10 04 00 4E 8D 0D 
   242)       283.5  Rx         0540  8  30 00 FF 00 FE 00 10 26 
   243)       284.8  Rx         01A0  8  00 42 00 00 00 FE 00 5C 
   244)       285.3  Rx         01AC  8  A9 06 00 00 69 01 15 D2 
   245)       285.7  Rx         04A0  8  00 00 00 00 00 00 00 00 
   246)       286.4  Rx         04A8  8  0C 80 00 10 00 00 60 FC 
   247)       286.8  Rx         05A0  8  7B 00 00 62 00 DC 10 AB 
   248)       287.4  Rx         0280  8  01 0D 32 0C 0F 11 33 0F 
   249)       287.7  Rx         0380  8  00 68 11 0F 20 00 00 11 
   250)       287.9  Rx         0480  8  1C 2E F3 55 19 00 00 8D 
   251)       288.1  Rx         0488  8  50 0D 0F 7E FE 8D FF A0 
   252)       288.3  Rx         0588  8  1A 66 7E 00 00 00 00 00 
   253)       289.5  Rx         0440  8  00 80 00 FE 80 00 20 00 
   254)       293.5  Rx         0540  8  40 00 FF 00 FE 00 10 26 
   255)       299.3  Rx         0288  8  E8 75 10 04 00 4E 8D 0D 
   256)       299.5  Rx         0440  8  00 80 00 FE 80 00 28 00 
   257)       300.3  Rx         038A  4  A5 01 A4 00 
   258)       302.9  Rx         01A0  8  00 42 00 00 00 FE 00 5D 
   259)       303.4  Rx         04A0  8  00 00 00 00 00 00 00 00 
   260)       303.6  Rx         0540  8  50 00 FF 00 FE 00 10 26 
   261)       305.6  Rx         056A  8  01 00 08 00 1A 00 02 11 
   262)       308.8  Rx         0288  8  E8 75 10 04 00 4E 8D 0D 
   263)       309.5  Rx         0440  8  00 80 00 FE 80 00 30 00 
   264)       312.2  Rx         01A0  8  00 42 00 00 00 FE 00 5E 
   265)       312.7  Rx         01AC  8  A8 07 00 00 69 01 15 D2 
   266)       313.2  Rx         04A0  8  00 00 00 00 00 00 00 00 
   267)       313.5  Rx         0540  8  60 00 FF 00 FE 00 10 26 
   268)       313.8  Rx         04A8  8  12 00 00 10 00 00 70 72 
   269)       314.2  Rx         05A0  8  7C 00 00 72 00 DC 10 AB 
   270)       316.1  Rx         038A  4  B5 01 B4 00 
   271)       317.2  Rx         0288  8  E8 75 10 04 00 4E 8D 0D 
   272)       319.5  Rx         0440  8  00 80 00 FE 80 00 38 00 
   273)       320.0  Rx         01A0  8  00 42 00 00 00 FE 00 5F 
   274)       320.5  Rx         04A0  8  00 00 00 00 00 00 00 00 
   275)       323.5  Rx         0540  8  70 00 FF 00 FE 00 10 2F 
   276)       324.0  Rx         056A  8  31 00 08 00 1A 00 02 21 
   277)       326.8  Rx         0288  8  E8 75 10 04 00 4E 8D 0D 
   278)       329.5  Rx         0440  8  00 80 00 FE 80 00 40 00 
   279)       330.7  Rx         01A0  8  00 42 00 00 00 FE 00 50 
   280)       332.0  Rx         01AC  8  A6 08 00 00 69 01 14 D2 
   281)       332.5  Rx         04A0  8  00 00 00 00 00 00 00 00 
   282)       333.0  Rx         04A8  8  0C 00 00 10 00 00 80 9C 
   283)       333.5  Rx         05A0  8  7B 00 00 82 00 DC 10 AB 
   284)       333.7  Rx         0540  8  80 00 FF 00 FE 00 10 2F 
   285)       334.4  Rx         038A  4  C5 01 C4 00 
   286)       335.4  Rx         0288  8  2C 75 10 04 00 4E 8D 0D 
   287)       338.7  Rx         01A0  8  00 42 00 00 00 FE 00 51 
   288)       339.2  Rx         04A0  8  00 00 00 00 00 00 00 00 
   289)       339.6  Rx         0440  8  00 80 00 FE 80 00 48 00 
   290)       342.2  Rx         056A  8  21 00 08 00 1A 00 02 31 
   291)       343.5  Rx         0540  8  90 00 FF 00 FE 00 10 2F 
   292)       345.3  Rx         0288  8  2C 75 10 04 00 4E 8D 0D 
   293)       349.4  Rx         01A0  8  00 42 00 00 00 FE 00 52 
   294)       349.7  Rx         0440  8  00 80 00 FE 80 00 50 00 
   295)       350.0  Rx         01AC  8  A7 09 00 00 69 01 14 D2 
   296)       350.6  Rx         04A0  8  00 00 00 00 00 00 00 00 
   297)       351.2  Rx         04A8  8  0C 00 00 10 00 00 90 8C 
   298)       351.6  Rx         05A0  8  7C 00 00 92 00 DC 10 AB 
   299)       352.7  Rx         0390  8  6A 40 51 00 00 00 20 00 
   300)       353.5  Rx         0540  8  A0 00 FF 00 FE 00 10 2F 
   301)       353.7  Rx         038A  4  D5 01 D4 00 
   302)       354.1  Rx         05D0  8  C0 04 51 AF 29 48 01 00 
   303)       355.1  Rx         0288  8  2C 75 10 04 00 4E 8D 0D 
   304)       358.0  Rx         01A0  8  00 42 00 00 00 FE 00 53 
   305)       358.5  Rx         04A0  8  00 00 00 00 00 00 00 00 
   306)       359.6  Rx         0440  8  00 80 00 FE 80 00 58 00 
   307)       361.4  Rx         056A  8  51 00 08 00 1A 00 02 41 
   308)       363.3  Rx         05DC  8  77 18 C0 3F 1E 00 30 42 
   309)       363.5  Rx         0540  8  B0 00 FF 00 FE 00 10 26 
   310)       365.6  Rx         0288  8  2C 75 10 04 00 4E 8D 0D 
   311)       367.9  Rx         01A0  8  00 42 00 00 00 FE 00 54 
   312)       368.4  Rx         01AC  8  A6 0A 00 00 69 01 16 D2 
   313)       368.9  Rx         04A0  8  00 00 00 00 00 00 00 00 
   314)       369.4  Rx         04A8  8  06 00 00 10 00 00 A0 B6 
   315)       369.6  Rx         0440  8  00 80 00 FE 80 00 60 00 
   316)       369.9  Rx         05A0  8  7C 00 00 A2 00 DC 10 AB 
   317)       371.4  Rx         038A  4  E5 01 E4 00 
   318)       372.6  Rx         0288  8  64 75 10 04 00 4E 8D 0D 
   319)       373.5  Rx         0540  8  C0 00 FF 00 FE 00 10 26 
   320)       375.3  Rx         01A0  8  00 42 00 00 00 FE 00 55 
   321)       375.8  Rx         04A0  8  00 00 00 00 00 00 00 00 
   322)       378.6  Rx         056A  8  41 00 08 00 1A 00 02 51 
   323)       379.5  Rx         0440  8  00 80 00 FE 80 00 68 00 
   324)       380.5  Rx         0288  8  64 75 10 04 00 4E 8D 0D 
   325)       383.4  Rx         0540  8  D0 00 FF 00 FE 00 10 26 
   326)       384.4  Rx         01A0  8  00 42 00 00 00 FE 00 56 
   327)       384.8  Rx         01AC  8  A4 0B 00 00 69 01 15 D2 
   328)       385.3  Rx         04A0  8  00 00 00 00 00 00 00 00 
   329)       385.8  Rx         04A8  8  0C 00 00 10 00 00 B0 AC 
   330)       386.4  Rx         05A0  8  7C 00 00 B2 00 DC 10 AB 
   331)       387.0  Rx         0280  8  01 0D 39 0C 0F 11 33 0F 
   332)       387.2  Rx         0380  8  00 68 11 0F 20 00 00 11 
   333)       387.4  Rx         0480  8  1C 2E F3 55 19 00 00 8D 
   334)       387.7  Rx         0488  8  40 0D 0F 7E FE 8D FF B0 
   335)       387.9  Rx         0588  8  1A 66 7E 00 00 00 00 00 
   336)       389.5  Rx         0440  8  00 80 00 FE 80 00 70 00 
   337)       393.5  Rx         0540  8  E0 00 FF 00 FE 00 10 26 
   338)       397.6  Rx         038A  4  F5 01 F4 00 
   339)       398.7  Rx         0288  8  64 75 10 04 00 4E 8D 0D 
   340)       399.5  Rx         0440  8  00 80 00 FE 80 00 78 00 
   341)       401.8  Rx         01A0  8  00 42 00 00 00 FE 00 57 
   342)       402.4  Rx         04A0  8  00 00 00 00 00 00 00 00 
   343)       403.5  Rx         0540  8  F0 00 FF 00 FE 00 10 2F 
   344)       405.0  Rx         056A  8  71 00 08 00 1A 00 02 61 
   345)       408.7  Rx         0288  8  64 75 10 04 00 4E 8D 0D 
   346)       409.5  Rx         0440  8  00 80 00 FE 80 00 00 00 
   347)       410.6  Rx         01A0  8  00 42 00 00 00 FE 00 58 
   348)       411.3  Rx         01AC  8  A2 0C 00 00 69 01 14 D2 
   349)       411.7  Rx         04A0  8  00 00 00 00 00 00 00 00 
   350)       412.3  Rx         04A8  8  00 00 00 10 00 00 C0 D0 
   351)       412.7  Rx         05A0  8  7B 00 00 C2 00 DC 10 AB 
   352)       413.5  Rx         0540  8  00 00 FF 00 FE 00 10 2F 
   353)       414.1  Rx         038A  4  05 01 04 00 
   354)       415.2  Rx         0288  8  8A 75 10 04 00 4E 8D 0D 
   355)       418.0  Rx         01A0  8  00 42 00 00 00 FE 00 59 
   356)       418.5  Rx         04A0  8  00 00 00 00 00 00 00 00 
   357)       419.5  Rx         0440  8  00 80 00 FE 80 00 08 00 
   358)       421.5  Rx         056A  8  61 00 08 00 1A 00 02 71 
   359)       423.5  Rx         0540  8  10 00 FF 00 FE 00 10 2F 
   360)       423.8  Rx         0288  8  8A 75 10 04 00 4E 8D 0D 
   361)       427.5  Rx         01A0  8  00 42 00 00 00 FE 00 5A 
   362)       427.9  Rx         01AC  8  A4 0D 00 00 69 01 13 D2 
   363)       428.5  Rx         04A0  8  00 00 00 00 00 00 00 00 
   364)       428.9  Rx         04A8  8  12 80 00 10 00 00 D0 52 
   365)       429.5  Rx         0440  8  00 80 00 FE 80 00 10 00 
   366)       430.0  Rx         05A0  8  7C 00 00 D2 00 DC 10 AB 
   367)       431.0  Rx         038A  4  15 01 14 00 
   368)       432.3  Rx         0288  8  8A 75 10 04 00 4E 8D 0D 
   369)       433.5  Rx         0540  8  20 00 FF 00 FE 00 10 2F 
   370)       435.6  Rx         01A0  8  00 42 00 00 00 FE 00 5B 
   371)       436.3  Rx         04A0  8  00 00 00 00 00 00 00 00 
   372)       439.0  Rx         056A  8  91 00 08 00 1A 00 02 81 
   373)       439.5  Rx         0440  8  00 80 00 FE 80 00 18 00 
   374)       441.8  Rx         0520  8  02 02 00 93 7A 57 33 03 
   375)       443.4  Rx         0288  8  8A 75 10 04 00 4E 8D 0D 
   376)       443.6  Rx         0540  8  30 00 FF 00 FE 00 10 26 
   377)       446.6  Rx         01A0  8  00 42 00 00 00 FE 00 5C 
   378)       447.1  Rx         01AC  8  A3 0E 00 00 69 01 17 D2 
   379)       447.5  Rx         04A0  8  00 00 00 00 00 00 00 00 
   380)       448.0  Rx         04A8  8  00 00 00 10 00 00 E0 F0 
   381)       448.5  Rx         05A0  8  7B 00 00 E2 00 DC 10 AB 
   382)       449.4  Rx         0390  8  6A 40 51 00 00 00 20 00 
   383)       449.7  Rx         0440  8  00 80 00 FE 80 00 20 00 
   384)       450.4  Rx         038A  4  25 01 24 00 
   385)       451.1  Rx         05D0  8  C0 04 51 AF 29 48 01 00 
   386)       452.1  Rx         0288  8  E8 75 10 04 00 4E 8D 0D 
   387)       453.5  Rx         0540  8  40 00 FF 00 FE 00 10 26 
   388)       454.9  Rx         01A0  8  00 42 00 00 00 FE 00 5D 
   389)       455.4  Rx         04A0  8  00 00 00 00 00 00 00 00 
   390)       458.2  Rx         056A  8  81 00 08 00 1A 00 02 91 
   391)       459.5  Rx         0440  8  00 80 00 FE 80 00 28 00 
   392)       460.0  Rx         05DC  8  77 18 C0 3F 1E 00 30 42 
   393)       462.3  Rx         0288  8  E8 75 10 04 00 4E 8D 0D 
   394)       463.5  Rx         0540  8  50 00 FF 00 FE 00 10 26 
   395)       464.5  Rx         01A0  8  00 42 00 00 00 FE 00 5E 
   396)       465.3  Rx         01AC  8  A0 0F 00 00 69 01 15 D2 
   397)       465.8  Rx         04A0  8  00 00 00 00 00 00 00 00 
   398)       466.5  Rx         04A8  8  00 00 00 10 00 00 F0 E0 
   399)       467.0  Rx         05A0  8  7C 00 00 F2 00 DC 10 AB 
   400)       467.5  Rx         0280  8  01 0D 43 0C 0F 11 33 0F 
   401)       467.7  Rx         0380  8  00 68 11 0F 20 00 00 11 
   402)       468.0  Rx         0480  8  1C 2E F3 55 19 00 00 8D 
   403)       468.2  Rx         0488  8  30 0D 0F 7E FE 8D FF C0 
   404)       468.4  Rx         0588  8  1A 66 7E 00 00 00 00 00 
   405)       469.5  Rx         0440  8  00 80 00 FE 80 00 30 00 
   406)       473.5  Rx         0540  8  60 00 FF 00 FE 00 10 26 
   407)       478.7  Rx         038A  4  35 01 34 00 
   408)       479.5  Rx         0440  8  00 80 00 FE 80 00 38 00 
   409)       479.8  Rx         0288  8  E8 75 10 04 00 4E 8D 0D 
   410)       482.9  Rx         01A0  8  00 42 00 00 00 FE 00 5F 
   411)       483.4  Rx         04A0  8  00 00 00 00 00 00 00 00 
   412)       483.6  Rx         0540  8  70 00 FF 00 FE 00 10 2F 
   413)       486.1  Rx         056A  8  B1 00 08 00 1A 00 02 A1 
   414)       488.5  Rx         0288  8  E8 75 10 04 00 4E 8D 0D 
   415)       489.5  Rx         0440  8  00 80 00 FE 80 00 40 00 
   416)       491.7  Rx         01A0  8  00 42 00 00 00 FE 00 50 
   417)       492.3  Rx         01AC  8  AE 00 00 00 69 01 14 D2 
   418)       492.8  Rx         04A0  8  00 00 00 00 00 00 00 00 
   419)       493.2  Rx         04A8  8  12 00 00 10 00 00 00 02 
   420)       493.5  Rx         0540  8  80 00 FF 00 FE 00 10 2F 
   421)       494.2  Rx         05A0  8  7C 00 00 02 00 DC 10 AB 
   422)       495.4  Rx         038A  4  45 01 44 00 
   423)       497.2  Rx         0288  8  2C 75 10 04 00 4E 8D 0D 
   424)       499.4  Rx         01A0  8  00 42 00 00 00 FE 00 51 
   425)       499.6  Rx         0440  8  00 80 00 FE 80 00 48 00 
   426)       499.9  Rx         04A0  8  00 00 00 00 00 00 00 00 
   427)       503.0  Rx         056A  8  A1 00 08 00 1A 00 02 B1 
   428)       503.4  Rx         0540  8  90 00 FF 00 FE 00 10 2F 
   429)       507.1  Rx         0288  8  2C 75 10 04 00 4E 8D 0D 
   430)       508.5  Rx         01A0  8  00 42 00 00 00 FE 00 52 
   431)       508.9  Rx         01AC  8  A8 01 00 00 69 01 13 D2 
   432)       509.4  Rx         04A0  8  00 00 00 00 00 00 00 00 
   433)       509.6  Rx         0440  8  00 80 00 FE 80 00 50 00 
   434)       509.9  Rx         04A8  8  00 00 00 10 00 00 10 00 
   435)       510.5  Rx         05A0  8  7B 00 00 12 00 DC 10 AB 
   436)       512.4  Rx         038A  4  55 01 54 00 
   437)       513.4  Rx         0288  8  2C 75 10 04 00 4E 8D 0D 
   438)       513.6  Rx         0540  8  A0 00 FF 00 FE 00 10 2F 
   439)       516.3  Rx         01A0  8  00 42 00 00 00 FE 00 53 
   440)       516.9  Rx         04A0  8  00 00 00 00 00 00 00 00 
   441)       519.5  Rx         056A  8  D1 00 08 00 1A 00 02 C1 
   442)       519.7  Rx         0440  8  00 80 00 FE 80 00 58 00 
   443)       521.6  Rx         0288  8  2C 75 10 04 00 4E 8D 0D 
   444)       523.4  Rx         0540  8  B0 00 FF 00 FE 00 10 26 
   445)       525.6  Rx         01A0  8  00 42 00 00 00 FE 00 54 
   446)       526.3  Rx         01AC  8  A1 02 00 00 69 01 19 D2 
   447)       527.3  Rx         04A0  8  00 00 00 00 00 00 00 00 
   448)       528.2  Rx         04A8  8  00 00 00 10 00 00 20 30 
   449)       528.7  Rx         05A0  8  7C 00 00 22 00 DC 10 AB 
   450)       529.5  Rx         0440  8  00 80 00 FE 80 00 60 00 
   451)       529.7  Rx         038A  4  65 01 64 00 
   452)       529.9  Rx         0280  8  01 0D 32 0C 0F 11 33 0F 
   453)       530.1  Rx         0380  8  00 68 11 0F 20 00 00 11 
   454)       530.4  Rx         0480  8  1C 2E F3 55 19 00 00 8D 
   455)       530.6  Rx         0488  8  20 0D 0F 7E FE 8D FF D0 
   456)       530.9  Rx         0588  8  1A 66 7E 00 00 00 00 00 
   457)       533.4  Rx         0540  8  C0 00 FF 00 FE 00 10 26 
   458)       539.5  Rx         0440  8  00 80 00 FE 80 00 68 00 
   459)       542.0  Rx         0288  8  64 75 10 04 00 4E 8D 0D 
   460)       543.5  Rx         0540  8  D0 00 FF 00 FE 00 10 26 
   461)       544.4  Rx         01A0  8  00 42 00 00 00 FE 00 55 
   462)       544.9  Rx         04A0  8  00 00 00 00 00 00 00 00 
   463)       547.6  Rx         056A  8  C1 00 08 00 1A 00 02 D1 
   464)       549.4  Rx         0440  8  00 80 00 FE 80 00 70 00 
   465)       551.9  Rx         0288  8  64 75 10 04 00 4E 8D 0D 
   466)       553.5  Rx         0540  8  E0 00 FF 00 FE 00 10 26 
   467)       554.1  Rx         01A0  8  00 42 00 00 00 FE 00 56 
   468)       554.6  Rx         01AC  8  AF 03 00 00 69 01 16 D2 
   469)       555.1  Rx         04A0  8  00 00 00 00 00 00 00 00 
   470)       555.6  Rx         04A8  8  19 00 00 10 00 00 30 39 
   471)       556.2  Rx         05A0  8  7B 00 00 32 00 DC 10 AB 
   472)       557.6  Rx         0390  8  6A 40 51 00 00 00 20 00 
   473)       558.5  Rx         038A  4  75 01 74 00 
   474)       559.0  Rx         05D0  8  C0 04 51 AF 29 48 01 00 
   475)       559.5  Rx         0440  8  00 80 00 FE 80 00 78 00 
   476)       560.7  Rx         0288  8  64 75 10 04 00 4E 8D 0D 
   477)       563.1  Rx         01A0  8  00 42 00 00 00 FE 00 57 
   478)       563.5  Rx         0540  8  F0 00 FF 00 FE 00 10 2F 
   479)       563.7  Rx         04A0  8  00 00 00 00 00 00 00 00 
   480)       566.4  Rx         056A  8  F1 00 08 00 1A 00 02 E1 
   481)       568.1  Rx         05DC  8  77 18 C0 3F 1E 00 30 42 
   482)       569.4  Rx         0440  8  00 80 00 FE 80 00 00 00 
   483)       569.6  Rx         0288  8  64 75 10 04 00 4E 8D 0D 
   484)       572.6  Rx         01A0  8  00 42 00 00 00 FE 00 58 
   485)       573.1  Rx         01AC  8  AB 04 00 00 69 01 15 D2 
   486)       573.5  Rx         0540  8  00 00 FF 00 FE 00 10 2F 
   487)       573.7  Rx         04A0  8  00 00 00 00 00 00 00 00 
   488)       574.1  Rx         04A8  8  00 00 00 10 00 00 40 50 
   489)       574.6  Rx         05A0  8  7B 00 00 42 00 DC 10 AB 
   490)       576.5  Rx         038A  4  85 01 84 00 
   491)       578.0  Rx         0288  8  8A 75 10 04 00 4E 8D 0D 
   492)       579.5  Rx         0440  8  00 80 00 FE 80 00 08 00 
   493)       580.4  Rx         01A0  8  00 42 00 00 00 FE 00 59 
   494)       580.8  Rx         04A0  8  00 00 00 00 00 00 00 00 
   495)       583.4  Rx         0540  8  10 00 FF 00 FE 00 10 2F 
   496)       583.7  Rx         056A  8  E1 00 08 00 1A 00 02 F1 
   497)       587.5  Rx         0288  8  8A 75 10 04 00 4E 8D 0D 
   498)       588.8  Rx         01A0  8  00 42 00 00 00 FE 00 5A 
   499)       589.3  Rx         01AC  8  AD 05 00 00 69 01 12 D2 
   500)       589.5  Rx         0440  8  00 80 00 FE 80 00 10 00 
   501)       589.8  Rx         04A0  8  00 00 00 00 00 00 00 00 
   502)       590.3  Rx         04A8  8  0C 80 25 10 00 00 50 E9 
   503)       590.8  Rx         05A0  8  7B 00 00 52 00 DC 10 AB 
   504)       593.1  Rx         038A  4  95 01 94 00 
   505)       593.5  Rx         0540  8  20 00 FF 00 FE 00 10 2F 
   506)       595.6  Rx         0288  8  8A 75 10 04 00 4E 8D 0D 
   507)       596.7  Rx         01A0  8  00 42 00 00 00 FE 00 5B 
   508)       597.6  Rx         04A0  8  00 00 00 00 00 00 00 00 
   509)       599.4  Rx         0440  8  00 80 00 FE 80 00 18 00 
   510)       600.3  Rx         056A  8  11 00 08 00 1A 00 02 01 
   511)       603.0  Rx         0288  8  8A 75 10 04 00 4E 8D 0D 
   512)       603.5  Rx         0540  8  30 00 FF 00 FE 00 10 26 
   513)       605.5  Rx         01A0  8  00 42 00 00 00 FE 00 5C 
   514)       606.2  Rx         01AC  8  2B 86 00 00 69 01 17 D2 
   515)       606.7  Rx         04A0  8  00 00 00 00 00 00 00 00 
   516)       607.2  Rx         04A8  8  12 00 46 10 00 00 60 24 
   517)       607.6  Rx         05A0  8  7B 00 00 62 00 DC 10 AB 
   518)       608.6  Rx         0280  8  01 0D 3E 0C 0F 11 33 0F 
   519)       608.9  Rx         0380  8  00 68 11 0F 20 00 00 11 
   520)       609.1  Rx         0480  8  1C 2E F3 55 19 00 00 8D 
   521)       609.4  Rx         0488  8  10 0D 0F 7E FE 8D FF E0 
   522)       609.6  Rx         0440  8  00 80 00 FE 80 00 20 00 
   523)       609.8  Rx         0588  8  1A 66 7E 00 00 00 00 00 
   524)       613.5  Rx         0540  8  40 00 FF 00 FE 00 10 26 
   525)       619.4  Rx         0440  8  00 80 00 FE 80 00 28 00 
   526)       619.7  Rx         038A  4  A5 01 A4 00 
   527)       621.5  Rx         0288  8  E8 75 10 04 00 4E 8D 0D 
   528)       623.5  Rx         0540  8  50 00 FF 00 FE 00 10 26 
   529)       623.8  Rx         01A0  8  00 42 00 00 00 FE 00 5D 
   530)       624.4  Rx         04A0  8  00 00 00 00 00 00 00 00 
   531)       627.3  Rx         056A  8  01 00 08 00 1A 00 02 11 
   532)       629.4  Rx         0440  8  00 80 00 FE 80 00 30 00 
   533)       631.3  Rx         0288  8  E8 75 10 04 00 4E 8D 0D 
   534)       633.5  Rx         0540  8  60 00 FF 00 FE 00 10 26 
   535)       633.7  Rx         01A0  8  00 42 00 00 00 FE 00 5E 
   536)       634.1  Rx         01AC  8  28 87 00 00 69 01 15 D2 
   537)       634.6  Rx         04A0  8  00 00 00 00 00 00 00 00 
   538)       635.1  Rx         04A8  8  12 00 6B 10 00 00 70 19 
   539)       635.6  Rx         05A0  8  7C 00 00 72 00 DC 10 AB 
   540)       637.9  Rx         038A  4  B5 01 B4 00 
   541)       639.4  Rx         0440  8  00 80 00 FE 80 00 38 00 
   542)       640.4  Rx         0288  8  E8 75 10 04 00 4E 8D 0D 
   543)       642.0  Rx         01A0  8  00 42 00 00 00 FE 00 5F 
   544)       643.0  Rx         04A0  8  00 00 00 00 00 00 00 00 
   545)       643.5  Rx         0540  8  70 00 FF 00 FE 00 10 2F 
   546)       645.6  Rx         056A  8  31 00 08 00 1A 00 02 21 
   547)       647.8  Rx         0520  8  60 44 00 93 7A 57 33 03 
   548)       649.4  Rx         0440  8  00 80 00 FE 80 00 40 00 
   549)       649.7  Rx         0288  8  E8 75 11 04 00 4E 8D 0D 
   550)       652.4  Rx         01A0  8  00 42 00 00 00 FE 00 50 
   551)       652.8  Rx         01AC  8  24 88 00 00 69 01 16 D2 
   552)       653.2  Rx         04A0  8  00 00 00 00 00 00 00 00 
   553)       653.5  Rx         0540  8  80 00 FF 00 FE 00 10 2F 
   554)       653.7  Rx         04A8  8  0C 00 91 10 00 00 80 0D 
   555)       654.2  Rx         05A0  8  7C 00 00 82 00 DC 10 AB 
   556)       655.2  Rx         0390  8  6A 40 51 00 00 00 20 00 
   557)       656.7  Rx         038A  4  C5 01 C4 00 
   558)       657.2  Rx         05D0  8  C0 04 51 AF 29 48 01 00 
   559)       659.1  Rx         0288  8  2C 75 11 04 00 4E 8D 0D 
   560)       659.4  Rx         0440  8  00 80 00 FE 80 00 48 00 
   561)       661.2  Rx         01A0  8  00 42 00 00 00 FE 00 51 
   562)       661.7  Rx         04A0  8  00 00 00 00 00 00 00 00 
   563)       663.5  Rx         0540  8  90 00 FF 00 FE 00 10 2F 
   564)       664.4  Rx         056A  8  21 00 08 00 1A 00 02 31 
   565)       666.2  Rx         05DC  8  77 18 C0 3F 1E 00 30 42 
   566)       669.1  Rx         0288  8  2C 75 11 04 00 4E 8D 0D 
   567)       669.4  Rx         0440  8  00 80 00 FE 80 00 50 00 
   568)       670.5  Rx         01A0  8  00 42 00 00 00 FE 00 52 
   569)       671.2  Rx         01AC  8  27 89 00 00 69 01 14 D2 
   570)       671.7  Rx         04A0  8  00 00 00 00 00 00 00 00 
   571)       672.2  Rx         04A8  8  1F 80 AC 10 00 00 90 B3 
   572)       672.7  Rx         05A0  8  7B 00 00 92 00 DC 10 AB 
   573)       673.5  Rx         0540  8  A0 00 FF 00 FE 00 00 2F 
   574)       674.4  Rx         038A  4  D5 01 D4 00 
   575)       676.6  Rx         0288  8  2C 75 11 04 00 4E 8D 0D 
   576)       678.3  Rx         01A0  8  00 42 00 00 00 FE 00 53 
   577)       678.9  Rx         04A0  8  00 00 00 00 00 00 00 00 
   578)       679.4  Rx         0440  8  00 80 00 FE 80 00 58 00 
   579)       681.8  Rx         056A  8  51 00 08 00 1A 00 02 41 
   580)       683.4  Rx         0540  8  B0 00 FF 00 FE 00 00 26 
   581)       684.6  Rx         0288  8  2C 75 11 04 00 4E 8D 0D 
   582)       686.9  Rx         01A0  8  00 42 00 00 00 FE 00 54 
   583)       687.4  Rx         01AC  8  26 8A 00 00 69 01 16 D2 
   584)       687.8  Rx         04A0  8  00 00 00 00 00 00 00 00 
   585)       688.4  Rx         04A8  8  2B 00 CD 10 00 00 A0 56 
   586)       688.9  Rx         05A0  8  7C 00 00 A2 00 DC 10 AB 
   587)       689.5  Rx         0440  8  00 80 00 FE 80 00 60 00 
   588)       690.7  Rx         07D0  8  CC 57 33 73 B9 35 9E 02 
   589)       692.3  Rx         038A  4  E5 01 E4 00 
   590)       693.4  Rx         0540  8  C0 00 FF 00 FE 00 00 26 
   591)       693.7  Rx         0288  8  64 75 11 04 00 4E 8D 0D 
   592)       695.5  Rx         01A0  8  00 42 00 00 00 FE 00 55 
   593)       696.2  Rx         04A0  8  00 00 00 00 00 00 00 00 
   594)       698.9  Rx         056A  8  41 00 08 00 1A 00 02 51 
   595)       699.4  Rx         0440  8  00 80 00 FE 80 00 68 00 
   596)       702.4  Rx         0288  8  64 75 11 04 00 4E 8D 0D 
   597)       703.4  Rx         0540  8  D0 00 FF 00 FE 00 00 26 
   598)       704.7  Rx         01A0  8  00 42 00 00 00 FE 00 56 
   599)       705.1  Rx         01AC  8  25 8B 00 00 69 01 14 D2 
   600)       705.6  Rx         04A0  8  00 00 00 00 00 00 00 00 
   601)       706.2  Rx         04A8  8  0C 80 EB 10 00 00 B0 C7 
   602)       706.7  Rx         05A0  8  7B 00 00 B2 00 DC 10 AB 
   603)       707.2  Rx         0280  8  01 0D 39 0C 0F 11 33 0F 
   604)       707.4  Rx         0380  8  00 68 11 0F 20 00 00 11 
   605)       707.7  Rx         0480  8  1C 2E F3 55 19 00 00 8D 
   606)       708.0  Rx         0488  8  00 0D 0F 7E FE 8D FF F0 
   607)       708.2  Rx         0588  8  1A 66 7E 00 00 00 00 00 
   608)       709.5  Rx         0440  8  00 80 00 FE 80 00 70 00 
   609)       713.4  Rx         0540  8  E0 00 FF 00 FE 00 00 26 
   610)       718.0  Rx         038A  4  F5 01 F4 00 
   611)       719.5  Rx         0440  8  00 80 00 FE 80 00 78 00 
   612)       720.0  Rx         0288  8  64 75 11 04 00 4E 8D 0D 
   613)       722.2  Rx         01A0  8  00 42 00 00 00 FE 00 57 
   614)       722.7  Rx         04A0  8  00 00 00 00 00 00 00 00 
   615)       723.5  Rx         0540  8  F0 00 FF 00 FE 00 00 2F 
   616)       726.0  Rx         056A  8  71 00 08 00 1A 00 02 61 
   617)       729.0  Rx         0288  8  64 75 11 04 00 4E 8D 0D 
   618)       729.4  Rx         0440  8  00 80 00 FE 80 00 00 00 
   619)       731.5  Rx         01A0  8  00 42 00 00 00 FE 00 58 
   620)       732.0  Rx         01AC  8  20 8C 00 00 69 01 16 D2 
   621)       732.5  Rx         04A0  8  00 00 00 00 00 00 00 00 
   622)       733.0  Rx         04A8  8  00 00 06 11 00 00 C0 D7 
   623)       733.4  Rx         05A0  8  7B 00 00 C2 00 DC 10 AB 
   624)       733.7  Rx         0540  8  00 00 FF 00 FE 00 00 2F 
   625)       735.1  Rx         038A  4  05 01 04 00 
   626)       738.2  Rx         0288  8  8A 75 11 04 00 4E 8D 0D 
   627)       739.1  Rx         01A0  8  00 42 00 00 00 FE 00 59 
   628)       739.5  Rx         0440  8  00 80 00 FE 80 00 08 00 
   629)       739.7  Rx         04A0  8  00 00 00 00 00 00 00 00 
   630)       743.4  Rx         0540  8  10 00 FF 00 FE 00 00 2F 
   631)       743.7  Rx         056A  8  61 00 08 00 1A 00 02 71 
   632)       748.4  Rx         0288  8  8A 75 11 04 00 4E 8D 0D 
   633)       749.5  Rx         0440  8  00 80 00 FE 80 00 10 00 
   634)       749.8  Rx         01A0  8  00 4A 00 00 00 FE 00 5A 
   635)       750.4  Rx         01AC  8  24 8D 00 00 69 01 13 D2 
   636)       751.1  Rx         04A0  8  00 00 00 00 00 00 00 00 
   637)       751.6  Rx         04A8  8  00 00 29 11 00 00 D0 E8 
   638)       752.1  Rx         05A0  8  7B 00 00 D2 00 DC 10 AB 
   639)       753.1  Rx         0390  8  6A 40 51 00 00 00 20 00 
   640)       753.4  Rx         0540  8  20 00 FF 00 FE 00 00 2F 
   641)       754.5  Rx         05D0  8  C0 04 51 AF 29 48 01 00 
   642)       754.9  Rx         038A  4  15 01 14 00 
   643)       757.0  Rx         0288  8  8A 75 13 04 00 4E 8D 0D 
   644)       758.8  Rx         01A0  8  00 4A 00 00 00 FE 00 5B 
   645)       759.3  Rx         04A0  8  00 00 00 00 00 00 00 00 
   646)       759.6  Rx         0440  8  00 80 00 FE 80 00 18 00 
   647)       762.4  Rx         056A  8  91 00 08 00 1A 00 02 81 
   648)       763.4  Rx         0540  8  30 00 FF 00 FE 00 00 26 
   649)       764.1  Rx         05DC  8  77 18 C0 3F 1E 00 30 42 
   650)       766.1  Rx         0288  8  8A 75 13 04 00 4E 8D 0D 
   651)       768.3  Rx         01A0  8  00 4A 00 00 00 FE 00 5C 
   652)       768.7  Rx         01AC  8  22 8E 00 00 69 01 16 D2 
   653)       769.3  Rx         04A0  8  00 00 00 00 00 00 00 00 
   654)       769.6  Rx         0440  8  00 80 00 FE 80 00 20 00 
   655)       769.8  Rx         04A8  8  06 00 4C 11 00 00 E0 BB 
   656)       770.3  Rx         05A0  8  7B 00 00 E2 00 DC 10 AB 
   657)       772.3  Rx         038A  4  25 01 24 00 
   658)       773.4  Rx         0540  8  40 00 FF 00 FE 00 00 26 
   659)       774.8  Rx         0288  8  E8 75 13 04 00 4E 8D 0D 
   660)       775.3  Rx         01A0  8  00 4A 00 00 00 FE 00 5D 
   661)       776.8  Rx         04A0  8  00 00 00 00 00 00 00 00 
   662)       779.4  Rx         056A  8  81 00 08 00 1A 00 02 91 
   663)       779.6  Rx         0440  8  00 80 00 FE 80 00 28 00 
   664)       783.4  Rx         0288  8  E8 75 13 04 00 4E 8D 0D 
   665)       783.6  Rx         0540  8  50 00 FF 00 FE 00 00 26 
   666)       784.7  Rx         01A0  8  00 4A 00 00 00 FE 00 5E 
   667)       785.2  Rx         01AC  8  21 8F 00 00 69 01 14 D2 
   668)       785.6  Rx         04A0  8  00 00 00 00 00 00 00 00 
   669)       786.3  Rx         04A8  8  00 00 68 11 00 00 F0 89 
   670)       786.8  Rx         05A0  8  7B 00 00 F2 00 DC 10 AB 
   671)       787.3  Rx         0280  8  01 0D 37 0C 0F 11 33 0F 
   672)       787.5  Rx         0380  8  00 68 11 0F 20 00 00 11 
   673)       787.8  Rx         0480  8  1C 2E F3 55 19 00 00 8D 
   674)       788.0  Rx         0488  8  F0 0D 0F 7E FE 8D FF 00 
   675)       788.3  Rx         0588  8  1A 66 7E 00 00 00 00 00 
   676)       789.5  Rx         0440  8  00 80 00 FE 80 00 30 00 
   677)       793.4  Rx         0540  8  60 00 FF 00 FE 00 00 26 
   678)       798.6  Rx         038A  4  35 01 34 00 
   679)       799.4  Rx         0440  8  00 80 00 FE 80 00 38 00 
   680)       800.0  Rx         0288  8  E8 75 13 04 00 4E 8D 0D 
   681)       802.1  Rx         01A0  8  00 4A 00 00 00 FE 00 5F 
   682)       802.7  Rx         04A0  8  00 00 00 00 00 00 00 00 
   683)       803.5  Rx         0540  8  70 00 FF 00 FE 00 00 2F 
   684)       805.3  Rx         056A  8  B1 00 08 00 1A 00 02 A1 
   685)       808.2  Rx         0288  8  E8 75 13 04 00 4E 8D 0D 
   686)       809.4  Rx         0440  8  00 80 00 FE 80 00 40 00 
   687)       810.5  Rx         01A0  8  00 4A 00 00 00 FE 00 50 
   688)       811.1  Rx         01AC  8  2E 80 00 00 69 01 14 D2 
   689)       811.7  Rx         04A0  8  00 00 00 00 00 00 00 00 
   690)       812.2  Rx         04A8  8  00 00 86 11 00 00 00 97 
   691)       812.7  Rx         05A0  8  7B 00 00 02 00 DC 10 AB 
   692)       813.5  Rx         0540  8  80 00 FF 00 FE 00 00 2F 
   693)       813.9  Rx         038A  4  45 01 44 00 
   694)       817.0  Rx         0288  8  2C 75 13 04 00 4E 8D 0D 
   695)       818.3  Rx         01A0  8  00 4A 00 00 00 FE 00 51 
   696)       818.8  Rx         04A0  8  00 00 00 00 00 00 00 00 
   697)       819.5  Rx         0440  8  00 80 00 FE 80 00 48 00 
   698)       821.7  Rx         056A  8  A1 00 08 00 1A 00 02 B1 
   699)       823.4  Rx         0540  8  90 00 FF 00 FE 00 00 2F 
   700)       825.5  Rx         0288  8  2C 75 13 04 00 4E 8D 0D 
   701)       826.1  Rx         01A0  8  00 4A 00 00 00 FE 00 52 
   702)       827.8  Rx         01AC  8  2F 81 00 00 69 01 14 D2 
   703)       829.0  Rx         04A0  8  00 00 00 00 00 00 00 00 
   704)       829.4  Rx         0440  8  00 80 00 FE 80 00 50 00 
   705)       829.7  Rx         04A8  8  00 00 A4 11 00 00 10 A5 
   706)       830.0  Rx         05A0  8  7B 00 00 12 00 DC 10 AB 
   707)       831.3  Rx         038A  4  55 01 54 00 
   708)       833.5  Rx         0540  8  A0 00 FF 00 FE 00 00 2F 
   709)       834.3  Rx         0288  8  2C 75 13 04 00 4E 8D 0D 
   710)       835.7  Rx         01A0  8  00 4A 00 00 00 FE 00 53 
   711)       836.7  Rx         04A0  8  00 00 00 00 00 00 00 00 
   712)       839.4  Rx         056A  8  D1 00 08 00 1A 00 02 C1 
   713)       839.6  Rx         0440  8  00 80 00 FE 80 00 58 00 
   714)       842.3  Rx         0520  8  A6 87 00 93 7A 57 33 03 
   715)       843.4  Rx         0540  8  B0 00 FF 00 FE 00 00 26 
   716)       844.7  Rx         0288  8  2C 75 13 04 00 4E 8D 0D 
   717)       846.6  Rx         01A0  8  00 4A 00 00 00 FE 00 54 
   718)       847.0  Rx         01AC  8  2D 82 00 00 69 01 15 D2 
   719)       847.5  Rx         04A0  8  00 00 00 00 00 00 00 00 
   720)       848.0  Rx         04A8  8  0C 00 C7 11 00 00 20 FA 
   721)       848.5  Rx         05A0  8  7C 00 00 22 00 DC 10 AB 
   722)       849.4  Rx         0390  8  6A 40 51 00 00 00 20 00 
   723)       849.7  Rx         0440  8  00 80 00 FE 80 00 60 00 
   724)       850.5  Rx         05D0  8  C0 04 51 AF 29 48 01 00 
   725)       851.1  Rx         038A  4  65 01 64 00 
   726)       853.1  Rx         0288  8  64 75 13 04 00 4E 8D 0D 
   727)       853.5  Rx         0540  8  C0 00 FF 00 FE 00 00 26 
   728)       855.3  Rx         01A0  8  00 4A 00 00 00 FE 00 55 
   729)       855.8  Rx         04A0  8  00 00 00 00 00 00 00 00 
   730)       858.7  Rx         056A  8  C1 00 08 00 1A 00 02 D1 
   731)       859.4  Rx         0440  8  00 80 00 FE 80 00 68 00 
   732)       862.6  Rx         05DC  8  77 18 C0 3F 1E 00 30 42 
   733)       863.5  Rx         0540  8  D0 00 FF 00 FE 00 00 26 
   734)       863.7  Rx         0288  8  64 75 13 04 00 4E 8D 0D 
   735)       864.1  Rx         01A0  8  00 4A 00 00 00 FE 00 56 
   736)       865.0  Rx         01AC  8  2C 83 00 00 69 01 15 D2 
   737)       866.1  Rx         04A0  8  00 00 00 00 00 00 00 00 
   738)       866.5  Rx         04A8  8  00 00 E5 11 00 00 30 C4 
   739)       867.0  Rx         05A0  8  7B 00 00 32 00 DC 10 AB 
   740)       867.6  Rx         0280  8  01 0D 34 0C 0F 11 33 0F 
   741)       867.8  Rx         0380  8  00 68 11 0F 20 00 00 11 
   742)       868.0  Rx         0480  8  1C 2E F3 55 19 00 00 8D 
   743)       868.3  Rx         0488  8  E0 0D 0F 7E FE 8D FF 10 
   744)       868.5  Rx         0588  8  1A 66 7E 00 00 00 00 00 
   745)       869.4  Rx         0440  8  00 80 00 FE 80 00 70 00 
   746)       873.5  Rx         0540  8  E0 00 FF 00 FE 00 00 26 
   747)       877.1  Rx         0300  1  A3 
   748)       878.7  Rx         038A  4  75 01 74 00 
   749)       879.4  Rx         0440  8  00 80 00 FE 80 00 78 00 
   750)       881.3  Rx         0288  8  64 75 13 04 00 4E 8D 0D 
   751)       882.8  Rx         01A0  8  00 4A 00 00 00 FE 00 57 
   752)       883.6  Rx         0540  8  F0 00 FF 00 FE 00 00 2F 
   753)       883.8  Rx         04A0  8  00 00 00 00 00 00 00 00 
   754)       886.5  Rx         056A  8  F1 00 08 00 1A 00 02 E1 
   755)       889.4  Rx         0440  8  00 80 00 FE 80 00 00 00 
   756)       890.6  Rx         01A0  8  00 4A 00 00 00 FE 00 58 
   757)       891.6  Rx         0288  8  64 75 13 04 00 4E 8D 0D 
   758)       892.2  Rx         01AC  8  2A 84 00 00 69 01 14 D2 
   759)       893.5  Rx         04A0  8  00 00 00 00 00 00 00 00 
   760)       893.7  Rx         0540  8  00 00 FF 00 FE 00 00 2F 
   761)       894.0  Rx         04A8  8  00 00 F6 11 00 00 40 A7 
   762)       894.5  Rx         05A0  8  7C 00 00 42 00 DC 10 AB 
   763)       896.6  Rx         038A  4  85 01 84 00 
   764)       898.5  Rx         0288  8  8A 75 13 04 00 4E 8D 0D 
   765)       899.4  Rx         0440  8  00 80 00 FE 80 00 08 00 
   766)       899.8  Rx         01A0  8  00 4A 00 00 00 FE 00 59 
   767)       900.4  Rx         04A0  8  00 00 00 00 00 00 00 00 
   768)       903.5  Rx         0540  8  10 00 FF 00 FE 00 00 2F 
   769)       903.7  Rx         056A  8  E1 00 08 00 1A 00 02 F1 
   770)       907.8  Rx         0288  8  8A 75 13 04 00 4E 8D 0D 
   771)       909.2  Rx         01A0  8  00 4A 00 00 00 FE 00 5A 
   772)       909.4  Rx         0440  8  00 80 00 FE 80 00 10 00 
   773)       909.7  Rx         01AC  8  29 85 00 00 69 01 16 D2 
   774)       910.2  Rx         04A0  8  00 00 00 00 00 00 00 00 
   775)       910.7  Rx         04A8  8  00 00 1C 12 00 00 50 5E 
   776)       911.4  Rx         05A0  8  7B 00 00 52 00 DC 10 AB 
   777)       912.7  Rx         038A  4  95 01 94 00 
   778)       913.5  Rx         0540  8  20 00 FF 00 FE 00 00 2F 
   779)       915.2  Rx         0288  8  8A 75 13 04 00 4E 8D 0D 
   780)       916.8  Rx         01A0  8  00 4A 00 00 00 FE 00 5B 
   781)       917.2  Rx         04A0  8  00 00 00 00 00 00 00 00 
   782)       919.4  Rx         0440  8  00 80 00 FE 80 00 18 00 
   783)       920.4  Rx         056A  8  11 00 08 00 1A 00 02 01 
   784)       923.5  Rx         0540  8  30 00 FF 00 FE 00 00 26 
   785)       925.1  Rx         01A0  8  00 4A 00 00 00 FE 00 5C 
   786)       925.6  Rx         0288  8  8A 75 13 04 00 4E 8D 0D 
   787)       926.3  Rx         01AC  8  28 86 00 00 69 01 14 D2 
   788)       928.3  Rx         04A0  8  00 00 00 00 00 00 00 00 
   789)       928.8  Rx         04A8  8  0C 80 30 12 00 00 60 CE 
   790)       929.2  Rx         05A0  8  7B 00 00 62 00 DC 10 AB 
   791)       929.5  Rx         0440  8  00 80 00 FE 80 00 20 00 
   792)       930.1  Rx         038A  4  A5 01 A4 00 
   793)       932.9  Rx         0288  8  E8 75 13 04 00 4E 8D 0D 
   794)       933.5  Rx         0540  8  40 00 FF 00 FE 00 00 26 
   795)       933.7  Rx         01A0  8  00 4A 00 00 00 FE 00 5D 
   796)       934.8  Rx         04A0  8  00 00 00 00 00 00 00 00 
   797)       938.0  Rx         056A  8  01 00 08 00 1A 00 02 11 
   798)       938.9  Rx         0280  8  01 0D 41 0C 0F 11 33 0F 
   799)       939.1  Rx         0380  8  00 68 11 0F 20 00 00 11 
   800)       939.3  Rx         0480  8  1C 2E F3 55 19 00 00 8D 
   801)       939.6  Rx         0440  8  00 80 00 FE 80 00 28 00 
   802)       939.8  Rx         0488  8  D0 0D 0F 7E FE 8D FF 20 
   803)       940.1  Rx         0588  8  1A 66 7E 00 00 00 00 00 
   804)       943.5  Rx         0540  8  50 00 FF 00 FE 00 00 26 
   805)       949.4  Rx         0440  8  00 80 00 FE 80 00 30 00 
   806)       953.3  Rx         0288  8  E8 75 13 04 00 4E 8D 0D 
   807)       953.5  Rx         0540  8  60 00 FF 00 FE 00 00 26 
   808)       954.7  Rx         01A0  8  00 4A 00 00 00 FE 00 5E 
   809)       955.2  Rx         01AC  8  28 87 00 00 69 01 15 D2 
   810)       955.7  Rx         04A0  8  00 00 00 00 00 00 00 00 
   811)       956.3  Rx         04A8  8  06 80 4B 12 00 00 70 AF 
   812)       956.8  Rx         05A0  8  7B 00 00 72 00 DC 10 AB 
   813)       957.8  Rx         0390  8  6A 40 51 00 00 00 20 00 
   814)       958.3  Rx         05D0  8  C0 04 51 AF 29 48 01 00 
   815)       959.1  Rx         038A  4  B5 01 B4 00 
   816)       959.4  Rx         0440  8  00 80 00 FE 80 00 38 00 
   817)       961.7  Rx         0288  8  E8 75 13 04 00 4E 8D 0D 
   818)       962.8  Rx         01A0  8  00 4A 00 00 00 FE 00 5F 
   819)       963.5  Rx         0540  8  70 00 FF 00 FE 00 00 2F 
   820)       963.8  Rx         04A0  8  00 00 00 00 00 00 00 00 
   821)       966.9  Rx         056A  8  31 00 08 00 1A 00 02 21 
   822)       968.3  Rx         05DC  8  77 18 C0 3F 1E 00 30 42 
   823)       969.4  Rx         0440  8  00 80 00 FE 80 00 40 00 
   824)       971.7  Rx         01A0  8  00 4A 00 00 00 FE 00 50 
   825)       972.3  Rx         0288  8  E8 75 13 04 00 4E 8D 0D 
   826)       972.8  Rx         01AC  8  21 88 00 00 69 01 13 D2 
   827)       973.5  Rx         0540  8  80 00 FF 00 FE 00 00 2F 
   828)       974.1  Rx         04A0  8  00 00 00 00 00 00 00 00 
   829)       974.6  Rx         04A8  8  00 00 64 12 00 00 80 F6 
   830)       975.1  Rx         05A0  8  7B 00 00 82 00 DC 10 AB 
   831)       976.6  Rx         038A  4  C5 01 C4 00 
   832)       979.0  Rx         0288  8  2C 75 13 04 00 4E 8D 0D 
   833)       979.4  Rx         0440  8  00 80 00 FE 80 00 48 00 
   834)       980.0  Rx         01A0  8  00 4A 00 00 00 FE 00 51 
   835)       981.2  Rx         04A0  8  00 00 00 00 00 00 00 00 
   836)       983.5  Rx         0540  8  90 00 FF 00 FE 00 00 2F 
   837)       984.7  Rx         056A  8  21 00 08 00 1A 00 02 31 
   838)       988.0  Rx         0288  8  2C 75 13 04 00 4E 8D 0D 
   839)       988.9  Rx         01A0  8  00 4A 00 00 00 FE 00 52 
   840)       989.4  Rx         0440  8  00 80 00 FE 80 00 50 00 
   841)       989.8  Rx         01AC  8  24 89 00 00 69 01 17 D2 
   842)       990.4  Rx         04A0  8  00 00 00 00 00 00 00 00 
   843)       991.4  Rx         04A8  8  06 00 78 12 00 00 90 FC 
   844)       992.0  Rx         05A0  8  7C 00 00 92 00 DC 10 AB 
   845)       993.5  Rx         0540  8  A0 00 FF 00 FE 00 00 2F 
   846)       994.3  Rx         038A  4  D5 01 D4 00 
   847)       995.8  Rx         0288  8  2C 75 13 04 00 4E 8D 0D 
   848)       996.9  Rx         01A0  8  00 4A 00 00 00 FE 00 53 
   849)       997.8  Rx         04A0  8  00 00 00 00 00 00 00 00 
   850)       999.4  Rx         0440  8  00 80 00 FE 80 00 58 00 
   851)      1001.0  Rx         056A  8  51 00 08 00 1A 00 02 41 
   852)      1003.4  Rx         0540  8  B0 00 FF 00 FE 00 00 26 
   853)      1004.4  Rx         01A0  8  00 4A 00 00 00 FE 00 54 
   854)      1005.3  Rx         01AC  8  24 8A 00 00 69 01 14 D2 
   855)      1005.7  Rx         0288  8  2C 75 13 04 00 4E 8D 0D 
   856)      1007.3  Rx         04A0  8  00 00 00 00 00 00 00 00 
   857)      1007.7  Rx         04A8  8  00 00 8C 12 00 00 A0 3E 
   858)      1008.7  Rx         05A0  8  7C 00 00 A2 00 DC 10 AB 
   859)      1008.9  Rx         0280  8  01 0D 32 0C 0F 11 33 0F 
   860)      1009.1  Rx         0380  8  00 68 11 0F 20 00 00 11 
   861)      1009.3  Rx         0480  8  1C 2E F3 55 19 00 00 8D 
   862)      1009.6  Rx         0440  8  00 80 00 FE 80 00 60 00 
   863)      1009.9  Rx         0488  8  C0 0D 0F 7E FE 8D FF 30 
   864)      1010.1  Rx         0588  8  1A 66 7E 00 00 00 00 00 
   865)      1013.5  Rx         0540  8  C0 00 FF 00 FE 00 00 26 
   866)      1019.2  Rx         038A  4  E5 01 E4 00 
   867)      1019.5  Rx         0440  8  00 80 00 FE 80 00 68 00 
   868)      1022.5  Rx         0288  8  64 75 13 04 00 4E 8D 0D 
   869)      1023.4  Rx         01A0  8  00 4A 00 00 00 FE 00 55 
   870)      1023.6  Rx         0540  8  D0 00 FF 00 FE 00 00 26 
   871)      1024.4  Rx         04A0  8  00 00 00 00 00 00 00 00 
   872)      1027.8  Rx         056A  8  41 00 08 00 1A 00 02 51 
   873)      1029.4  Rx         0440  8  00 80 00 FE 80 00 70 00 
   874)      1032.0  Rx         0288  8  64 75 13 04 00 4E 8D 0D 
   875)      1033.1  Rx         01A0  8  00 4A 00 00 00 FE 00 56 
   876)      1033.5  Rx         0540  8  E0 00 FF 00 FE 00 00 26 
   877)      1034.0  Rx         01AC  8  24 8B 00 00 69 01 15 D2 
   878)      1034.6  Rx         04A0  8  00 00 00 00 00 00 00 00 
   879)      1035.1  Rx         04A8  8  00 00 9B 12 00 00 B0 39 
   880)      1035.6  Rx         05A0  8  7C 00 00 B2 00 DC 10 AB 
   881)      1036.7  Rx         038A  4  F5 01 F4 00 
   882)      1039.4  Rx         0440  8  00 80 00 FE 80 00 78 00 
   883)      1039.6  Rx         0288  8  64 75 13 04 00 4E 8D 0D 
   884)      1040.6  Rx         01A0  8  00 4A 00 00 00 FE 00 57 
   885)      1042.0  Rx         04A0  8  00 00 00 00 00 00 00 00 
   886)      1043.5  Rx         0540  8  F0 00 FF 00 FE 00 00 2F 
   887)      1045.6  Rx         056A  8  71 00 08 00 1A 00 02 61 
   888)      1047.4  Rx         0520  8  57 C4 00 93 7A 57 33 03 
   889)      1049.4  Rx         0440  8  00 80 00 FE 80 00 00 00 
   890)      1050.2  Rx         01A0  8  00 4A 00 00 00 FE 00 58 
   891)      1051.3  Rx         01AC  8  25 8C 00 00 69 01 13 D2 
   892)      1051.8  Rx         0288  8  64 75 13 04 00 4E 8D 0D 
   893)      1053.2  Rx         04A0  8  00 00 00 00 00 00 00 00 
   894)      1053.5  Rx         0540  8  00 00 FF 00 FE 00 00 2F 
   895)      1053.8  Rx         04A8  8  1F 00 B2 12 00 00 C0 7F 
   896)      1054.7  Rx         05A0  8  7C 00 00 C2 00 DC 10 AB 
   897)      1055.2  Rx         0390  8  6A 40 51 00 00 00 20 00 
   898)      1055.6  Rx         05D0  8  C0 04 51 AF 29 48 01 00 
   899)      1056.2  Rx         038A  4  05 01 04 00 
   900)      1058.7  Rx         01A0  8  00 4A 00 00 00 FE 00 59 
   901)      1059.2  Rx         04A0  8  00 00 00 00 00 00 00 00 
   902)      1059.4  Rx         0440  8  00 80 00 FE 80 00 08 00 
   903)      1060.3  Rx         0288  8  8A 75 13 04 00 4E 8D 0D 
   904)      1063.5  Rx         0540  8  10 00 FF 00 FE 00 00 2F 
   905)      1064.9  Rx         056A  8  61 00 08 00 1A 00 02 71 
   906)      1065.8  Rx         05DC  8  77 18 C0 3F 1E 00 30 42 
   907)      1069.1  Rx         0288  8  8A 75 13 04 00 4E 8D 0D 
   908)      1069.4  Rx         0440  8  00 80 00 FE 80 00 10 00 
   909)      1070.1  Rx         01A0  8  00 4A 00 00 00 FE 00 5A 
   910)      1071.2  Rx         01AC  8  21 8D 00 00 69 01 16 D2 
   911)      1071.7  Rx         04A0  8  00 00 00 00 00 00 00 00 
   912)      1072.3  Rx         04A8  8  00 00 BC 12 00 00 D0 7E 
   913)      1072.7  Rx         05A0  8  7B 00 00 D2 00 DC 10 AB 
   914)      1073.5  Rx         0540  8  20 00 FF 00 FE 00 00 2F 
   915)      1073.7  Rx         038A  4  15 01 14 00 
   916)      1076.7  Rx         0288  8  8A 75 13 04 00 4E 8D 0D 
   917)      1077.7  Rx         01A0  8  00 4A 00 00 00 FE 00 5B 
   918)      1078.1  Rx         04A0  8  00 00 00 00 00 00 00 00 
   919)      1079.4  Rx         0440  8  00 80 00 FE 80 00 18 00 
   920)      1082.4  Rx         056A  8  91 00 08 00 1A 00 02 81 
   921)      1083.5  Rx         0540  8  30 00 FF 00 FE 00 00 26 
   922)      1085.6  Rx         0288  8  8A 75 13 04 00 4E 8D 0D 
   923)      1086.7  Rx         01A0  8  00 4A 00 00 00 FE 00 5C 
   924)      1087.1  Rx         01AC  8  20 8E 00 00 69 01 14 D2 
   925)      1088.0  Rx         04A0  8  00 00 00 00 00 00 00 00 
   926)      1088.5  Rx         04A8  8  00 00 D2 12 00 00 E0 20 
   927)      1088.9  Rx         05A0  8  7B 00 00 E2 00 DC 10 AB 
   928)      1089.5  Rx         0440  8  00 80 00 FE 80 00 20 00 
   929)      1089.7  Rx         0280  8  01 0D 37 0C 0F 11 33 0F 
   930)      1089.9  Rx         0380  8  00 68 11 0F 20 00 00 11 
   931)      1090.1  Rx         0480  8  1C 2E F3 55 19 00 00 8D 
   932)      1090.3  Rx         0488  8  B0 0D 0F 7E FE 8D FF 40 
   933)      1090.6  Rx         0588  8  1A 66 7E 00 00 00 00 00 
   934)      1090.9  Rx         0580  8  9D 14 00 7F 00 F0 47 01 
   935)      1093.5  Rx         0540  8  40 00 FF 00 FE 00 00 26 
   936)      1099.4  Rx         0440  8  00 80 00 FE 80 00 28 00 
   937)      1101.9  Rx         038A  4  25 01 24 00 
   938)      1103.0  Rx         01A0  8  00 4A 00 00 00 FE 00 5D 
   939)      1103.5  Rx         04A0  8  00 00 00 00 00 00 00 00 
   940)      1103.7  Rx         0540  8  50 00 FF 00 FE 00 00 26 
   941)      1104.5  Rx         0288  8  E8 75 13 04 00 4E 8D 0D 
   942)      1109.2  Rx         056A  8  81 00 08 00 1A 00 02 91 
   943)      1109.5  Rx         0440  8  00 80 00 FE 80 00 30 00 
   944)      1112.8  Rx         0288  8  E8 75 13 04 00 4E 8D 0D 
   945)      1113.5  Rx         0540  8  60 00 FF 00 FE 00 00 26 
   946)      1113.7  Rx         01A0  8  00 4A 00 00 00 FE 00 5E 
   947)      1114.6  Rx         01AC  8  20 8F 00 00 69 01 15 D2 
   948)      1115.1  Rx         04A0  8  00 00 00 00 00 00 00 00 
   949)      1115.5  Rx         04A8  8  06 80 D7 12 00 00 F0 B3 
   950)      1116.2  Rx         05A0  8  7C 00 00 F2 00 DC 10 AB 
   951)      1117.1  Rx         038A  4  35 01 34 00 
   952)      1119.4  Rx         0440  8  00 80 00 FE 80 00 38 00 
   953)      1120.0  Rx         0288  8  E8 75 13 04 00 4E 8D 0D 
   954)      1121.2  Rx         01A0  8  00 4A 00 00 00 FE 00 5F 
   955)      1121.7  Rx         04A0  8  00 00 00 00 00 00 00 00 
   956)      1123.5  Rx         0540  8  70 00 FF 00 FE 00 00 2F 
   957)      1125.3  Rx         056A  8  B1 00 08 00 1A 00 02 A1 
   958)      1129.0  Rx         0288  8  E8 75 13 04 00 4E 8D 0D 
   959)      1129.4  Rx         0440  8  00 80 00 FE 80 00 40 00 
   960)      1129.9  Rx         01A0  8  00 4A 00 00 00 FE 00 50 
   961)      1130.5  Rx         01AC  8  2E 80 00 00 69 01 14 D2 
   962)      1131.6  Rx         04A0  8  00 00 00 00 00 00 00 00 
   963)      1132.6  Rx         04A8  8  0C 80 E1 12 00 00 00 7F 
   964)      1133.3  Rx         05A0  8  7B 00 00 02 00 DC 10 AB 
   965)      1133.5  Rx         0540  8  80 00 FF 00 FE 00 00 2F 
   966)      1133.7  Rx         038A  4  45 01 44 00 
   967)      1137.3  Rx         01A0  8  00 4A 00 00 00 FE 00 51 
   968)      1137.8  Rx         04A0  8  00 00 00 00 00 00 00 00 
   969)      1138.8  Rx         0288  8  2C 75 13 04 00 4E 8D 0D 
   970)      1139.5  Rx         0440  8  00 80 00 FE 80 00 48 00 
   971)      1143.1  Rx         056A  8  A1 00 08 00 1A 00 02 B1 
   972)      1143.4  Rx         0540  8  90 00 FF 00 FE 00 00 2F 
   973)      1148.4  Rx         0288  8  2C 75 13 04 00 4E 8D 0D 
   974)      1149.3  Rx         01A0  8  00 4A 00 00 00 FE 00 52 
   975)      1149.5  Rx         0440  8  00 80 00 FE 80 00 50 00 
   976)      1149.8  Rx         01AC  8  2C 81 00 00 69 01 17 D2 
   977)      1150.8  Rx         04A0  8  00 00 00 00 00 00 00 00 
   978)      1151.5  Rx         04A8  8  32 00 F0 12 00 00 10 C0 
   979)      1152.1  Rx         05A0  8  7C 00 00 12 00 DC 10 AB 
   980)      1153.0  Rx         0390  8  6A 40 51 00 00 00 20 00 
   981)      1153.5  Rx         0540  8  A0 00 FF 00 FE 00 00 2F 
   982)      1153.7  Rx         05D0  8  C0 04 51 AF 29 48 01 00 
   983)      1153.9  Rx         038A  4  55 01 54 00 
   984)      1156.9  Rx         0288  8  2C 75 13 04 00 4E 8D 0D 
   985)      1157.5  Rx         01A0  8  00 4A 00 00 00 FE 00 53 
   986)      1158.4  Rx         04A0  8  00 00 00 00 00 00 00 00 
   987)      1159.4  Rx         0440  8  00 80 00 FE 80 00 58 00 
   988)      1162.3  Rx         056A  8  D1 00 08 00 1A 00 02 C1 
   989)      1163.4  Rx         0540  8  B0 00 FF 00 FE 00 00 26 
   990)      1163.7  Rx         05DC  8  77 18 C0 3F 1E 00 30 42 
   991)      1166.9  Rx         0288  8  2C 75 13 04 00 4E 8D 0D 
   992)      1167.4  Rx         01A0  8  00 4A 00 00 00 FE 00 54 
   993)      1168.3  Rx         01AC  8  2C 82 00 00 69 01 14 D2 
   994)      1169.2  Rx         04A0  8  00 00 00 00 00 00 00 00 
   995)      1169.4  Rx         0440  8  00 80 00 FE 80 00 60 00 
   996)      1169.7  Rx         04A8  8  00 00 F8 12 00 00 20 CA 
   997)      1170.2  Rx         05A0  8  7B 00 00 22 00 DC 10 AB 
   998)      1171.3  Rx         038A  4  65 01 64 00 
   999)      1173.4  Rx         0540  8  C0 00 FF 00 FE 00 00 26 
  1000)      1174.3  Rx         01A0  8  00 4A 00 00 00 FE 00 55 
  1001)      1174.7  Rx         0288  8  64 75 13 04 00 4E 8D 0D 
  1002)      1176.3  Rx         04A0  8  00 00 00 00 00 00 00 00 
  1003)      1178.9  Rx         056A  8  C1 00 08 00 1A 00 02 D1 
  1004)      1179.4  Rx         0440  8  00 80 00 FE 80 00 68 00 
  1005)      1183.3  Rx         0288  8  64 75 13 04 00 4E 8D 0D 
  1006)      1183.6  Rx         0540  8  D0 00 FF 00 FE 00 00 26 
  1007)      1183.8  Rx         01A0  8  00 4A 00 00 00 FE 00 56 
  1008)      1184.7  Rx         01AC  8  2C 83 00 00 69 01 15 D2 
  1009)      1185.6  Rx         04A0  8  00 00 00 00 00 00 00 00 
  1010)      1186.2  Rx         04A8  8  00 00 FF 12 00 00 30 DD 
  1011)      1186.7  Rx         05A0  8  7B 00 00 32 00 DC 10 AB 
  1012)      1187.3  Rx         0280  8  01 0D 3E 0C 0F 11 33 0F 
  1013)      1187.5  Rx         0380  8  00 68 11 0F 20 00 00 11 
  1014)      1187.8  Rx         0480  8  9C 30 F3 55 19 00 00 13 
  1015)      1188.0  Rx         0488  8  A0 0D 0F 7E FE 8D FF 50 
  1016)      1188.2  Rx         0588  8  1A 66 7E 00 00 00 00 00 
  1017)      1189.4  Rx         0440  8  00 80 00 FE 80 00 70 00 
  1018)      1193.4  Rx         0540  8  E0 00 FF 00 FE 00 00 26 
  1019)      1199.0  Rx         038A  4  75 01 74 00 
  1020)      1199.4  Rx         0440  8  00 80 00 FE 80 00 78 00 
  1021)      1199.6  Rx         01A0  8  00 4A 00 00 00 FE 00 57 
  1022)      1200.1  Rx         04A0  8  00 00 00 00 00 00 00 00 
  1023)      1201.3  Rx         0288  8  64 75 13 04 00 4E 8D 0D 
  1024)      1203.5  Rx         0540  8  F0 00 FF 00 FE 00 00 2F 
  1025)      1205.3  Rx         056A  8  F1 00 08 00 1A 00 02 E1 
  1026)      1209.0  Rx         0288  8  64 75 13 04 00 4E 8D 0D 
  1027)      1209.4  Rx         0440  8  00 80 00 FE 80 00 00 00 
  1028)      1209.6  Rx         01A0  8  00 4A 00 00 00 FE 00 58 
  1029)      1210.5  Rx         01AC  8  2D 84 00 00 69 01 13 D2 
  1030)      1211.6  Rx         04A0  8  00 00 00 00 00 00 00 00 
  1031)      1212.1  Rx         04A8  8  06 80 04 13 00 00 40 D1 
  1032)      1212.7  Rx         05A0  8  7C 00 00 42 00 DC 10 AB 
  1033)      1213.5  Rx         0540  8  00 00 FF 00 FE 00 00 2F 
  1034)      1213.7  Rx         038A  4  85 01 84 00 
  1035)      1216.6  Rx         01A0  8  00 4A 00 00 00 FE 00 59 
  1036)      1217.1  Rx         0288  8  8A 75 13 04 00 4E 8D 0D 
  1037)      1218.0  Rx         04A0  8  00 00 00 00 00 00 00 00 
  1038)      1219.4  Rx         0440  8  00 80 00 FE 80 00 08 00 
  1039)      1221.7  Rx         056A  8  E1 00 08 00 1A 00 02 F1 
  1040)      1223.5  Rx         0540  8  10 00 FF 00 FE 00 00 2F 
  1041)      1226.2  Rx         0288  8  8A 75 13 04 00 4E 8D 0D 
  1042)      1226.7  Rx         01A0  8  00 4A 00 00 00 FE 00 5A 
  1043)      1227.8  Rx         01AC  8  29 85 00 00 69 01 16 D2 
  1044)      1228.8  Rx         04A0  8  00 00 00 00 00 00 00 00 
  1045)      1229.4  Rx         0440  8  00 80 00 FE 80 00 10 00 
  1046)      1229.7  Rx         04A8  8  0C 00 0E 13 00 00 50 41 
  1047)      1230.2  Rx         05A0  8  7B 00 00 52 00 DC 10 AB 
  1048)      1230.6  Rx         038A  4  95 01 94 00 
  1049)      1233.3  Rx         01A0  8  00 4A 00 00 00 FE 00 5B 
  1050)      1233.5  Rx         0540  8  20 00 FF 00 FE 00 00 2F 
  1051)      1233.8  Rx         04A0  8  00 00 00 00 00 00 00 00 
  1052)      1234.7  Rx         0288  8  8A 75 13 04 00 4E 8D 0D 
  1053)      1238.9  Rx         056A  8  11 00 08 00 1A 00 02 01 
  1054)      1239.4  Rx         0440  8  00 80 00 FE 80 00 18 00 
  1055)      1240.3  Rx         0520  8  02 02 00 93 7A 57 33 03 
  1056)      1243.5  Rx         0540  8  30 00 FF 00 FE 00 00 26 
  1057)      1244.7  Rx         01A0  8  00 4A 00 00 00 FE 00 5C 
  1058)      1245.1  Rx         01AC  8  28 86 00 00 69 01 14 D2 
  1059)      1246.2  Rx         0288  8  8A 75 13 04 00 4E 8D 0D 
  1060)      1247.1  Rx         04A0  8  00 00 00 00 00 00 00 00 
  1061)      1247.6  Rx         04A8  8  00 00 09 13 00 00 60 7A 
  1062)      1248.5  Rx         05A0  8  7C 00 00 62 00 DC 10 AB 
  1063)      1249.4  Rx         0440  8  00 80 00 FE 80 00 20 00 
  1064)      1249.7  Rx         0390  8  6A 40 51 00 00 00 20 00 
  1065)      1250.0  Rx         05D0  8  C0 04 51 AF 29 48 01 00 
  1066)      1250.5  Rx         038A  4  A5 01 A4 00 
  1067)      1253.5  Rx         0540  8  40 00 FF 00 FE 00 00 26 
  1068)      1253.7  Rx         01A0  8  00 4A 00 00 00 FE 00 5D 
  1069)      1254.0  Rx         0288  8  E8 75 13 04 00 4E 8D 0D 
  1070)      1255.4  Rx         04A0  8  00 00 00 00 00 00 00 00 
  1071)      1258.7  Rx         056A  8  01 00 08 00 1A 00 02 11 
  1072)      1258.9  Rx         0280  8  01 0D 3E 0C 0F 11 33 0F 
  1073)      1259.1  Rx         0380  8  00 68 11 0F 20 00 00 11 
  1074)      1259.4  Rx         0480  8  9C 30 F3 55 19 00 00 13 
  1075)      1259.6  Rx         0440  8  00 80 00 FE 80 00 28 00 
  1076)      1259.8  Rx         0488  8  90 0D 0F 7E FE 8D FF 60 
  1077)      1260.1  Rx         0588  8  1A 66 7E 00 00 00 00 00 
  1078)      1263.5  Rx         0540  8  50 00 FF 00 FE 00 00 26 
  1079)      1269.3  Rx         05DC  8  77 18 C0 3F 1E 00 30 42 
  1080)      1269.5  Rx         0440  8  00 80 00 FE 80 00 30 00 
  1081)      1273.5  Rx         0540  8  60 00 FF 00 FE 00 00 26 
  1082)      1273.7  Rx         01A0  8  00 4A 00 00 00 FE 00 5E 
  1083)      1274.2  Rx         0288  8  E8 75 13 04 00 4E 8D 0D 
  1084)      1274.7  Rx         01AC  8  2B 87 00 00 69 01 16 D2 
  1085)      1276.2  Rx         04A0  8  00 00 00 00 00 00 00 00 
  1086)      1276.8  Rx         04A8  8  1F 00 0E 13 00 00 70 72 
  1087)      1277.2  Rx         05A0  8  7C 00 00 72 00 DC 10 AB 
  1088)      1278.0  Rx         038A  4  B5 01 B4 00 
  1089)      1279.4  Rx         0440  8  00 80 00 FE 80 00 38 00 
  1090)      1280.5  Rx         01A0  8  00 4A 00 00 00 FE 00 5F 
  1091)      1281.2  Rx         04A0  8  00 00 00 00 00 00 00 00 
  1092)      1282.2  Rx         0288  8  E8 75 13 04 00 4E 8D 0D 
  1093)      1283.5  Rx         0540  8  70 00 FF 00 FE 00 00 CF 
  1094)      1286.3  Rx         056A  8  31 00 08 00 1A 00 02 21 
  1095)      1289.4  Rx         0440  8  00 77 00 FE 80 00 40 00 
  1096)      1289.6  Rx         01A0  8  00 4A 00 00 00 FE 00 50 
  1097)      1289.9  Rx         01AC  8  26 88 00 00 69 01 14 D2 
  1098)      1290.5  Rx         04A0  8  00 00 00 00 00 00 00 00 
  1099)      1291.5  Rx         04A8  8  00 00 13 13 00 00 80 80 
  1100)      1292.6  Rx         0288  8  E8 75 13 04 00 4E 8D 0D 
  1101)      1293.5  Rx         05A0  8  7B 00 00 82 00 DC 10 AB 
  1102)      1293.7  Rx         0540  8  80 00 FF 00 FE 00 00 CF 
  1103)      1296.9  Rx         038A  4  C5 01 C4 00 
  1104)      1297.9  Rx         01A0  8  00 4A 00 00 00 FE 00 51 
  1105)      1298.4  Rx         0288  8  2C 75 13 04 00 4E 8D 0D 
  1106)      1299.2  Rx         04A0  8  00 00 00 00 00 00 00 00 
  1107)      1299.5  Rx         0440  8  00 77 00 FE 80 00 48 00 
  1108)      1303.5  Rx         0540  8  90 00 FF 00 FE 00 00 CF 
  1109)      1303.7  Rx         056A  8  21 00 08 00 1A 00 02 31 
  1110)      1307.4  Rx         01A0  8  00 4A 00 00 00 FE 00 52 
  1111)      1308.3  Rx         01AC  8  26 89 00 00 69 01 15 D2 
  1112)      1308.7  Rx         0288  8  2C 75 13 04 00 4E 8D 0D 
  1113)      1309.4  Rx         0440  8  00 77 00 FE 80 00 50 00 
  1114)      1310.1  Rx         04A0  8  00 00 00 00 00 00 00 00 
  1115)      1310.7  Rx         04A8  8  06 80 13 13 00 00 90 16 
  1116)      1311.2  Rx         05A0  8  7C 00 00 92 00 DC 10 AB 
  1117)      1312.7  Rx         038A  4  D5 01 D4 00 
  1118)      1313.5  Rx         0540  8  A0 00 FF 00 FE 00 00 CF 
  1119)      1315.5  Rx         01A0  8  00 4A 00 00 00 FE 00 53 
  1120)      1316.2  Rx         0288  8  2C 75 13 04 00 4E 8D 0D 
  1121)      1317.1  Rx         04A0  8  00 00 00 00 00 00 00 00 
  1122)      1319.4  Rx         0440  8  00 77 00 FE 80 00 58 00 
  1123)      1320.7  Rx         056A  8  51 00 08 00 1A 00 02 41 
  1124)      1323.4  Rx         0540  8  B0 00 FF 00 FE 00 00 36 
  1125)      1323.7  Rx         01A0  8  00 4A 00 00 00 FE 00 54 
  1126)      1324.2  Rx         01AC  8  26 8A 00 00 69 01 16 D2 
  1127)      1324.8  Rx         04A0  8  00 00 00 00 00 00 00 00 
  1128)      1326.8  Rx         0288  8  2C 75 13 04 00 4E 8D 0D 
  1129)      1327.7  Rx         04A8  8  0C 00 13 13 00 00 A0 AC 
  1130)      1328.9  Rx         05A0  8  7B 00 00 A2 00 DC 10 AB 
  1131)      1329.1  Rx         0280  8  01 0D 37 0C 0F 11 33 0F 
  1132)      1329.3  Rx         0380  8  00 68 11 0F 20 00 00 11 
  1133)      1329.5  Rx         0440  8  00 77 00 FE 80 00 60 00 
  1134)      1329.8  Rx         0480  8  9C 30 F3 55 19 00 00 13 
  1135)      1330.0  Rx         0488  8  80 0D 0F 7E FE 8D FF 70 
  1136)      1330.3  Rx         0588  8  1A 66 7E 00 00 00 00 00 
  1137)      1333.5  Rx         0540  8  C0 00 FF 00 FE 00 00 36 
  1138)      1339.2  Rx         038A  4  E5 01 E4 00 
  1139)      1339.5  Rx         0440  8  01 77 00 FE 80 00 68 00 
  1140)      1342.4  Rx         01A0  8  00 4A 00 00 00 FE 00 55 
  1141)      1343.4  Rx         0288  8  64 75 13 04 00 4E 8D 0D 
  1142)      1343.6  Rx         0540  8  D0 00 FF 00 FE 00 00 36 
  1143)      1344.4  Rx         04A0  8  00 00 00 00 00 00 00 00 
  1144)      1348.0  Rx         056A  8  41 00 08 00 1A 00 02 51 
  1145)      1349.4  Rx         0440  8  01 77 00 FE 80 00 70 00 
  1146)      1352.2  Rx         01A0  8  00 4A 00 00 00 FE 00 56 
  1147)      1353.2  Rx         01AC  8  25 8B 00 00 69 01 14 D2 
  1148)      1353.5  Rx         0540  8  E0 00 FF 00 FE 00 00 36 
  1149)      1353.7  Rx         0288  8  64 75 13 04 00 4E 8D 0D 
  1150)      1355.4  Rx         04A0  8  00 00 00 00 00 00 00 00 
  1151)      1356.1  Rx         04A8  8  0C 80 11 13 00 00 B0 3E 
  1152)      1356.6  Rx         05A0  8  7B 00 00 B2 00 DC 10 AB 
  1153)      1357.6  Rx         0390  8  6A 40 51 00 00 00 20 00 
  1154)      1358.1  Rx         05D0  8  C0 04 51 AF 29 48 01 00 
  1155)      1359.0  Rx         038A  4  F5 01 F4 00 
  1156)      1359.4  Rx         0440  8  83 77 00 53 80 00 78 00 
  1157)      1361.0  Rx         01A0  8  00 4A 00 00 00 FE 00 57 
  1158)      1362.1  Rx         0288  8  64 75 13 04 00 4E 8D 0D 
  1159)      1363.1  Rx         04A0  8  00 00 00 00 00 00 00 00 
  1160)      1363.5  Rx         0540  8  F0 00 FF 00 FE 00 00 CF 
  1161)      1366.8  Rx         056A  8  71 00 08 00 1A 00 02 61 
  1162)      1367.2  Rx         05DC  8  77 18 C0 3F 1E 00 30 42 
  1163)      1369.3  Rx         0440  8  83 77 00 53 80 00 00 00 
  1164)      1370.4  Rx         01A0  8  00 4A 00 00 00 FE 00 58 
  1165)      1371.0  Rx         01AC  8  20 8C 00 00 69 01 16 D2 
  1166)      1371.6  Rx         04A0  8  00 00 00 00 00 00 00 00 
  1167)      1372.1  Rx         04A8  8  00 00 13 13 00 00 C0 C0 
  1168)      1372.7  Rx         05A0  8  7C 00 00 C2 00 DC 10 AB 
  1169)      1373.5  Rx         0540  8  00 00 FF 00 FE 00 00 CF 
  1170)      1373.7  Rx         0288  8  64 75 13 04 00 4E 8D 0D 
  1171)      1376.5  Rx         038A  4  05 01 04 00 
  1172)      1378.3  Rx         01A0  8  00 4A 00 00 00 FE 00 59 
  1173)      1379.3  Rx         0288  8  8A 75 13 04 00 4E 8D 0D 
  1174)      1379.5  Rx         0440  8  83 77 00 53 80 00 08 00 
  1175)      1380.2  Rx         04A0  8  00 00 00 00 00 00 00 00 
  1176)      1383.4  Rx         0540  8  10 00 FF 00 FE 00 00 CF 
  1177)      1383.7  Rx         056A  8  61 00 08 00 1A 00 02 71 
  1178)      1386.9  Rx         01A0  8  00 4A 00 00 00 FE 00 5A 
  1179)      1387.8  Rx         01AC  8  2F 8D 00 00 69 01 18 D2 
  1180)      1388.4  Rx         0288  8  8A 75 13 04 00 4E 8D 0D 
  1181)      1389.3  Rx         04A0  8  00 00 00 00 00 00 00 00 
  1182)      1389.5  Rx         0440  8  83 77 00 53 80 00 10 00 
  1183)      1390.2  Rx         04A8  8  06 00 13 13 00 00 D0 D6 
  1184)      1390.7  Rx         05A0  8  7B 00 00 D2 00 DC 10 AB 
  1185)      1393.5  Rx         0540  8  20 00 FF 00 FE 00 00 CF 
  1186)      1394.5  Rx         038A  4  15 01 14 00 
  1187)      1395.0  Rx         01A0  8  00 4A 00 00 00 FE 00 5B 
  1188)      1396.1  Rx         0288  8  8A 75 13 04 00 4E 8D 0D 
  1189)      1397.1  Rx         04A0  8  00 00 00 00 00 00 00 00 
  1190)      1399.4  Rx         0440  8  83 77 00 53 80 00 18 00 
  1191)      1400.7  Rx         056A  8  91 00 08 00 1A 00 02 81 
  1192)      1403.4  Rx         0540  8  30 00 FF 00 FE 00 00 36 
  1193)      1403.7  Rx         01A0  8  00 4A 00 00 00 FE 00 5C 
  1194)      1404.3  Rx         01AC  8  24 8E 00 00 69 01 10 D2 
  1195)      1404.7  Rx         04A0  8  00 00 00 00 00 00 00 00 
  1196)      1405.2  Rx         04A8  8  00 00 11 13 00 00 E0 E2 
  1197)      1405.6  Rx         05A0  8  7B 00 00 E2 00 DC 10 AB 
  1198)      1406.7  Rx         0288  8  8A 75 13 04 00 4E 8D 0D 
  1199)      1408.6  Rx         0280  8  01 0D 28 0C 0F 11 33 0F 
  1200)      1408.8  Rx         0380  8  00 68 11 0F 20 00 00 11 
  1201)      1409.0  Rx         0480  8  9C 30 F3 55 19 00 00 13 
  1202)      1409.3  Rx         0488  8  70 0D 0F 7E FE 8D FF 80 
  1203)      1409.5  Rx         0440  8  83 77 00 53 80 00 20 00 
  1204)      1409.8  Rx         0588  8  1A 66 7E 00 00 00 00 00 
  1205)      1413.5  Rx         0540  8  40 00 FF 00 FE 00 00 36 
  1206)      1419.2  Rx         038A  4  25 01 24 00 
  1207)      1419.4  Rx         0440  8  83 77 00 53 80 00 28 00 
  1208)      1421.9  Rx         01A0  8  00 4A 00 00 00 FE 00 5D 
  1209)      1422.4  Rx         04A0  8  00 00 00 00 00 00 00 00 
  1210)      1423.4  Rx         0288  8  E8 75 13 04 00 4E 8D 0D 
  1211)      1423.6  Rx         0540  8  50 00 FF 00 FE 00 00 36 
  1212)      1427.5  Rx         056A  8  81 00 08 00 1A 00 02 91 
  1213)      1429.4  Rx         0440  8  83 77 00 53 80 00 30 00 
  1214)      1430.3  Rx         01A0  8  00 4A 00 00 00 FE 00 5E 
  1215)      1430.8  Rx         01AC  8  25 8F 00 00 69 01 10 D2 
  1216)      1432.0  Rx         0288  8  E8 75 13 04 00 4E 8D 0D 
  1217)      1433.5  Rx         0540  8  60 00 FF 00 FE 00 00 36 
  1218)      1433.8  Rx         04A0  8  00 00 00 00 00 00 00 00 
  1219)      1434.8  Rx         04A8  8  12 00 11 13 00 00 F0 E0 
  1220)      1435.3  Rx         05A0  8  7B 00 00 F2 00 DC 10 AB 
  1221)      1437.1  Rx         038A  4  35 01 34 00 
  1222)      1438.9  Rx         01A0  8  00 4A 00 00 00 FE 00 5F 
  1223)      1439.4  Rx         0440  8  83 77 00 53 80 00 38 00 
  1224)      1439.7  Rx         04A0  8  00 00 00 00 00 00 00 00 
  1225)      1440.5  Rx         0288  8  E8 75 13 04 00 4E 8D 0D 
  1226)      1443.4  Rx         0540  8  70 00 FF 00 FE 00 00 CF 
  1227)      1445.3  Rx         056A  8  B1 00 08 00 1A 00 02 A1 
  1228)      1446.7  Rx         0520  8  60 44 00 93 7A 57 33 03 
  1229)      1449.4  Rx         01A0  8  00 4A 00 00 00 FE 00 50 
  1230)      1449.6  Rx         0440  8  83 77 00 53 80 00 40 00 
  1231)      1449.8  Rx         01AC  8  22 80 00 00 69 01 18 D2 
  1232)      1450.5  Rx         04A0  8  00 00 00 00 00 00 00 00 
  1233)      1451.1  Rx         04A8  8  00 00 0E 13 00 00 00 1D 
  1234)      1451.5  Rx         05A0  8  7C 00 00 02 00 DC 10 AB 
  1235)      1452.6  Rx         0288  8  E8 75 13 04 00 4E 8D 0D 
  1236)      1453.5  Rx         0540  8  80 00 FF 00 FE 00 00 CF 
  1237)      1454.5  Rx         0390  8  6A 40 51 00 00 00 20 00 
  1238)      1455.7  Rx         05D0  8  C0 04 51 AF 29 48 01 00 
  1239)      1456.4  Rx         038A  4  45 01 44 00 
  1240)      1458.7  Rx         01A0  8  00 4A 00 00 00 FE 00 51 
  1241)      1459.2  Rx         04A0  8  00 00 00 00 00 00 00 00 
  1242)      1459.4  Rx         0440  8  83 77 00 53 80 00 48 00 
  1243)      1460.3  Rx         0288  8  2C 75 13 04 00 4E 8D 0D 
  1244)      1463.4  Rx         0540  8  90 00 FF 00 FE 00 00 CF 
  1245)      1464.6  Rx         056A  8  A1 00 08 00 1A 00 02 B1 
  1246)      1465.0  Rx         05DC  8  77 18 C0 3F 1E 00 30 42 
  1247)      1468.3  Rx         01A0  8  00 4A 00 00 00 FE 00 52 
  1248)      1468.8  Rx         01AC  8  21 81 00 00 69 01 1A D2 
  1249)      1469.4  Rx         0440  8  83 77 00 53 80 00 50 00 
  1250)      1469.7  Rx         0288  8  2C 75 13 04 00 4E 8D 0D 
  1251)      1470.8  Rx         04A0  8  00 00 00 00 00 00 00 00 
  1252)      1471.8  Rx         04A8  8  00 00 0E 13 00 00 10 0D 
  1253)      1472.4  Rx         05A0  8  7C 00 00 12 00 DC 10 AB 
  1254)      1473.4  Rx         0540  8  A0 00 FF 00 FE 00 00 CF 
  1255)      1474.2  Rx         038A  4  55 01 54 00 
  1256)      1476.1  Rx         01A0  8  00 4A 00 00 00 FE 00 53 
  1257)      1476.7  Rx         04A0  8  00 00 00 00 00 00 00 00 
  1258)      1477.6  Rx         0288  8  2C 75 13 04 00 4E 8D 0D 
  1259)      1479.4  Rx         0440  8  83 77 00 53 80 00 58 00 
  1260)      1481.9  Rx         056A  8  D1 00 08 00 1A 00 02 C1 
  1261)      1483.4  Rx         0540  8  B0 00 FF 00 FE 00 00 36 
  1262)      1484.7  Rx         01A0  8  00 4A 00 00 00 FE 00 54 
  1263)      1485.2  Rx         01AC  8  2C 82 00 00 69 01 14 D2 
  1264)      1485.6  Rx         04A0  8  00 00 00 00 00 00 00 00 
  1265)      1486.3  Rx         04A8  8  0C 00 09 13 00 00 20 36 
  1266)      1486.8  Rx         05A0  8  7B 00 00 22 00 DC 10 AB 
  1267)      1487.7  Rx         0288  8  2C 75 13 04 00 4E 8D 0D 
  1268)      1489.4  Rx         0440  8  83 77 00 53 80 00 60 00 
  1269)      1489.6  Rx         0280  8  01 0D 23 0C 0F 11 33 0F 
  1270)      1489.8  Rx         0380  8  00 68 11 0F 20 00 00 11 
  1271)      1490.1  Rx         0480  8  9C 30 F3 55 19 00 00 13 
  1272)      1490.3  Rx         0488  8  60 0D 0F 7E FE 8D FF 90 
  1273)      1490.6  Rx         0588  8  1A 66 7E 00 00 00 00 00 
  1274)      1493.4  Rx         0540  8  C0 00 FF 00 FE 00 00 36 
  1275)      1499.4  Rx         0440  8  83 77 00 53 80 00 68 00 
  1276)      1501.9  Rx         038A  4  65 01 64 00 
  1277)      1503.0  Rx         01A0  8  00 4A 00 00 00 FE 00 55 
  1278)      1503.4  Rx         0540  8  D0 00 FF 00 FE 00 00 36 
  1279)      1503.7  Rx         04A0  8  00 00 00 00 00 00 00 00 
  1280)      1504.5  Rx         0288  8  64 75 13 04 00 4E 8D 0D 
  1281)      1508.9  Rx         056A  8  C1 00 08 00 1A 00 02 D1 
  1282)      1509.4  Rx         0440  8  83 77 00 53 80 00 70 00 
  1283)      1511.9  Rx         01A0  8  00 4A 00 00 00 FE 00 56 
  1284)      1512.5  Rx         01AC  8  2A 83 00 00 69 01 13 D2 
  1285)      1513.0  Rx         04A0  8  00 00 00 00 00 00 00 00 
  1286)      1513.4  Rx         04A8  8  12 80 0E 13 00 00 30 BF 
  1287)      1513.6  Rx         0540  8  E0 00 FF 00 FE 00 00 36 
  1288)      1513.9  Rx         05A0  8  7B 00 00 32 00 DC 10 AB 
  1289)      1514.9  Rx         0288  8  64 75 13 04 00 4E 8D 0D 
  1290)      1517.7  Rx         038A  4  75 01 74 00 
  1291)      1519.4  Rx         0440  8  83 77 00 53 80 00 78 00 
  1292)      1519.6  Rx         01A0  8  00 4A 00 00 00 FE 00 57 
  1293)      1520.1  Rx         04A0  8  00 00 00 00 00 00 00 00 
  1294)      1521.2  Rx         0288  8  64 75 13 04 00 4E 8D 0D 
  1295)      1523.4  Rx         0540  8  F0 00 FF 00 FE 00 00 CF 
  1296)      1525.4  Rx         056A  8  F1 00 08 00 1A 00 02 E1 
  1297)      1528.2  Rx         01A0  8  00 4A 00 00 00 FE 00 58 
  1298)      1528.7  Rx         01AC  8  25 84 00 00 69 01 1B D2 
  1299)      1529.2  Rx         04A0  8  00 00 00 00 00 00 00 00 
  1300)      1529.4  Rx         0440  8  83 77 00 53 80 00 00 00 
  1301)      1529.6  Rx         04A8  8  06 00 0E 13 00 00 40 5B 
  1302)      1530.7  Rx         0288  8  64 75 13 04 00 4E 8D 0D 
  1303)      1532.7  Rx         05A0  8  7C 00 00 42 00 DC 10 AB 
  1304)      1533.4  Rx         0540  8  00 00 FF 00 FE 00 00 CF 
  1305)      1534.5  Rx         038A  4  85 01 84 00 
  1306)      1536.5  Rx         01A0  8  00 4A 00 00 00 FE 00 59 
  1307)      1537.2  Rx         04A0  8  00 00 00 00 00 00 00 00 
  1308)      1538.5  Rx         0288  8  8A 75 13 04 00 4E 8D 0D 
  1309)      1539.4  Rx         0440  8  83 77 00 53 80 00 08 00 
  1310)      1543.4  Rx         0540  8  10 00 FF 00 FE 00 00 CF 
  1311)      1543.6  Rx         056A  8  E1 00 08 00 1A 00 02 F1 
  1312)      1547.7  Rx         01A0  8  00 4A 00 00 00 FE 00 5A 
  1313)      1548.1  Rx         01AC  8  27 85 00 00 69 01 18 D2 
  1314)      1548.7  Rx         04A0  8  00 00 00 00 00 00 00 00 
  1315)      1549.4  Rx         0440  8  83 77 00 53 80 00 10 00 
  1316)      1549.6  Rx         0288  8  8A 75 13 04 00 4E 8D 0D 
  1317)      1550.6  Rx         04A8  8  19 00 13 13 00 00 50 49 
  1318)      1551.7  Rx         05A0  8  7B 00 00 52 00 DC 10 AB 
  1319)      1552.7  Rx         0390  8  6A 40 51 00 00 00 20 00 
  1320)      1553.4  Rx         0540  8  20 00 FF 00 FE 00 00 CF 
  1321)      1553.7  Rx         05D0  8  C0 04 51 AF 29 48 01 00 
  1322)      1554.6  Rx         038A  4  95 01 94 00 
  1323)      1556.6  Rx         01A0  8  00 4A 00 00 00 FE 00 5B 
  1324)      1557.1  Rx         04A0  8  00 00 00 00 00 00 00 00 
  1325)      1558.1  Rx         0288  8  8A 75 13 04 00 4E 8D 0D 
  1326)      1559.4  Rx         0440  8  83 77 00 53 80 00 18 00 
  1327)      1562.4  Rx         056A  8  11 00 08 00 1A 00 02 01 
  1328)      1562.9  Rx         05DC  8  77 18 C0 3F 1E 00 30 42 
  1329)      1563.4  Rx         0540  8  30 00 FF 00 FE 00 00 36 
  1330)      1566.2  Rx         01A0  8  00 4A 00 00 00 FE 00 5C 
  1331)      1566.7  Rx         01AC  8  2D 86 00 00 69 01 11 D2 
  1332)      1567.2  Rx         04A0  8  00 00 00 00 00 00 00 00 
  1333)      1567.6  Rx         04A8  8  19 80 EE 12 00 00 60 05 
  1334)      1568.1  Rx         05A0  8  7B 00 00 62 00 DC 10 AB 
  1335)      1569.1  Rx         0288  8  8A 75 13 04 00 4E 8D 0D 
  1336)      1569.4  Rx         0440  8  83 77 00 53 80 00 20 00 
  1337)      1572.5  Rx         038A  4  A5 01 A4 00 
  1338)      1573.4  Rx         0540  8  40 00 FF 00 FE 00 00 36 
  1339)      1574.0  Rx         01A0  8  00 4A 00 00 00 FE 00 5D 
  1340)      1574.5  Rx         04A0  8  00 00 00 00 00 00 00 00 
  1341)      1575.4  Rx         0288  8  E8 75 13 04 00 4E 8D 0D 
  1342)      1579.4  Rx         0440  8  83 77 00 53 80 00 28 00 
  1343)      1579.6  Rx         056A  8  01 00 08 00 1A 00 02 11 
  1344)      1582.7  Rx         01A0  8  00 4A 00 00 00 FE 00 5E 
  1345)      1583.1  Rx         01AC  8  34 87 00 00 69 01 09 D2 
  1346)      1583.4  Rx         0540  8  50 00 FF 00 FE 00 00 36 
  1347)      1583.7  Rx         04A0  8  00 00 00 00 00 00 00 00 
  1348)      1584.6  Rx         0288  8  E8 75 13 04 00 4E 8D 0E 
  1349)      1585.5  Rx         04A8  8  12 00 AD 12 00 00 70 DD 
  1350)      1586.6  Rx         05A0  8  7B 00 00 72 00 DC 10 AB 
  1351)      1587.1  Rx         0280  8  01 0D 43 0C 0F 11 33 0F 
  1352)      1587.4  Rx         0380  8  00 68 11 0F 20 00 00 11 
  1353)      1587.6  Rx         0480  8  9C 30 F3 55 19 00 00 13 
  1354)      1587.8  Rx         0488  8  50 0D 0F 7E FE 8D FF A0 
  1355)      1588.1  Rx         0588  8  1A 66 7E 00 00 00 00 00 
  1356)      1589.4  Rx         0440  8  83 77 00 53 80 00 30 00 
  1357)      1593.4  Rx         0540  8  60 00 FF 00 FE 00 00 36 
  1358)      1599.1  Rx         038A  4  B5 01 B4 00 
  1359)      1599.4  Rx         0440  8  83 77 00 53 80 00 38 00 
  1360)      1600.1  Rx         01A0  8  00 4A 00 00 00 FE 00 5F 
  1361)      1600.7  Rx         04A0  8  00 00 00 00 00 00 00 00 
  1362)      1601.7  Rx         0288  8  E8 75 13 04 00 4E 8D 0E 
  1363)      1603.4  Rx         0540  8  70 00 FF 00 FE 00 00 CF 
  1364)      1605.8  Rx         056A  8  31 00 08 00 1A 00 02 21 
  1365)      1608.7  Rx         01A0  8  00 4A 00 00 00 FE 00 50 
  1366)      1609.2  Rx         01AC  8  26 88 00 00 69 01 14 D2 
  1367)      1609.4  Rx         0440  8  83 77 00 53 80 00 40 00 
  1368)      1609.6  Rx         04A0  8  00 00 00 00 00 00 00 00 
  1369)      1610.2  Rx         04A8  8  06 00 6C 12 00 00 80 F8 
  1370)      1610.7  Rx         05A0  8  7C 00 00 82 00 DC 10 AB 
  1371)      1611.8  Rx         0288  8  E8 75 13 04 00 4E 8D 0E 
  1372)      1613.4  Rx         0540  8  80 00 FF 00 FE 00 00 CF 
  1373)      1615.0  Rx         038A  4  C5 01 C4 00 
  1374)      1616.6  Rx         01A0  8  00 4A 00 00 00 FE 00 51 
  1375)      1617.1  Rx         04A0  8  00 00 00 00 00 00 00 00 
  1376)      1618.1  Rx         0288  8  2C 75 13 04 00 4E 8D 0E 
  1377)      1619.4  Rx         0440  8  83 77 00 53 80 00 48 00 
  1378)      1622.4  Rx         056A  8  21 00 08 00 1A 00 02 31 
  1379)      1623.4  Rx         0540  8  90 00 FF 00 FE 00 00 CF 
  1380)      1625.8  Rx         01A0  8  00 4A 00 00 00 FE 00 52 
  1381)      1626.6  Rx         01AC  8  2E 89 00 00 69 01 1D D2 
  1382)      1627.1  Rx         04A0  8  00 00 00 00 00 00 00 00 
  1383)      1627.5  Rx         04A8  8  00 00 28 12 00 00 90 AA 
  1384)      1628.5  Rx         0288  8  2C 75 13 04 00 4E 8D 0E 
  1385)      1629.4  Rx         0440  8  83 77 00 53 80 00 50 00 
  1386)      1629.9  Rx         05A0  8  7D 00 00 92 00 DC 10 AB 
  1387)      1631.9  Rx         038A  4  D5 01 D4 00 
  1388)      1633.4  Rx         0540  8  A0 00 FF 00 FE 00 00 CF 
  1389)      1633.8  Rx         01A0  8  00 4A 00 00 00 FE 00 53 
  1390)      1634.4  Rx         04A0  8  00 00 00 00 00 00 00 00 
  1391)      1635.2  Rx         0288  8  2C 75 13 04 00 4E 8D 0E 
  1392)      1639.4  Rx         0440  8  83 77 00 53 80 00 58 00 
  1393)      1639.6  Rx         056A  8  51 00 08 00 1A 00 02 41 
  1394)      1640.8  Rx         0520  8  A6 87 00 93 7A 57 33 03 
  1395)      1643.4  Rx         0540  8  B0 00 FF 00 FE 00 00 36 
  1396)      1644.3  Rx         01A0  8  00 4A 00 00 00 FE 00 54 
  1397)      1644.7  Rx         01AC  8  2E 8A 00 00 69 01 1E D2 
  1398)      1645.2  Rx         04A0  8  00 00 00 00 00 00 00 00 
  1399)      1645.6  Rx         04A8  8  0C 00 EA 11 00 00 A0 57 
  1400)      1646.3  Rx         05A0  8  7C 00 00 A2 00 DC 10 AB 
  1401)      1647.3  Rx         0288  8  2C 75 13 04 00 4E 8D 0E 
  1402)      1648.6  Rx         0390  8  6A 40 51 00 00 00 20 00 
  1403)      1649.1  Rx         0280  8  01 0D 56 0C 0F 11 33 0F 
  1404)      1649.4  Rx         0380  8  00 68 11 0F 20 00 00 11 
  1405)      1649.7  Rx         0440  8  83 77 00 53 80 00 60 00 
  1406)      1649.9  Rx         0480  8  9C 30 F3 55 19 00 00 13 
  1407)      1650.1  Rx         0488  8  40 0D 0F 7E FE 8D FF B0 
  1408)      1650.3  Rx         0588  8  1A 66 7E 00 00 00 00 00 
  1409)      1653.4  Rx         0540  8  C0 00 FF 00 FE 00 00 36 
  1410)      1659.4  Rx         05D0  8  C0 04 51 AF 29 48 01 00 
  1411)      1659.6  Rx         0440  8  83 77 00 53 80 00 68 00 
  1412)      1661.8  Rx         038A  4  E5 01 E4 00 
  1413)      1663.4  Rx         01A0  8  00 4A 00 00 00 FE 00 55 
  1414)      1663.6  Rx         0540  8  D0 00 FF 00 FE 00 00 36 
  1415)      1663.8  Rx         04A0  8  00 00 00 00 00 00 00 00 
  1416)      1664.8  Rx         0288  8  64 75 13 04 00 4E 8D 0E 
  1417)      1668.8  Rx         056A  8  41 00 08 00 1A 00 02 51 
  1418)      1669.3  Rx         05DC  8  77 18 C0 3F 1E 00 30 42 
  1419)      1669.5  Rx         0440  8  83 77 00 53 80 00 70 00 
  1420)      1672.8  Rx         01A0  8  00 4A 00 00 00 FE 00 56 
  1421)      1673.3  Rx         01AC  8  25 8B 00 00 69 01 14 D2 
  1422)      1673.5  Rx         0540  8  E0 00 FF 00 FE 00 00 36 
  1423)      1673.8  Rx         04A0  8  00 00 00 00 00 00 00 00 
  1424)      1674.8  Rx         0288  8  64 75 13 04 00 4E 8D 0E 
  1425)      1675.6  Rx         04A8  8  00 00 A9 11 00 00 B0 08 
  1426)      1676.3  Rx         05A0  8  7C 00 00 B2 00 DC 10 AB 
  1427)      1678.6  Rx         038A  4  F5 01 F4 00 
  1428)      1679.4  Rx         0440  8  83 77 00 53 80 00 78 00 
  1429)      1680.0  Rx         01A0  8  00 4A 00 00 00 FE 00 57 
  1430)      1681.1  Rx         04A0  8  00 00 00 00 00 00 00 00 
  1431)      1682.1  Rx         0288  8  64 75 13 04 00 4E 8D 0E 
  1432)      1683.5  Rx         0540  8  F0 00 FF 00 FE 00 00 CF 
  1433)      1686.3  Rx         056A  8  71 00 08 00 1A 00 02 61 
  1434)      1689.0  Rx         01A0  8  00 4A 00 00 00 FE 00 58 
  1435)      1689.4  Rx         0440  8  83 77 00 53 80 00 00 00 
  1436)      1689.6  Rx         01AC  8  26 8C 00 00 69 01 10 D2 
  1437)      1690.0  Rx         04A0  8  00 00 00 00 00 00 00 00 
  1438)      1690.5  Rx         04A8  8  0C 00 7C 11 00 00 C0 A1 
  1439)      1691.6  Rx         05A0  8  7B 00 00 C2 00 DC 10 AB 
  1440)      1692.6  Rx         0288  8  64 75 13 04 00 4E 8D 0E 
  1441)      1693.5  Rx         0540  8  00 00 FF 00 FE 00 00 CF 
  1442)      1694.5  Rx         07D0  8  CC 57 33 73 B9 35 1E 03 
  1443)      1696.8  Rx         038A  4  05 01 04 00 
  1444)      1697.4  Rx         01A0  8  00 4A 00 00 00 FE 00 59 
  1445)      1698.4  Rx         04A0  8  00 00 00 00 00 00 00 00 
  1446)      1699.3  Rx         0288  8  8A 75 13 04 00 4E 8D 0E 
  1447)      1699.5  Rx         0440  8  83 77 00 53 80 00 08 00 
  1448)      1703.5  Rx         0540  8  10 00 FF 00 FE 00 00 CF 
  1449)      1704.1  Rx         056A  8  61 00 08 00 1A 00 02 71 
  1450)      1706.9  Rx         01A0  8  00 4A 00 00 00 FE 00 5A 
  1451)      1707.3  Rx         01AC  8  27 8D 00 00 69 01 10 D2 
  1452)      1707.8  Rx         04A0  8  00 00 00 00 00 00 00 00 
  1453)      1708.8  Rx         0288  8  8A 75 13 04 00 4E 8D 0E 
  1454)      1709.5  Rx         0440  8  83 77 00 53 80 00 10 00 
  1455)      1709.7  Rx         04A8  8  0C 80 45 11 00 00 D0 08 
  1456)      1710.2  Rx         05A0  8  7B 00 00 D2 00 DC 10 AB 
  1457)      1712.8  Rx         038A  4  15 01 14 00 
  1458)      1713.5  Rx         0540  8  20 00 FF 00 FE 00 00 CF 
  1459)      1713.8  Rx         01A0  8  00 4A 00 00 00 FE 00 5B 
  1460)      1715.1  Rx         04A0  8  00 00 00 00 00 00 00 00 
  1461)      1716.2  Rx         0288  8  8A 75 13 04 00 4E 8D 0E 
  1462)      1719.4  Rx         0440  8  83 77 00 53 80 00 18 00 
  1463)      1720.2  Rx         056A  8  91 00 08 00 1A 00 02 81 
  1464)      1722.8  Rx         01A0  8  00 4A 00 00 00 FE 00 5C 
  1465)      1723.5  Rx         0540  8  30 00 FF 00 FE 00 00 36 
  1466)      1723.8  Rx         01AC  8  21 8E 00 00 69 01 15 D2 
  1467)      1724.4  Rx         04A0  8  00 00 00 00 00 00 00 00 
  1468)      1724.8  Rx         04A8  8  0C 00 18 11 00 00 E0 E5 
  1469)      1725.7  Rx         0288  8  8A 75 13 04 00 4E 8D 0E 
  1470)      1727.5  Rx         05A0  8  7B 00 00 E2 00 DC 10 AB 
  1471)      1728.0  Rx         0280  8  01 0D 74 0C 0F 11 33 0F 
  1472)      1728.3  Rx         0380  8  00 68 11 0F 20 00 00 11 
  1473)      1728.5  Rx         0480  8  9C 30 F3 55 19 00 00 13 
  1474)      1728.8  Rx         0488  8  30 0D 0F 7E FE 8D FF C0 
  1475)      1729.0  Rx         0588  8  1A 66 7E 00 00 00 00 00 
  1476)      1729.5  Rx         0440  8  83 77 00 53 80 00 20 00 
  1477)      1733.5  Rx         0540  8  40 00 FF 00 FE 00 00 36 
  1478)      1739.3  Rx         038A  4  25 01 24 00 
  1479)      1739.5  Rx         0440  8  83 77 00 53 80 00 28 00 
  1480)      1740.4  Rx         01A0  8  00 4A 00 00 00 FE 00 5D 
  1481)      1741.9  Rx         04A0  8  00 00 00 00 00 00 00 00 
  1482)      1743.3  Rx         0288  8  E8 75 13 04 00 4E 8D 0E 
  1483)      1743.5  Rx         0540  8  50 00 FF 00 FE 00 00 36 
  1484)      1747.5  Rx         056A  8  81 00 08 00 1A 00 02 91 
  1485)      1749.4  Rx         0440  8  83 77 00 53 80 00 30 00 
  1486)      1751.2  Rx         01A0  8  00 4A 00 00 00 FE 00 5E 
  1487)      1752.1  Rx         01AC  8  2D 8F 00 00 69 01 18 D2 
  1488)      1752.7  Rx         04A0  8  00 00 00 00 00 00 00 00 
  1489)      1753.2  Rx         04A8  8  00 00 E3 10 00 00 F0 03 
  1490)      1753.5  Rx         0540  8  60 00 FF 00 FE 00 00 36 
  1491)      1753.7  Rx         05A0  8  7B 00 00 F2 00 DC 10 AB 
  1492)      1754.7  Rx         0288  8  E8 75 13 04 00 4E 8D 0E 
  1493)      1756.2  Rx         0390  8  6A 40 51 10 00 00 20 00 
  1494)      1757.2  Rx         05D0  8  C0 04 51 AF 29 48 01 00 
  1495)      1758.5  Rx         038A  4  35 01 34 00 
  1496)      1759.4  Rx         0440  8  83 77 00 53 80 00 38 00 
  1497)      1759.7  Rx         01A0  8  00 4A 00 00 00 FE 00 5F 
  1498)      1760.5  Rx         04A0  8  00 00 00 00 00 00 00 00 
  1499)      1762.1  Rx         0288  8  E8 75 13 04 00 4E 8D 0E 
  1500)      1763.5  Rx         0540  8  70 00 FF 00 FE 00 00 CF 
  1501)      1766.2  Rx         056A  8  B1 00 08 00 1A 00 02 A1 
  1502)      1766.7  Rx         05DC  8  77 18 C0 3F 1E 00 30 42 
  1503)      1769.4  Rx         01A0  8  00 4A 00 00 00 FE 00 50 
  1504)      1769.6  Rx         0440  8  83 77 00 53 80 00 40 00 
  1505)      1770.4  Rx         01AC  8  22 80 00 00 69 01 18 D2 
  1506)      1770.9  Rx         04A0  8  00 00 00 00 00 00 00 00 
  1507)      1771.5  Rx         04A8  8  1F 00 B4 10 00 00 00 BB 
  1508)      1772.0  Rx         05A0  8  7C 00 00 02 00 DC 10 AB 
  1509)      1773.0  Rx         0288  8  E8 75 13 04 00 4E 8D 0E 
  1510)      1773.5  Rx         0540  8  80 00 FF 00 FE 00 00 CF 
  1511)      1775.7  Rx         038A  4  45 01 44 00 
  1512)      1777.0  Rx         01A0  8  00 4A 00 00 00 FE 00 51 
  1513)      1777.4  Rx         04A0  8  00 00 00 00 00 00 00 00 
  1514)      1779.2  Rx         0288  8  2C 75 13 04 00 4E 8D 0E 
  1515)      1779.5  Rx         0440  8  83 77 00 53 80 00 48 00 
  1516)      1783.5  Rx         0540  8  90 00 FF 00 FE 00 00 CF 
  1517)      1783.7  Rx         056A  8  A1 00 08 00 1A 00 02 B1 
  1518)      1785.8  Rx         01A0  8  00 4A 00 00 00 FE 00 52 
  1519)      1786.5  Rx         01AC  8  28 81 00 00 69 01 13 D2 
  1520)      1787.4  Rx         04A0  8  00 00 00 00 00 00 00 00 
  1521)      1787.8  Rx         04A8  8  00 00 73 10 00 00 10 73 
  1522)      1788.3  Rx         05A0  8  7C 00 00 12 00 DC 10 AB 
  1523)      1789.4  Rx         0440  8  83 77 00 53 80 00 50 00 
  1524)      1789.7  Rx         0288  8  2C 75 13 04 00 4E 8D 0E 
