;$FILEVERSION=2.0
;$STARTTIME=45114.8382803588
;$COLUMNS=N,O,T,I,d,l,D
;
;   Start time: 7/7/2023 20:07:07.423.0
;   Generated by PCAN-View v4.3.4.615
;-------------------------------------------------------------------------------
;   Connection                 Bit rate
;   PCANLight_USB_16@pcan_usb  Nominal 500 kBit/s, Data 500 kBit/s
;-------------------------------------------------------------------------------
;   Message   Time    Type ID     Rx/Tx
;   Number    Offset  |    [hex]  |  Data Length
;   |         [ms]    |    |      |  |  Data [hex] ...
;   |         |       |    |      |  |  |
;---+-- ------+------ +- --+----- +- +- +- +- -- -- -- -- -- -- --
      1 1885520035.002 DT     04F0 Rx 8  00 00 00 00 00 D6 E3 1D 
      2 1885520035.270 DT     0690 Rx 8  00 00 00 00 00 00 00 00 
      3 1885520039.726 DT     00A0 Rx 8  00 52 00 00 00 29 00 00 
      4 1885520039.971 DT     00A1 Rx 8  80 80 80 80 00 00 00 00 
      5 1885520046.409 DT     0316 Rx 8  31 BD 00 00 00 00 00 7F 
      6 1885520046.655 DT     018F Rx 8  00 2F 00 00 00 64 00 00 
      7 1885520046.900 DT     0080 Rx 8  00 17 00 00 BD 00 00 F1 
      8 1885520047.145 DT     0081 Rx 8  40 05 5F 00 00 00 00 21 
      9 1885520047.389 DT     0260 Rx 8  11 00 00 00 02 98 5F 16 
     10 1885520047.630 DT     02A0 Rx 8  A2 00 5F 80 37 12 9E 08 
     11 1885520047.864 DT     0329 Rx 8  0F 79 7E 0E 11 32 00 10 
     12 1885520048.109 DT     0382 Rx 8  40 FE 0F 00 00 00 00 04 
     13 1885520048.342 DT     0545 Rx 8  CD 00 00 7E 79 FE 79 FE 
     14 1885520055.101 DT     04F0 Rx 8  40 00 02 00 00 D6 E3 1D 
     15 1885520056.318 DT     0316 Rx 8  31 0E 00 00 00 2A 00 7F 
     16 1885520056.557 DT     0080 Rx 8  00 17 00 00 0E 2A 00 C2 
     17 1885520056.802 DT     0081 Rx 8  40 05 5F 00 00 00 00 12 
     18 1885520057.053 DT     018F Rx 8  00 2F 00 00 00 64 00 00 
     19 1885520057.292 DT     0260 Rx 8  12 00 00 00 02 98 5F 24 
     20 1885520057.526 DT     02A0 Rx 8  C2 00 5F 80 37 12 9E 08 
     21 1885520057.766 DT     0329 Rx 8  0F 79 7E 0E 11 32 00 10 
     22 1885520058.000 DT     0545 Rx 8  CD 00 00 7C 79 FE 79 FE 
     23 1885520066.164 DT     0316 Rx 8  31 0E 00 00 00 2A 00 7F 
     24 1885520066.409 DT     018F Rx 8  00 2F 00 00 00 64 00 00 
     25 1885520066.655 DT     0080 Rx 8  00 17 00 00 0E 2A 00 B3 
     26 1885520066.900 DT     0081 Rx 8  40 05 5F 00 00 00 00 03 
     27 1885520067.138 DT     0260 Rx 8  0F 00 00 00 02 98 5F 37 
     28 1885520067.378 DT     02A0 Rx 8  62 00 5F 80 37 12 9E 08 
     29 1885520067.613 DT     0329 Rx 8  0F 79 7E 0E 11 3E 00 10 
     30 1885520067.858 DT     0382 Rx 8  40 FE 0F 00 00 00 00 08 
     31 1885520068.091 DT     0545 Rx 8  CD 00 00 7D 79 FE 79 FE 
     32 1885520075.072 DT     04F0 Rx 8  40 00 04 00 00 D6 E3 1D 
     33 1885520076.299 DT     0316 Rx 8  31 89 00 00 00 2A 00 7F 
     34 1885520076.545 DT     018F Rx 8  00 2F 00 00 00 64 00 00 
     35 1885520076.785 DT     0080 Rx 8  00 17 00 00 89 2A 00 74 
     36 1885520077.030 DT     0081 Rx 8  40 05 5F 00 00 00 00 F4 
     37 1885520077.275 DT     0260 Rx 8  0F 00 00 00 02 98 5F 0A 
     38 1885520077.510 DT     02A0 Rx 8  02 00 5F 80 37 12 9E 08 
     39 1885520077.748 DT     0329 Rx 8  0F 79 7E 0E 11 43 00 10 
     40 1885520077.982 DT     0545 Rx 8  CF 00 00 7D 79 FE 79 FE 
     41 1885520086.301 DT     0316 Rx 8  31 89 00 00 00 2A 00 7F 
     42 1885520086.547 DT     018F Rx 8  00 2F 00 00 00 64 00 00 
     43 1885520086.785 DT     0080 Rx 8  00 17 00 00 89 2A 00 65 
     44 1885520087.030 DT     0081 Rx 8  40 05 5F 00 00 00 00 E5 
     45 1885520087.270 DT     0260 Rx 8  0E 00 00 00 02 98 5F 1A 
     46 1885520087.505 DT     02A0 Rx 8  A2 00 5F 80 37 12 9E 08 
     47 1885520087.738 DT     0329 Rx 8  0F 79 7E 0E 11 48 00 10 
     48 1885520087.983 DT     0382 Rx 8  40 FE 0F 00 00 00 00 0C 
     49 1885520088.222 DT     0545 Rx 8  CF 00 00 7E 79 FE 79 FE 
     50 1885520090.078 DT     00A0 Rx 8  00 52 00 00 00 29 00 00 
     51 1885520090.318 DT     00A1 Rx 8  80 80 80 80 63 00 00 00 
     52 1885520095.123 DT     04F0 Rx 8  40 00 06 00 00 D6 E3 1D 
     53 1885520096.248 DT     0316 Rx 8  31 89 00 00 00 2A 00 7F 
     54 1885520096.494 DT     018F Rx 8  00 2F 00 00 00 64 00 00 
     55 1885520096.733 DT     0080 Rx 8  00 17 00 00 89 2A 00 56 
     56 1885520096.977 DT     0081 Rx 8  40 05 5F 00 00 00 00 D6 
     57 1885520097.217 DT     0260 Rx 8  0E 00 00 00 02 98 5F 29 
     58 1885520097.451 DT     02A0 Rx 8  C2 00 5F 80 37 12 9E 08 
     59 1885520097.685 DT     0329 Rx 8  4F 79 7E 0E 11 4C 00 10 
     60 1885520097.919 DT     0545 Rx 8  CF 00 00 7E 79 FE 79 FE 
     61 1885520102.255 DT     02C0 Rx 8  10 00 00 00 00 00 00 00 
     62 1885520104.260 DT     05A0 Rx 8  00 00 00 00 00 00 00 00 
     63 1885520106.076 DT     0316 Rx 8  31 89 00 00 00 2A 00 7F 
     64 1885520106.321 DT     018F Rx 8  00 2F 00 00 00 64 00 00 
     65 1885520106.567 DT     0080 Rx 8  00 17 00 00 89 2A 00 47 
     66 1885520106.806 DT     0081 Rx 8  40 05 5F 00 00 00 00 C7 
     67 1885520107.051 DT     0260 Rx 8  0D 00 00 00 02 98 5F 39 
     68 1885520107.285 DT     02A0 Rx 8  62 00 5F 80 37 12 9E 08 
     69 1885520107.520 DT     0329 Rx 8  4F 79 7E 0E 11 4D 00 10 
     70 1885520107.765 DT     0382 Rx 8  40 FE 0F 00 00 00 00 00 
     71 1885520107.998 DT     0545 Rx 8  CF 00 00 7E 79 FE 79 FE 
     72 1885520108.174 DT     05A2 Rx 4  19 00 00 00 
     73 1885520114.845 DT     05F0 Rx 2  00 00 
     74 1885520115.204 DT     04F0 Rx 8  40 00 08 00 00 D6 E3 1D 
     75 1885520116.153 DT     0316 Rx 8  31 89 00 00 00 2A 00 7F 
     76 1885520116.398 DT     018F Rx 8  00 2F 00 00 00 64 00 00 
     77 1885520116.638 DT     0080 Rx 8  00 17 00 00 89 2A 00 38 
     78 1885520116.882 DT     0081 Rx 8  40 05 5F 00 00 00 00 B8 
     79 1885520117.127 DT     0260 Rx 8  0D 00 00 00 02 98 5F 0C 
     80 1885520117.367 DT     02A0 Rx 8  02 00 5F 80 37 12 9E 08 
     81 1885520117.595 DT     0329 Rx 8  4F 79 7E 0E 11 4A 00 10 
     82 1885520117.829 DT     0545 Rx 8  CF 00 00 7F 79 FE 79 FE 
     83 1885520121.931 DT     02B0 Rx 5  FF 7F 02 05 E1 
     84 1885520126.301 DT     0316 Rx 8  31 89 00 00 00 2A 00 7F 
     85 1885520126.547 DT     018F Rx 8  00 2F 00 00 00 64 00 00 
     86 1885520126.786 DT     0080 Rx 8  00 17 00 00 89 2A 00 29 
     87 1885520127.026 DT     0081 Rx 8  40 05 5F 00 00 00 00 A9 
     88 1885520127.271 DT     0260 Rx 8  0D 00 00 00 02 98 5F 1B 
     89 1885520127.505 DT     02A0 Rx 8  A2 00 5F 80 37 12 9E 08 
     90 1885520127.739 DT     0329 Rx 8  4F 79 7E 0E 11 47 00 10 
     91 1885520127.989 DT     0382 Rx 8  40 FE 0F 00 00 00 00 04 
     92 1885520128.222 DT     0545 Rx 8  CF 00 00 7E 79 FE 79 FE 
     93 1885520131.964 DT     02B0 Rx 5  FF 7F 00 05 F2 
     94 1885520135.192 DT     04F0 Rx 8  40 00 0A 00 00 D6 E3 1D 
     95 1885520135.460 DT     0690 Rx 8  00 00 01 00 00 20 04 00 
     96 1885520136.249 DT     0316 Rx 8  31 8A 00 00 00 2A 00 7F 
     97 1885520136.494 DT     018F Rx 8  00 2F 00 00 00 64 00 00 
     98 1885520136.739 DT     0080 Rx 8  00 17 00 00 8A 2A 00 0A 
     99 1885520136.978 DT     0081 Rx 8  40 05 5F 00 00 00 00 9A 
    100 1885520137.223 DT     0260 Rx 8  0C 00 00 00 02 98 5F 2B 
    101 1885520137.456 DT     02A0 Rx 8  C2 00 5F 80 37 12 9E 08 
    102 1885520137.686 DT     0329 Rx 8  4F 79 7E 0E 11 42 00 10 
    103 1885520137.924 DT     0545 Rx 8  CF 00 00 7E 79 FE 79 FE 
    104 1885520142.020 DT     02B0 Rx 5  FF 7F 00 05 E3 
    105 1885520146.162 DT     0316 Rx 8  31 8A 00 00 00 2A 00 7F 
    106 1885520146.406 DT     018F Rx 8  00 2F 00 00 00 64 00 00 
    107 1885520146.647 DT     0080 Rx 8  00 17 00 00 8A 2A 00 FB 
    108 1885520146.892 DT     0081 Rx 8  40 05 5F 00 00 00 00 8B 
    109 1885520147.131 DT     0260 Rx 8  0C 00 00 00 02 98 5F 3A 
    110 1885520147.371 DT     02A0 Rx 8  62 00 5F 80 37 12 9E 08 
    111 1885520147.599 DT     0329 Rx 8  4F 79 7E 0E 11 3C 00 10 
    112 1885520147.844 DT     0382 Rx 8  40 FE 0F 00 00 00 00 08 
    113 1885520148.084 DT     0545 Rx 8  CF 00 00 7E 79 FE 79 FE 
    114 1885520152.077 DT     02B0 Rx 5  FF 7F 00 05 94 
    115 1885520155.110 DT     04F0 Rx 8  40 00 0C 00 00 D6 E3 1D 
    116 1885520156.160 DT     0316 Rx 8  31 8B 00 00 00 2A 00 7F 
    117 1885520156.405 DT     018F Rx 8  00 2F 00 00 00 64 00 00 
    118 1885520156.646 DT     0080 Rx 8  00 17 00 00 8B 2A 00 DC 
    119 1885520156.891 DT     0081 Rx 8  40 05 5F 00 00 00 00 7C 
    120 1885520157.136 DT     0260 Rx 8  0B 00 00 00 02 98 5F 0E 
    121 1885520157.375 DT     02A0 Rx 8  02 00 5F 80 37 12 9E 08 
    122 1885520157.609 DT     0329 Rx 8  80 79 7E 0E 11 35 00 10 
    123 1885520157.842 DT     0545 Rx 8  CF 00 00 7E 79 FE 79 FE 
    124 1885520162.138 DT     02B0 Rx 5  FF 7F 00 05 85 
    125 1885520163.686 DT     05F0 Rx 2  00 00 
    126 1885520166.313 DT     0316 Rx 8  31 8B 00 00 00 2A 00 7F 
    127 1885520166.565 DT     018F Rx 8  00 2F 00 00 00 64 00 00 
    128 1885520166.803 DT     0080 Rx 8  00 17 00 00 8B 2A 00 CD 
    129 1885520167.043 DT     0081 Rx 8  40 05 5F 00 00 00 00 6D 
    130 1885520167.288 DT     0260 Rx 8  0B 00 00 00 02 98 5F 1D 
    131 1885520167.523 DT     02A0 Rx 8  A2 00 5F 80 37 12 9E 08 
    132 1885520167.756 DT     0329 Rx 8  80 79 7E 0E 11 31 00 10 
    133 1885520168.006 DT     0382 Rx 8  40 FE 0F 00 00 00 00 0C 
    134 1885520168.240 DT     0545 Rx 8  CF 00 00 7F 79 FE 79 FE 
    135 1885520172.182 DT     02B0 Rx 5  FF 7F 00 05 B6 
    136 1885520175.107 DT     04F0 Rx 8  40 00 0E 00 00 D6 E3 1D 
    137 1885520176.288 DT     0316 Rx 8  31 8C 00 00 00 2A 00 7F 
    138 1885520176.534 DT     018F Rx 8  00 2F 00 00 00 64 00 00 
    139 1885520176.779 DT     0080 Rx 8  00 17 00 00 8C 2A 00 AE 
    140 1885520177.019 DT     0081 Rx 8  40 05 5F 00 00 00 00 5E 
    141 1885520177.258 DT     0260 Rx 8  0B 00 00 00 02 98 5F 2C 
    142 1885520177.491 DT     02A0 Rx 8  C2 00 5F 80 37 12 9E 08 
    143 1885520177.732 DT     0329 Rx 8  80 79 7E 0E 11 2F 00 10 
    144 1885520177.965 DT     0545 Rx 8  CF 00 00 7D 79 FE 79 FE 
    145 1885520182.244 DT     02B0 Rx 5  FF 7F 00 05 A7 
    146 1885520186.113 DT     0316 Rx 8  31 8C 00 00 00 2A 00 7F 
    147 1885520186.358 DT     018F Rx 8  00 2F 00 00 00 64 00 00 
    148 1885520186.597 DT     0080 Rx 8  00 17 00 00 8C 2A 00 9F 
    149 1885520186.842 DT     0081 Rx 8  40 05 5F 00 00 00 00 4F 
    150 1885520187.082 DT     0260 Rx 8  0B 00 00 00 02 98 5F 3B 
    151 1885520187.315 DT     02A0 Rx 8  62 00 5F 80 37 12 9E 08 
    152 1885520187.550 DT     0329 Rx 8  80 79 7E 0E 11 2A 00 10 
    153 1885520187.800 DT     0382 Rx 8  40 FE 0F 00 00 00 00 00 
    154 1885520188.034 DT     0545 Rx 8  CF 00 00 7E 79 FE 79 FE 
    155 1885520191.737 DT     00A0 Rx 8  00 52 00 00 00 29 00 00 
    156 1885520191.975 DT     00A1 Rx 8  80 80 80 80 63 00 00 00 
    157 1885520192.300 DT     02B0 Rx 5  FF 7F 00 05 58 
    158 1885520195.111 DT     04F0 Rx 8  40 00 10 00 00 D6 E3 1D 
    159 1885520196.145 DT     0316 Rx 8  31 8C 00 00 00 2A 00 7F 
    160 1885520196.390 DT     018F Rx 8  00 2F 00 00 00 64 00 00 
    161 1885520196.629 DT     0080 Rx 8  00 17 00 00 8C 2A 00 80 
    162 1885520196.874 DT     0081 Rx 8  40 05 5F 00 00 00 00 30 
    163 1885520197.119 DT     0260 Rx 8  0A 00 00 00 02 98 5F 0F 
    164 1885520197.359 DT     02A0 Rx 8  02 00 5F 80 37 12 9E 08 
    165 1885520197.593 DT     0329 Rx 8  80 79 7E 0E 11 29 00 10 
    166 1885520197.827 DT     0545 Rx 8  CF 00 00 7E 79 FE 79 FE 
    167 1885520202.281 DT     02C0 Rx 8  10 00 00 00 00 00 00 00 
    168 1885520202.464 DT     02B0 Rx 5  FF 7F 00 05 49 
    169 1885520206.297 DT     0316 Rx 8  31 8C 00 00 00 2A 00 7F 
    170 1885520206.543 DT     018F Rx 8  00 2F 00 00 00 64 00 00 
    171 1885520206.782 DT     0080 Rx 8  00 17 00 00 8C 2A 00 71 
    172 1885520207.026 DT     0081 Rx 8  40 05 5F 00 00 00 00 21 
    173 1885520207.266 DT     0260 Rx 8  0A 00 00 00 02 98 5F 1E 
    174 1885520207.506 DT     02A0 Rx 8  A2 00 5F 80 37 12 9E 08 
    175 1885520207.734 DT     0329 Rx 8  80 79 7E 0E 11 29 00 10 
    176 1885520207.984 DT     0382 Rx 8  40 FE 0F 00 00 00 00 04 
    177 1885520208.218 DT     0545 Rx 8  CF 00 00 7E 79 FE 79 FE 
    178 1885520212.405 DT     02B0 Rx 5  FF 7F 00 05 7A 
    179 1885520213.708 DT     05F0 Rx 2  00 00 
    180 1885520215.226 DT     04F0 Rx 8  40 00 12 00 00 D6 E3 1D 
    181 1885520216.271 DT     0316 Rx 8  31 8C 00 00 00 2A 00 7F 
    182 1885520216.517 DT     018F Rx 8  00 2F 00 00 00 64 00 00 
    183 1885520216.762 DT     0080 Rx 8  00 17 00 00 8C 2A 00 62 
    184 1885520217.013 DT     0081 Rx 8  40 05 5F 00 00 00 00 12 
    185 1885520217.252 DT     0260 Rx 8  0A 00 00 00 02 98 5F 2D 
    186 1885520217.492 DT     02A0 Rx 8  C2 00 5F 80 37 12 9E 08 
    187 1885520217.720 DT     0329 Rx 8  D7 79 7E 0E 11 28 00 10 
    188 1885520217.953 DT     0545 Rx 8  CF 00 00 7E 79 FE 79 FE 
    189 1885520222.460 DT     02B0 Rx 5  FF 7F 00 05 6B 
    190 1885520223.242 DT     05FC Rx 5  95 00 00 00 00 
    191 1885520226.099 DT     0316 Rx 8  31 8C 00 00 00 2A 00 7F 
    192 1885520226.344 DT     018F Rx 8  00 2F 00 00 00 64 00 00 
    193 1885520226.584 DT     0080 Rx 8  00 17 00 00 8C 2A 00 53 
    194 1885520226.828 DT     0081 Rx 8  40 05 5F 00 00 00 00 03 
    195 1885520227.073 DT     0260 Rx 8  0A 00 00 00 02 98 5F 3C 
    196 1885520227.307 DT     02A0 Rx 8  62 00 5F 80 37 12 9E 08 
    197 1885520227.541 DT     0329 Rx 8  D7 79 7E 0E 11 28 00 10 
    198 1885520227.786 DT     0382 Rx 8  40 FE 0F 00 00 00 00 08 
    199 1885520228.019 DT     0545 Rx 8  CF 00 00 7E 79 FE 79 FE 
    200 1885520232.516 DT     02B0 Rx 5  FF 7F 00 05 1C 
    201 1885520235.190 DT     04F0 Rx 8  40 00 14 00 00 D6 E3 1D 
    202 1885520235.463 DT     0690 Rx 8  00 00 01 00 00 20 08 00 
    203 1885520236.126 DT     0316 Rx 8  31 8C 00 00 00 2A 00 7F 
    204 1885520236.376 DT     018F Rx 8  00 2F 00 00 00 64 00 00 
    205 1885520236.617 DT     0080 Rx 8  00 17 00 00 8C 2A 00 44 
    206 1885520236.862 DT     0081 Rx 8  40 05 5F 00 00 00 00 F4 
    207 1885520237.100 DT     0260 Rx 8  09 00 00 00 02 98 5F 00 
    208 1885520237.340 DT     02A0 Rx 8  02 00 5F 80 37 12 9E 08 
    209 1885520237.575 DT     0329 Rx 8  D7 79 7E 0E 11 28 00 10 
    210 1885520237.808 DT     0545 Rx 8  CF 00 00 7E 79 FE 79 FE 
    211 1885520242.579 DT     02B0 Rx 5  FF 7F 00 05 0D 
    212 1885520246.347 DT     0316 Rx 8  31 8C 00 00 00 2A 00 7F 
    213 1885520246.592 DT     018F Rx 8  00 2F 00 00 00 64 00 00 
    214 1885520246.832 DT     0080 Rx 8  00 17 00 00 8C 2A 00 35 
    215 1885520247.077 DT     0081 Rx 8  40 05 5F 00 00 00 00 E5 
    216 1885520247.322 DT     0260 Rx 8  09 00 00 00 02 98 5F 1F 
    217 1885520247.557 DT     02A0 Rx 8  A2 00 5F 80 37 12 9E 08 
    218 1885520247.791 DT     0329 Rx 8  D7 79 7E 0E 11 28 00 10 
    219 1885520248.036 DT     0382 Rx 8  40 FE 0F 00 00 00 00 0C 
    220 1885520248.269 DT     0545 Rx 8  CF 00 00 7E 79 FE 79 FE 
    221 1885520252.645 DT     02B0 Rx 5  FF 7F 00 05 3E 
    222 1885520255.170 DT     04F0 Rx 8  40 00 16 00 00 D6 E3 1D 
    223 1885520256.323 DT     0316 Rx 8  31 8C 00 00 00 2C 00 7F 
    224 1885520256.569 DT     018F Rx 8  00 2F 00 00 00 64 00 00 
    225 1885520256.808 DT     0080 Rx 8  00 17 00 00 8C 2C 00 06 
    226 1885520257.053 DT     0081 Rx 8  40 05 5F 00 00 00 00 D6 
    227 1885520257.298 DT     0260 Rx 8  09 00 00 00 02 98 5F 2E 
    228 1885520257.533 DT     02A0 Rx 8  C2 00 5F 80 37 12 9E 08 
    229 1885520257.767 DT     0329 Rx 8  D7 79 7E 0E 11 27 00 10 
    230 1885520258.000 DT     0545 Rx 8  CF 00 00 7E 61 FE 61 FE 
    231 1885520262.691 DT     02B0 Rx 5  FF 7F 00 05 2F 
    232 1885520263.684 DT     05F0 Rx 2  00 00 
    233 1885520266.117 DT     0316 Rx 8  31 8C 00 00 00 2C 00 7F 
    234 1885520266.367 DT     018F Rx 8  00 2F 00 00 00 64 00 00 
    235 1885520266.608 DT     0080 Rx 8  00 17 00 00 8C 2C 00 F7 
    236 1885520266.853 DT     0081 Rx 8  40 05 5F 00 00 00 00 C7 
    237 1885520267.092 DT     0260 Rx 8  09 00 00 00 02 98 5F 3D 
    238 1885520267.332 DT     02A0 Rx 8  62 00 5F 80 37 12 9E 08 
    239 1885520267.566 DT     0329 Rx 8  D7 79 7E 0E 11 27 00 10 
    240 1885520267.811 DT     0382 Rx 8  40 FE 0F 00 00 00 00 00 
    241 1885520268.045 DT     0545 Rx 8  CF 00 00 7E 61 FE 61 FE 
    242 1885520272.759 DT     02B0 Rx 5  FF 7F 00 05 D0 
    243 1885520275.089 DT     04F0 Rx 8  40 00 18 00 00 D6 E3 1D 
    244 1885520276.145 DT     0316 Rx 8  31 8C 00 00 00 2C 00 7F 
    245 1885520276.397 DT     018F Rx 8  00 2F 00 00 00 64 00 00 
    246 1885520276.631 DT     0080 Rx 8  00 17 00 00 8C 2C 00 E8 
    247 1885520276.876 DT     0081 Rx 8  40 05 5F 00 00 00 00 B8 
    248 1885520277.121 DT     0260 Rx 8  08 00 00 00 02 98 5F 01 
    249 1885520277.360 DT     02A0 Rx 8  02 00 5F 80 37 12 9E 08 
    250 1885520277.589 DT     0329 Rx 8  0F 79 7E 0E 11 27 00 10 
    251 1885520277.828 DT     0545 Rx 8  CF 00 00 7E 61 FE 61 FE 
    252 1885520282.822 DT     02B0 Rx 5  FF 7F 00 05 C1 
    253 1885520286.312 DT     0316 Rx 8  31 8C 00 00 00 2C 00 7F 
    254 1885520286.558 DT     018F Rx 8  00 2F 00 00 00 64 00 00 
    255 1885520286.797 DT     0080 Rx 8  00 17 00 00 8C 2C 00 D9 
    256 1885520287.042 DT     0081 Rx 8  40 05 5F 00 00 00 00 A9 
    257 1885520287.287 DT     0260 Rx 8  08 00 00 00 02 98 5F 10 
    258 1885520287.521 DT     02A0 Rx 8  A2 00 5F 80 37 12 9E 08 
    259 1885520287.754 DT     0329 Rx 8  0F 79 7E 0E 11 27 00 10 
    260 1885520287.999 DT     0382 Rx 8  40 FE 0F 00 00 00 00 04 
    261 1885520288.233 DT     0545 Rx 8  CF 00 00 7E 61 FE 61 FE 
    262 1885520289.169 DT     00A0 Rx 8  00 52 00 00 00 20 00 00 
    263 1885520289.408 DT     00A1 Rx 8  80 80 80 80 63 00 00 00 
    264 1885520292.887 DT     02B0 Rx 5  FF 7F 00 05 F2 
    265 1885520295.092 DT     04F0 Rx 8  40 00 1A 00 00 D6 E3 1D 
    266 1885520296.257 DT     0316 Rx 8  31 8C 00 00 00 2C 00 7F 
    267 1885520296.502 DT     018F Rx 8  00 2F 00 00 00 64 00 00 
    268 1885520296.742 DT     0080 Rx 8  00 17 00 00 8C 2C 00 CA 
    269 1885520296.987 DT     0081 Rx 8  40 05 5F 00 00 00 00 9A 
    270 1885520297.226 DT     0260 Rx 8  08 00 00 00 02 98 5F 2F 
    271 1885520297.459 DT     02A0 Rx 8  C2 00 5F 80 37 12 9E 08 
    272 1885520297.694 DT     0329 Rx 8  0F 79 7E 0E 11 27 00 10 
    273 1885520297.927 DT     0545 Rx 8  CF 00 00 7E 61 FE 61 FE 
    274 1885520302.308 DT     02C0 Rx 8  10 00 00 00 00 00 00 00 
    275 1885520302.931 DT     02B0 Rx 5  FF 7F 00 05 E3 
    276 1885520306.107 DT     0316 Rx 8  31 8C 00 00 00 2C 00 7F 
    277 1885520306.357 DT     018F Rx 8  00 2F 00 00 00 64 00 00 
    278 1885520306.598 DT     0080 Rx 8  00 17 00 00 8C 2C 00 BB 
    279 1885520306.837 DT     0081 Rx 8  40 05 5F 00 00 00 00 8B 
    280 1885520307.082 DT     0260 Rx 8  08 00 00 00 02 98 5F 3E 
    281 1885520307.315 DT     02A0 Rx 8  62 00 5F 80 37 12 9E 08 
    282 1885520307.549 DT     0329 Rx 8  0F 79 7E 0E 11 27 00 10 
    283 1885520307.794 DT     0382 Rx 8  40 FE 0F 00 00 00 00 08 
    284 1885520308.028 DT     0545 Rx 8  CF 00 00 7E 61 FE 61 FE 
    285 1885520310.085 DT     0350 Rx 8  00 10 04 7E 80 00 00 EA 
    286 1885520312.993 DT     02B0 Rx 5  FF 7F 00 05 94 
    287 1885520313.706 DT     05F0 Rx 2  00 00 
    288 1885520315.231 DT     04F0 Rx 8  40 00 1C 00 00 D6 E3 1D 
    289 1885520316.201 DT     0316 Rx 8  31 8C 00 00 00 2C 00 7F 
    290 1885520316.446 DT     018F Rx 8  00 2F 00 00 00 64 00 00 
    291 1885520316.687 DT     0080 Rx 8  00 17 00 00 8C 2C 00 AC 
    292 1885520316.932 DT     0081 Rx 8  40 05 5F 00 00 00 00 7C 
    293 1885520317.182 DT     0260 Rx 8  08 00 00 00 02 98 5F 01 
    294 1885520317.416 DT     02A0 Rx 8  02 00 5F 80 37 12 9E 08 
    295 1885520317.650 DT     0329 Rx 8  0F 79 7E 0E 11 27 00 10 
    296 1885520317.883 DT     0545 Rx 8  CF 00 00 7E 61 FE 61 FE 
    297 1885520318.037 DT     05E4 Rx 3  04 00 00 
    298 1885520320.299 DT     0350 Rx 8  00 10 14 7E 80 00 00 FA 
    299 1885520323.048 DT     02B0 Rx 5  FF 7F 00 05 85 
    300 1885520326.337 DT     0316 Rx 8  31 8C 00 00 00 2C 00 7F 
    301 1885520326.583 DT     018F Rx 8  00 2F 00 00 00 64 00 00 
    302 1885520326.823 DT     0080 Rx 8  00 17 00 00 8C 2C 00 9D 
    303 1885520327.068 DT     0081 Rx 8  40 05 5F 00 00 00 00 6D 
    304 1885520327.313 DT     0260 Rx 8  08 00 00 00 02 98 5F 10 
    305 1885520327.548 DT     02A0 Rx 8  A2 00 5F 80 37 12 9E 08 
    306 1885520327.781 DT     0329 Rx 8  0F 79 7E 0E 11 27 00 10 
    307 1885520328.026 DT     0382 Rx 8  40 FE 0F 00 00 00 00 0C 
    308 1885520328.260 DT     0545 Rx 8  CF 00 00 7E 61 FE 61 FE 
    309 1885520330.517 DT     0350 Rx 8  00 10 24 7E 80 00 00 CA 
    310 1885520333.108 DT     02B0 Rx 5  FF 7F 00 05 B6 
    311 1885520335.206 DT     04F0 Rx 8  40 00 1E 00 00 D6 E3 1D 
    312 1885520335.473 DT     0690 Rx 8  00 00 01 00 00 20 0C 00 
    313 1885520336.273 DT     0316 Rx 8  31 8C 00 00 00 2C 00 7F 
    314 1885520336.519 DT     018F Rx 8  00 2F 00 00 00 64 00 00 
    315 1885520336.758 DT     0080 Rx 8  00 17 00 00 8C 2C 00 8E 
    316 1885520337.003 DT     0081 Rx 8  40 05 5F 00 00 00 00 5E 
    317 1885520337.243 DT     0260 Rx 8  07 00 00 00 02 98 5F 20 
    318 1885520337.476 DT     02A0 Rx 8  C2 00 5F 80 37 12 9E 08 
    319 1885520337.711 DT     0329 Rx 8  4F 79 7E 0E 11 27 00 10 
    320 1885520337.944 DT     0545 Rx 8  CF 00 00 7E 61 FE 61 FE 
    321 1885520340.738 DT     0350 Rx 8  00 10 34 7E 80 00 00 DA 
    322 1885520343.136 DT     02B0 Rx 5  FF 7F 00 05 A7 
    323 1885520346.165 DT     0316 Rx 8  31 8C 00 00 00 2C 00 7F 
    324 1885520346.410 DT     018F Rx 8  00 2F 00 00 00 64 00 00 
    325 1885520346.649 DT     0080 Rx 8  00 17 00 00 8C 2C 00 7F 
    326 1885520346.894 DT     0081 Rx 8  40 05 5F 00 00 00 00 4F 
    327 1885520347.139 DT     0260 Rx 8  07 00 00 00 02 98 5F 3F 
    328 1885520347.372 DT     02A0 Rx 8  62 00 5F 80 37 12 9E 08 
    329 1885520347.606 DT     0329 Rx 8  4F 79 7E 0E 11 27 00 10 
    330 1885520347.858 DT     0382 Rx 8  40 FE 0F 00 00 00 00 00 
    331 1885520348.091 DT     0545 Rx 8  CF 00 00 7E 61 FE 61 FE 
    332 1885520350.954 DT     0350 Rx 8  00 10 44 7E 80 00 00 AA 
    333 1885520353.192 DT     02B0 Rx 5  FF 7F 00 05 58 
    334 1885520355.219 DT     04F0 Rx 8  40 00 20 00 00 D6 E3 1D 
    335 1885520356.179 DT     0316 Rx 8  31 8C 00 00 00 2C 00 7F 
    336 1885520356.424 DT     018F Rx 8  00 2F 00 00 00 64 00 00 
    337 1885520356.664 DT     0080 Rx 8  00 17 00 00 8C 2C 00 60 
    338 1885520356.909 DT     0081 Rx 8  40 05 5F 00 00 00 00 30 
    339 1885520357.154 DT     0260 Rx 8  07 00 00 00 02 98 5F 02 
    340 1885520357.393 DT     02A0 Rx 8  02 00 5F 80 37 12 9E 08 
    341 1885520357.622 DT     0329 Rx 8  4F 79 7E 0E 11 27 00 10 
    342 1885520357.855 DT     0545 Rx 8  CF 00 00 7E 61 FE 61 FE 
    343 1885520361.174 DT     0350 Rx 8  00 10 54 7E 80 00 00 BA 
    344 1885520363.247 DT     02B0 Rx 5  FF 7F 00 05 49 
    345 1885520363.716 DT     05F0 Rx 2  00 00 
    346 1885520366.337 DT     0316 Rx 8  31 8C 00 00 00 2C 00 7F 
    347 1885520366.583 DT     018F Rx 8  00 2F 00 00 00 64 00 00 
    348 1885520366.822 DT     0080 Rx 8  00 17 00 00 8C 2C 00 51 
    349 1885520367.067 DT     0081 Rx 8  40 05 5F 00 00 00 00 21 
    350 1885520367.312 DT     0260 Rx 8  07 00 00 00 02 98 5F 11 
    351 1885520367.546 DT     02A0 Rx 8  A2 00 5F 80 37 12 9E 08 
    352 1885520367.779 DT     0329 Rx 8  4F 79 7E 0E 11 27 00 10 
    353 1885520368.024 DT     0382 Rx 8  40 FE 0F 00 00 00 00 04 
    354 1885520368.258 DT     0545 Rx 8  CF 00 00 7E 61 FE 61 FE 
    355 1885520370.716 DT     0153 Rx 8  20 00 00 00 00 00 10 30 
    356 1885520371.388 DT     0350 Rx 8  00 10 64 7E 80 00 00 8A 
    357 1885520373.313 DT     02B0 Rx 5  FF 7F 00 05 7A 
    358 1885520375.141 DT     04F0 Rx 8  40 00 22 00 00 D6 E3 1D 
    359 1885520375.722 DT     0220 Rx 8  00 40 00 40 00 00 00 40 
    360 1885520375.974 DT     0164 Rx 8  00 08 01 00 00 00 01 08 
    361 1885520376.333 DT     0316 Rx 8  01 8C 00 00 00 2C 00 7F 
    362 1885520376.572 DT     0080 Rx 8  00 17 00 00 8C 2C 00 42 
    363 1885520376.824 DT     0081 Rx 8  40 05 5F 00 00 00 00 12 
    364 1885520377.069 DT     018F Rx 8  00 2F 00 00 00 64 00 00 
    365 1885520377.307 DT     0260 Rx 8  07 00 00 00 02 98 5F 20 
    366 1885520377.542 DT     02A0 Rx 8  C2 00 5F 80 37 12 9E 08 
    367 1885520377.775 DT     0329 Rx 8  4F 79 7E 0E 11 27 00 10 
    368 1885520378.008 DT     0545 Rx 8  CF 00 00 7E 61 FE 61 FE 
    369 1885520380.722 DT     0153 Rx 8  20 00 10 FF 00 FF 20 4E 
    370 1885520380.967 DT     0430 Rx 8  00 20 00 00 00 00 0E 00 
    371 1885520381.601 DT     0350 Rx 8  00 10 74 7E 80 00 00 9A 
    372 1885520383.365 DT     02B0 Rx 5  FF 7F 00 05 6B 
    373 1885520385.445 DT     0165 Rx 8  EA E7 7F 00 00 00 01 73 
    374 1885520385.725 DT     0220 Rx 8  00 40 00 40 00 00 00 40 
    375 1885520385.970 DT     0164 Rx 8  00 08 01 00 00 00 02 0B 
    376 1885520386.227 DT     01F1 Rx 8  0F 00 00 00 00 00 00 00 
    377 1885520386.465 DT     0316 Rx 8  05 8C 00 00 00 2C 00 7F 
    378 1885520386.706 DT     0080 Rx 8  00 17 00 00 8C 2C 00 33 
    379 1885520386.951 DT     0081 Rx 8  40 05 5F 00 00 00 00 03 
    380 1885520387.196 DT     018F Rx 8  00 2F 00 00 00 64 00 00 
    381 1885520387.441 DT     0260 Rx 8  07 00 00 00 02 98 5F 3F 
    382 1885520387.676 DT     02A0 Rx 8  E0 00 5F 80 37 12 9E 08 
    383 1885520387.909 DT     0329 Rx 8  4F 79 7E 0E 11 27 00 10 
    384 1885520388.154 DT     0382 Rx 8  40 FE 0F 00 00 00 00 08 
    385 1885520388.388 DT     0545 Rx 8  CF 00 00 7E 61 FE 61 FE 
    386 1885520390.582 DT     00A0 Rx 8  00 52 00 00 00 20 00 00 
    387 1885520390.821 DT     00A1 Rx 8  80 80 80 80 63 00 00 00 
    388 1885520391.067 DT     0153 Rx 8  20 00 10 FF 00 FF 30 5E 
    389 1885520391.820 DT     0350 Rx 8  00 10 84 7E 80 00 00 6A 
    390 1885520393.419 DT     02B0 Rx 5  FF 7F 00 05 1C 
    391 1885520395.173 DT     04F0 Rx 8  40 00 24 00 00 D6 E3 1D 
    392 1885520395.499 DT     0165 Rx 8  EA E7 7F 00 00 00 02 70 
    393 1885520395.749 DT     0220 Rx 8  00 40 00 40 00 00 00 40 
    394 1885520396.000 DT     0164 Rx 8  00 08 01 00 00 00 03 0A 
    395 1885520396.239 DT     0316 Rx 8  05 8C 00 00 00 2C 00 7F 
    396 1885520396.472 DT     0329 Rx 8  80 79 7E 0E 11 27 00 10 
    397 1885520396.713 DT     0080 Rx 8  00 17 00 00 8C 2C 00 24 
    398 1885520396.958 DT     0081 Rx 8  40 05 5F 00 00 00 00 F4 
    399 1885520397.203 DT     018F Rx 8  00 2F 00 00 00 64 00 00 
    400 1885520397.448 DT     0260 Rx 8  07 00 00 00 02 98 5F 02 
    401 1885520397.682 DT     02A0 Rx 8  80 00 5F 80 37 12 9E 08 
    402 1885520397.916 DT     0545 Rx 8  CF 00 00 7E 61 FE 61 FE 
    403 1885520400.715 DT     0153 Rx 8  20 00 10 FF 00 FF 40 6E 
    404 1885520400.966 DT     0430 Rx 8  00 40 00 00 00 00 0C 00 
    405 1885520402.039 DT     0350 Rx 8  00 10 94 7E 80 00 00 7A 
    406 1885520402.393 DT     02C0 Rx 8  10 00 00 00 00 00 00 00 
    407 1885520403.473 DT     02B0 Rx 5  FF 7F 00 05 0D 
    408 1885520405.558 DT     0165 Rx 8  EB E7 7F 00 00 00 03 70 
    409 1885520405.808 DT     0220 Rx 8  00 40 00 40 00 00 00 40 
    410 1885520406.053 DT     0164 Rx 8  00 08 01 00 00 00 04 0D 
    411 1885520406.304 DT     01F1 Rx 8  0F 00 00 00 00 00 00 00 
    412 1885520406.544 DT     02A0 Rx 8  20 00 5F 80 37 12 9E 08 
    413 1885520406.789 DT     0260 Rx 8  07 00 00 00 02 98 5F 11 
    414 1885520407.028 DT     0080 Rx 8  00 17 00 00 8C 2C 00 15 
    415 1885520407.273 DT     0081 Rx 8  40 05 5F 00 00 00 00 E5 
    416 1885520407.519 DT     018F Rx 8  00 2F 00 00 00 64 00 00 
    417 1885520407.758 DT     0316 Rx 8  05 8C 00 00 00 2C 00 7F 
    418 1885520407.991 DT     0329 Rx 8  80 79 7E 0E 11 27 00 10 
    419 1885520408.236 DT     0382 Rx 8  40 FE 0F 00 00 00 00 0C 
    420 1885520408.470 DT     0545 Rx 8  CF 00 00 7E 61 FE 61 FE 
    421 1885520410.715 DT     0153 Rx 8  20 00 10 FF 00 FF 50 7E 
    422 1885520412.251 DT     0350 Rx 8  00 10 A4 7E 80 00 00 4A 
    423 1885520413.548 DT     02B0 Rx 5  FF 7F 00 05 3E 
    424 1885520413.724 DT     05F0 Rx 2  00 00 
    425 1885520415.260 DT     04F0 Rx 8  40 00 26 00 00 D6 E3 1D 
    426 1885520415.626 DT     0165 Rx 8  EB E7 7F 00 00 00 04 77 
    427 1885520415.871 DT     0220 Rx 8  00 40 00 40 00 00 00 40 
    428 1885520416.116 DT     0164 Rx 8  00 08 01 00 00 00 05 0C 
    429 1885520416.361 DT     0316 Rx 8  05 8C 00 00 00 2C 00 7F 
    430 1885520416.607 DT     018F Rx 8  00 2F 00 00 00 64 00 00 
    431 1885520416.852 DT     0080 Rx 8  00 17 00 00 8C 2C 00 06 
    432 1885520417.097 DT     0081 Rx 8  40 05 5F 00 00 00 00 D6 
    433 1885520417.336 DT     0260 Rx 8  07 00 00 00 02 98 5F 20 
    434 1885520417.577 DT     02A0 Rx 8  40 00 5F 80 37 12 9E 08 
    435 1885520417.804 DT     0329 Rx 8  80 79 7E 0E 11 27 00 10 
    436 1885520418.044 DT     0545 Rx 8  CF 00 00 7E 61 FE 61 FE 
    437 1885520418.197 DT     05E4 Rx 3  04 00 00 
    438 1885520420.720 DT     0153 Rx 8  20 00 10 FF 00 FF 60 8E 
    439 1885520420.972 DT     0430 Rx 8  00 60 00 00 00 00 0A 00 
    440 1885520422.467 DT     0350 Rx 8  00 10 B4 7E 80 00 00 5A 
    441 1885520423.615 DT     02B0 Rx 5  00 00 00 07 8F 
    442 1885520425.689 DT     0165 Rx 8  EB E7 7F 00 00 00 05 76 
    443 1885520425.940 DT     0220 Rx 8  00 40 00 40 00 00 00 40 
    444 1885520426.185 DT     0164 Rx 8  00 08 01 00 00 00 06 0F 
    445 1885520426.435 DT     01F1 Rx 8  0F 00 00 00 00 00 00 00 
    446 1885520426.681 DT     018F Rx 8  00 2F 00 00 00 64 00 00 
    447 1885520426.926 DT     0080 Rx 8  00 17 00 00 8C 2C 00 F7 
    448 1885520427.170 DT     0081 Rx 8  40 85 5F 00 00 00 00 47 
    449 1885520427.410 DT     0260 Rx 8  06 00 00 00 02 98 5F 30 
    450 1885520427.645 DT     02A0 Rx 8  E0 00 5F 80 37 12 9E 08 
    451 1885520427.890 DT     0316 Rx 8  05 8C 00 00 00 2C 00 7F 
    452 1885520428.117 DT     0329 Rx 8  80 79 7E 0E 11 27 00 10 
    453 1885520428.368 DT     0382 Rx 8  40 FE 0F 00 00 00 00 00 
    454 1885520428.603 DT     0545 Rx 8  CA 00 00 7E 61 FE 61 FE 
    455 1885520430.711 DT     0153 Rx 8  20 00 10 FF 00 FF 70 9E 
    456 1885520432.693 DT     0350 Rx 8  00 10 C4 7E 80 00 00 2A 
    457 1885520433.652 DT     02B0 Rx 5  56 00 00 07 40 
    458 1885520435.241 DT     04F0 Rx 8  40 00 28 00 00 D6 E3 1D 
    459 1885520435.510 DT     0690 Rx 8  00 00 01 00 00 20 10 00 
    460 1885520435.748 DT     0165 Rx 8  E9 E7 7F 00 00 00 06 77 
    461 1885520436.000 DT     0220 Rx 8  00 40 00 40 00 00 00 40 
    462 1885520436.245 DT     0164 Rx 8  00 08 01 00 00 00 07 0E 
    463 1885520436.484 DT     0316 Rx 8  05 8C 00 00 00 2C 00 7F 
    464 1885520436.724 DT     0080 Rx 8  00 17 00 00 8C 2C 00 E8 
    465 1885520436.962 DT     0081 Rx 8  40 85 5F 00 00 00 00 38 
    466 1885520437.214 DT     018F Rx 8  00 2F 00 00 00 64 00 00 
    467 1885520437.452 DT     0260 Rx 8  06 00 00 00 02 98 5F 03 
    468 1885520437.693 DT     02A0 Rx 8  80 00 5F 80 37 12 9E 08 
    469 1885520437.927 DT     0329 Rx 8  80 79 7E 0E 11 27 00 10 
    470 1885520438.160 DT     0545 Rx 8  CA 00 00 7E 61 FE 61 FE 
    471 1885520440.719 DT     0153 Rx 8  20 00 10 FF 00 FF 80 AE 
    472 1885520440.971 DT     0430 Rx 8  00 80 00 00 00 00 08 00 
    473 1885520442.907 DT     0350 Rx 8  00 10 D4 7E 80 00 00 3A 
    474 1885520443.701 DT     02B0 Rx 5  56 00 00 07 51 
    475 1885520445.729 DT     0220 Rx 8  00 40 00 40 00 00 00 40 
    476 1885520445.974 DT     0164 Rx 8  00 08 01 00 00 00 08 01 
    477 1885520446.208 DT     0165 Rx 8  EA E7 7F 00 00 00 07 75 
    478 1885520446.458 DT     01F1 Rx 8  0F 00 00 00 00 00 00 00 
    479 1885520446.698 DT     0316 Rx 8  05 8C 00 00 00 2C 00 7F 
    480 1885520446.937 DT     0080 Rx 8  00 17 00 00 8C 2C 00 D9 
    481 1885520447.182 DT     0081 Rx 8  40 85 5F 00 00 00 00 29 
    482 1885520447.427 DT     018F Rx 8  00 2F 00 00 00 64 00 00 
    483 1885520447.667 DT     0260 Rx 8  06 00 00 00 02 98 5F 12 
    484 1885520447.912 DT     02A0 Rx 8  20 00 5F 80 37 12 9E 08 
    485 1885520448.140 DT     0329 Rx 8  80 79 7E 0E 11 27 00 10 
    486 1885520448.391 DT     0382 Rx 8  40 FE 0F 00 00 00 00 04 
    487 1885520448.625 DT     0545 Rx 8  CA 00 00 7E 61 FE 61 FE 
    488 1885520450.722 DT     0153 Rx 8  20 00 10 FF 00 FF 90 BE 
    489 1885520453.120 DT     0350 Rx 8  00 10 E4 7E 80 00 00 0A 
    490 1885520453.777 DT     02B0 Rx 5  56 00 00 07 62 
    491 1885520455.255 DT     04F0 Rx 8  40 00 2A 00 00 D6 E3 1D 
    492 1885520455.730 DT     0220 Rx 8  00 40 00 40 00 00 00 40 
    493 1885520455.974 DT     0164 Rx 8  00 08 01 00 00 00 09 00 
    494 1885520456.214 DT     0165 Rx 8  EB E7 7F 00 00 00 08 7B 
    495 1885520456.453 DT     0316 Rx 8  05 8C 00 00 00 2E 00 7F 
    496 1885520456.687 DT     0329 Rx 8  D7 79 7E 0E 11 27 00 10 
    497 1885520456.927 DT     0080 Rx 8  00 17 00 00 8C 2E 00 AA 
    498 1885520457.172 DT     0081 Rx 8  40 85 5F 00 00 00 00 1A 
    499 1885520457.417 DT     018F Rx 8  00 2F 00 00 00 64 00 00 
    500 1885520457.657 DT     0260 Rx 8  06 00 00 00 02 98 5F 21 
    501 1885520457.897 DT     02A0 Rx 8  40 00 5F 80 37 12 9E 08 
    502 1885520458.130 DT     0545 Rx 8  CA 00 00 7E 55 FE 55 FE 
    503 1885520460.730 DT     0153 Rx 8  20 00 10 FF 00 FF A0 CE 
    504 1885520460.975 DT     0430 Rx 8  00 A0 00 00 00 00 06 00 
    505 1885520463.338 DT     0350 Rx 8  00 10 F4 7E 80 00 00 1A 
    506 1885520463.727 DT     05F0 Rx 2  00 00 
    507 1885520463.908 DT     02B0 Rx 5  56 00 00 07 73 
    508 1885520465.730 DT     0220 Rx 8  00 40 00 40 00 00 00 40 
    509 1885520465.975 DT     0164 Rx 8  00 08 01 00 00 00 0A 03 
    510 1885520466.215 DT     0165 Rx 8  EA E7 7F 00 00 00 09 7B 
    511 1885520466.460 DT     01F1 Rx 8  0F 00 00 00 00 00 00 00 
    512 1885520466.699 DT     0080 Rx 8  00 17 00 00 8C 2E 00 9B 
    513 1885520466.944 DT     0081 Rx 8  40 85 5F 00 00 00 00 0B 
    514 1885520467.189 DT     018F Rx 8  00 2F 00 00 00 64 00 00 
    515 1885520467.429 DT     0260 Rx 8  06 00 00 00 02 98 5F 30 
    516 1885520467.663 DT     02A0 Rx 8  E0 00 5F 80 37 12 9E 08 
    517 1885520467.908 DT     0316 Rx 8  05 8C 00 00 00 2E 00 7F 
    518 1885520468.142 DT     0329 Rx 8  D7 79 7E 0E 11 27 00 10 
    519 1885520468.387 DT     0382 Rx 8  40 FE 0F 00 00 00 00 08 
    520 1885520468.622 DT     0545 Rx 8  CA 00 00 7E 55 FE 55 FE 
    521 1885520470.718 DT     0153 Rx 8  20 00 10 FF 00 FF B0 DE 
    522 1885520473.558 DT     0350 Rx 8  00 10 04 7E 80 00 00 EA 
    523 1885520473.888 DT     02B0 Rx 5  56 00 00 07 04 
    524 1885520475.207 DT     04F0 Rx 8  40 00 2C 00 00 D6 E3 1D 
    525 1885520475.733 DT     0220 Rx 8  00 40 00 40 00 00 00 40 
    526 1885520475.978 DT     0164 Rx 8  00 08 01 00 00 00 0B 02 
    527 1885520476.212 DT     0165 Rx 8  EA E7 7F 00 00 00 0A 78 
    528 1885520476.457 DT     0316 Rx 8  05 8C 00 00 00 2E 00 7F 
    529 1885520476.691 DT     0080 Rx 8  00 17 00 00 8C 2E 00 8C 
    530 1885520476.937 DT     0081 Rx 8  40 85 5F 00 00 00 00 FC 
    531 1885520477.182 DT     018F Rx 8  00 2F 00 00 00 64 00 00 
    532 1885520477.427 DT     0260 Rx 8  06 00 00 00 02 98 5F 03 
    533 1885520477.661 DT     02A0 Rx 8  80 00 5F 80 37 12 9E 08 
    534 1885520477.895 DT     0329 Rx 8  D7 79 7E 0E 11 27 00 10 
    535 1885520478.133 DT     0545 Rx 8  CA 00 00 7E 55 FE 55 FE 
    536 1885520480.728 DT     0153 Rx 8  20 00 10 FF 00 FF C0 EE 
    537 1885520480.973 DT     0430 Rx 8  00 C0 00 00 00 00 04 00 
    538 1885520483.772 DT     0350 Rx 8  00 10 14 7E 80 00 00 FA 
    539 1885520483.959 DT     02B0 Rx 5  56 00 00 07 15 
    540 1885520485.736 DT     0220 Rx 8  00 40 00 40 00 00 00 40 
    541 1885520485.981 DT     0164 Rx 8  00 08 01 00 00 00 0C 05 
    542 1885520486.221 DT     0165 Rx 8  EA E7 7F 00 00 00 0B 79 
    543 1885520486.466 DT     01F1 Rx 8  0F 00 00 00 00 00 00 00 
    544 1885520486.712 DT     0316 Rx 8  05 8C 00 00 00 2E 00 7F 
    545 1885520486.950 DT     0080 Rx 8  00 17 00 00 8C 2E 00 7D 
    546 1885520487.190 DT     0081 Rx 8  40 85 5F 00 00 00 00 ED 
    547 1885520487.440 DT     018F Rx 8  00 2F 00 00 00 64 00 00 
    548 1885520487.681 DT     0260 Rx 8  06 00 00 00 02 98 5F 12 
    549 1885520487.920 DT     02A0 Rx 8  20 00 5F 80 37 12 9E 08 
    550 1885520488.153 DT     0329 Rx 8  D7 79 7E 0E 11 27 00 10 
    551 1885520488.405 DT     0382 Rx 8  40 FE 0F 00 00 00 00 0C 
    552 1885520488.639 DT     0545 Rx 8  CA 00 00 7E 55 FE 55 FE 
    553 1885520489.311 DT     00A0 Rx 8  00 52 00 00 00 1F 00 00 
    554 1885520489.552 DT     00A1 Rx 8  80 80 80 80 63 00 00 00 
    555 1885520490.723 DT     0153 Rx 8  20 00 10 FF 00 FF D0 FE 
    556 1885520493.990 DT     0350 Rx 8  00 10 24 7E 80 00 00 CA 
    557 1885520494.173 DT     02B0 Rx 5  56 00 00 07 26 
    558 1885520495.161 DT     04F0 Rx 8  40 00 2E 00 00 D6 E3 1D 
    559 1885520495.731 DT     0220 Rx 8  00 40 00 40 00 00 00 40 
    560 1885520495.983 DT     0164 Rx 8  00 08 01 00 00 00 0D 04 
    561 1885520496.216 DT     0165 Rx 8  E9 E7 7F 00 00 00 0C 7D 
    562 1885520496.455 DT     02A0 Rx 8  40 00 5F 80 37 12 9E 08 
    563 1885520496.695 DT     0260 Rx 8  06 00 00 00 02 98 5F 21 
    564 1885520496.941 DT     0080 Rx 8  00 17 00 00 8C 2E 00 6E 
    565 1885520497.179 DT     0081 Rx 8  40 85 5F 00 00 00 00 DE 
    566 1885520497.424 DT     018F Rx 8  00 2F 00 00 00 64 00 00 
    567 1885520497.670 DT     0316 Rx 8  05 8C 00 00 00 2E 00 7F 
    568 1885520497.903 DT     0329 Rx 8  D7 79 7E 0E 11 27 00 10 
    569 1885520498.137 DT     0545 Rx 8  CA 00 00 7E 55 FE 55 FE 
    570 1885520500.731 DT     0153 Rx 8  20 00 10 FF 00 FF E0 0E 
    571 1885520500.976 DT     0430 Rx 8  00 E0 00 00 00 00 02 00 
    572 1885520502.426 DT     02C0 Rx 8  10 00 00 00 00 00 00 00 
    573 1885520504.049 DT     02B0 Rx 5  56 00 00 07 37 
    574 1885520504.287 DT     0350 Rx 8  00 10 34 7E 80 00 00 DA 
    575 1885520505.733 DT     0220 Rx 8  00 40 00 40 00 00 00 40 
    576 1885520505.977 DT     0164 Rx 8  00 08 01 00 00 00 0E 07 
    577 1885520506.217 DT     0165 Rx 8  EA E7 7F 00 00 00 0D 7F 
    578 1885520506.462 DT     01F1 Rx 8  0F 00 00 00 00 00 00 00 
    579 1885520506.707 DT     0080 Rx 8  00 17 00 00 8C 2E 00 5F 
    580 1885520506.952 DT     0081 Rx 8  40 85 5F 00 00 00 00 CF 
    581 1885520507.198 DT     018F Rx 8  00 2F 00 00 00 64 00 00 
    582 1885520507.436 DT     0260 Rx 8  06 00 00 00 02 98 5F 30 
    583 1885520507.670 DT     02A0 Rx 8  E0 00 5F 80 37 12 9E 08 
    584 1885520507.915 DT     0316 Rx 8  05 8C 00 00 00 2E 00 7F 
    585 1885520508.149 DT     0329 Rx 8  D7 79 7E 0E 11 27 00 10 
    586 1885520508.394 DT     0382 Rx 8  40 FE 0F 00 00 00 00 00 
    587 1885520508.634 DT     0545 Rx 8  CA 00 00 7E 55 FE 55 FE 
    588 1885520510.719 DT     0153 Rx 8  20 00 10 FF 00 FF 00 2E 
    589 1885520513.746 DT     05F0 Rx 2  00 00 
    590 1885520514.105 DT     02B0 Rx 5  56 00 00 07 C8 
    591 1885520514.425 DT     0350 Rx 8  00 10 44 7E 80 00 00 AA 
    592 1885520515.292 DT     04F0 Rx 8  40 00 30 00 00 D6 E3 1D 
    593 1885520515.732 DT     0220 Rx 8  00 40 00 40 00 00 00 40 
    594 1885520515.977 DT     0164 Rx 8  00 08 01 00 00 00 0F 06 
    595 1885520516.210 DT     0165 Rx 8  EC E7 7F 00 00 00 0E 7A 
    596 1885520516.450 DT     02A0 Rx 8  80 00 5F 80 37 12 9E 08 
    597 1885520516.696 DT     0260 Rx 8  06 00 00 00 02 98 5F 03 
    598 1885520516.935 DT     0080 Rx 8  00 17 00 00 8C 2E 00 40 
    599 1885520517.175 DT     0081 Rx 8  40 85 5F 00 00 00 00 B0 
    600 1885520517.420 DT     018F Rx 8  00 2F 00 00 00 64 00 00 
    601 1885520517.666 DT     0316 Rx 8  05 8C 00 00 00 2E 00 7F 
    602 1885520517.899 DT     0329 Rx 8  0F 79 7E 0E 11 27 00 10 
    603 1885520518.133 DT     0545 Rx 8  CA 00 00 7E 55 FE 55 FE 
    604 1885520518.286 DT     05E4 Rx 3  04 00 00 
    605 1885520520.737 DT     0153 Rx 8  20 00 10 FF 00 FF 10 3E 
    606 1885520520.987 DT     0430 Rx 8  00 00 00 00 00 00 00 00 
    607 1885520524.164 DT     02B0 Rx 5  56 00 00 07 D9 
    608 1885520524.643 DT     0350 Rx 8  00 10 54 7E 80 00 00 BA 
    609 1885520525.734 DT     0220 Rx 8  00 40 00 40 00 00 00 40 
    610 1885520525.985 DT     0164 Rx 8  00 08 01 00 00 00 00 09 
    611 1885520526.230 DT     01F1 Rx 8  0F 00 00 00 00 00 00 00 
    612 1885520526.469 DT     0165 Rx 8  EA E7 7F 00 00 00 0F 7D 
    613 1885520526.714 DT     0316 Rx 8  05 8C 00 00 00 2E 00 7F 
    614 1885520526.959 DT     018F Rx 8  00 2F 00 00 00 64 00 00 
    615 1885520527.199 DT     0080 Rx 8  00 17 00 00 8C 2E 00 31 
    616 1885520527.444 DT     0081 Rx 8  40 85 5F 00 00 00 00 A1 
    617 1885520527.684 DT     0260 Rx 8  06 00 00 00 02 98 5F 12 
    618 1885520527.923 DT     02A0 Rx 8  20 00 5F 80 37 12 9E 08 
    619 1885520528.157 DT     0329 Rx 8  0F 79 7E 0E 11 27 00 10 
    620 1885520528.402 DT     0382 Rx 8  40 FE 0F 00 00 00 00 04 
    621 1885520528.637 DT     0545 Rx 8  CA 00 00 7E 55 FE 55 FE 
    622 1885520530.722 DT     0153 Rx 8  20 00 10 FF 00 FF 20 4E 
    623 1885520534.223 DT     02B0 Rx 5  56 00 00 07 EA 
    624 1885520534.858 DT     0350 Rx 8  00 10 64 7E 80 00 00 8A 
    625 1885520535.275 DT     04F0 Rx 8  40 00 32 00 00 D6 E3 1D 
    626 1885520535.583 DT     0690 Rx 8  00 00 01 00 00 20 14 00 
    627 1885520535.834 DT     0220 Rx 8  00 40 00 40 00 00 00 40 
    628 1885520536.079 DT     0164 Rx 8  00 08 01 00 00 00 01 08 
    629 1885520536.317 DT     0165 Rx 8  EA E7 7F 00 00 00 00 72 
    630 1885520536.558 DT     02A0 Rx 8  40 00 5F 80 37 12 9E 08 
    631 1885520536.797 DT     0260 Rx 8  06 00 00 00 02 98 5F 21 
    632 1885520537.042 DT     0080 Rx 8  00 17 00 00 8C 2E 00 22 
    633 1885520537.282 DT     0081 Rx 8  40 85 5F 00 00 00 00 92 
    634 1885520537.528 DT     018F Rx 8  00 2F 00 00 00 64 00 00 
    635 1885520537.773 DT     0316 Rx 8  05 8C 00 00 00 2E 00 7F 
    636 1885520538.006 DT     0329 Rx 8  0F 79 7E 0E 11 27 00 10 
    637 1885520538.240 DT     0545 Rx 8  CA 00 00 7E 55 FE 55 FE 
    638 1885520540.737 DT     0153 Rx 8  20 00 10 FF 00 FF 30 5E 
    639 1885520540.982 DT     0430 Rx 8  00 20 00 00 00 00 0E 00 
    640 1885520544.266 DT     02B0 Rx 5  56 00 00 07 FB 
    641 1885520545.072 DT     0350 Rx 8  00 10 74 7E 80 00 00 9A 
    642 1885520545.734 DT     0220 Rx 8  00 40 00 40 00 00 00 40 
    643 1885520545.985 DT     0164 Rx 8  00 08 01 00 00 00 02 0B 
    644 1885520546.235 DT     01F1 Rx 8  0F 00 00 00 00 00 00 00 
    645 1885520546.475 DT     0165 Rx 8  EA E7 7F 00 00 00 01 73 
    646 1885520546.714 DT     0260 Rx 8  06 00 00 00 02 98 5F 30 
    647 1885520546.954 DT     0080 Rx 8  00 17 00 00 8C 2E 00 13 
    648 1885520547.199 DT     0081 Rx 8  40 85 5F 00 00 00 00 83 
    649 1885520547.444 DT     018F Rx 8  00 2F 00 00 00 64 00 00 
    650 1885520547.679 DT     02A0 Rx 8  E0 00 5F 80 37 12 9E 08 
    651 1885520547.924 DT     0316 Rx 8  05 8C 00 00 00 2E 00 7F 
    652 1885520548.151 DT     0329 Rx 8  0F 79 7E 0E 11 27 00 10 
    653 1885520548.402 DT     0382 Rx 8  40 FE 0F 00 00 00 00 08 
    654 1885520548.637 DT     0545 Rx 8  CA 00 00 7E 55 FE 55 FE 
    655 1885520550.721 DT     0153 Rx 8  20 00 10 FF 00 FF 40 6E 
    656 1885520554.319 DT     02B0 Rx 5  56 00 00 07 8C 
    657 1885520555.256 DT     04F0 Rx 8  40 00 34 00 00 D6 E3 1D 
    658 1885520555.495 DT     0350 Rx 8  00 10 84 7E 80 00 00 6A 
    659 1885520555.746 DT     0220 Rx 8  00 40 00 40 00 00 00 40 
    660 1885520555.992 DT     0164 Rx 8  00 08 01 00 00 00 03 0A 
    661 1885520556.310 DT     0316 Rx 8  05 8C 00 00 00 2E 00 7F 
    662 1885520556.551 DT     0080 Rx 8  00 17 00 00 8C 2E 00 04 
    663 1885520556.796 DT     0081 Rx 8  40 85 5F 00 00 00 00 74 
    664 1885520557.030 DT     0165 Rx 8  EA E7 7F 00 00 00 02 70 
    665 1885520557.275 DT     018F Rx 8  00 2F 00 00 00 64 00 00 
    666 1885520557.521 DT     0260 Rx 8  06 00 00 00 02 98 5F 03 
    667 1885520557.754 DT     02A0 Rx 8  80 00 5F 80 37 12 9E 08 
    668 1885520557.988 DT     0329 Rx 8  0F 79 7E 0E 11 27 00 10 
    669 1885520558.226 DT     0545 Rx 8  CA 00 00 7E 55 FE 55 FE 
    670 1885520560.730 DT     0153 Rx 8  20 00 10 FF 00 FF 50 7E 
    671 1885520560.980 DT     0430 Rx 8  00 40 00 00 00 00 0C 00 
    672 1885520563.734 DT     05F0 Rx 2  00 00 
    673 1885520564.367 DT     02B0 Rx 5  56 00 00 07 9D 
    674 1885520565.504 DT     0350 Rx 8  00 10 94 7E 80 00 00 7A 
    675 1885520565.754 DT     0220 Rx 8  00 40 00 40 00 00 00 40 
    676 1885520565.999 DT     0164 Rx 8  00 08 01 00 00 00 04 0D 
    677 1885520566.250 DT     01F1 Rx 8  0F 00 00 00 00 00 00 00 
    678 1885520566.490 DT     0165 Rx 8  EA E7 7F 00 00 00 03 71 
    679 1885520566.730 DT     0316 Rx 8  05 8C 00 00 00 2E 00 7F 
    680 1885520566.968 DT     0080 Rx 8  00 17 00 00 8C 2E 00 F5 
    681 1885520567.208 DT     0081 Rx 8  40 85 5F 00 00 00 00 65 
    682 1885520567.458 DT     018F Rx 8  00 2F 00 00 00 64 00 00 
    683 1885520567.699 DT     0260 Rx 8  06 00 00 00 02 98 5F 12 
    684 1885520567.937 DT     02A0 Rx 8  20 00 5F 80 37 12 9E 08 
    685 1885520568.171 DT     0329 Rx 8  0F 79 7E 0E 11 27 00 10 
    686 1885520568.416 DT     0382 Rx 8  40 FE 0F 00 00 00 00 0C 
    687 1885520568.656 DT     0545 Rx 8  CA 00 00 7E 55 FE 55 FE 
    688 1885520570.730 DT     0153 Rx 8  20 00 10 FF 00 FF 60 8E 
    689 1885520574.425 DT     02B0 Rx 5  56 00 00 07 AE 
    690 1885520575.201 DT     04F0 Rx 8  40 00 36 00 00 D6 E3 1D 
    691 1885520575.721 DT     0350 Rx 8  00 10 A4 7E 80 00 00 4A 
    692 1885520575.972 DT     0220 Rx 8  00 40 00 40 00 00 00 40 
    693 1885520576.217 DT     0164 Rx 8  00 08 01 00 00 00 05 0C 
    694 1885520576.456 DT     0316 Rx 8  05 8C 00 00 00 2E 00 7F 
    695 1885520576.697 DT     0165 Rx 8  EB E7 7F 00 00 00 04 77 
    696 1885520576.930 DT     0080 Rx 8  00 17 00 00 8C 2E 00 E6 
    697 1885520577.175 DT     0081 Rx 8  40 85 5F 00 00 00 00 56 
    698 1885520577.420 DT     018F Rx 8  00 2F 00 00 00 64 00 00 
    699 1885520577.660 DT     0260 Rx 8  06 00 00 00 02 98 5F 21 
    700 1885520577.900 DT     02A0 Rx 8  40 00 5F 80 37 12 9E 08 
    701 1885520578.133 DT     0329 Rx 8  4F 79 7E 0E 11 27 00 10 
    702 1885520578.367 DT     0545 Rx 8  CA 00 00 7E 55 FE 55 FE 
    703 1885520580.727 DT     0153 Rx 8  20 00 10 FF 00 FF 70 9E 
    704 1885520580.977 DT     0430 Rx 8  00 60 00 00 00 00 0A 00 
    705 1885520584.479 DT     02B0 Rx 5  56 00 00 07 BF 
    706 1885520585.736 DT     0220 Rx 8  00 40 00 40 00 00 00 40 
    707 1885520585.986 DT     0164 Rx 8  00 08 01 00 00 00 06 0F 
    708 1885520586.237 DT     01F1 Rx 8  0F 00 00 00 00 00 00 00 
    709 1885520586.483 DT     0260 Rx 8  06 00 00 00 02 98 5F 30 
    710 1885520586.717 DT     0165 Rx 8  EB E7 7F 00 00 00 05 76 
    711 1885520586.956 DT     0080 Rx 8  00 17 00 00 8C 2E 00 D7 
    712 1885520587.200 DT     0081 Rx 8  40 85 5F 00 00 00 00 47 
    713 1885520587.445 DT     018F Rx 8  00 2F 00 00 00 64 00 00 
    714 1885520587.680 DT     02A0 Rx 8  E0 00 5F 80 37 12 9E 08 
    715 1885520587.924 DT     0316 Rx 8  05 8C 00 00 00 2E 00 7F 
    716 1885520588.158 DT     0329 Rx 8  4F 79 7E 0E 11 27 00 10 
    717 1885520588.398 DT     0350 Rx 8  00 10 B4 7E 80 00 00 5A 
    718 1885520588.644 DT     0382 Rx 8  40 FE 0F 00 00 00 00 00 
    719 1885520588.877 DT     0545 Rx 8  CA 00 00 7E 55 FE 55 FE 
    720 1885520590.734 DT     0153 Rx 8  20 00 10 FF 00 FF 80 AE 
    721 1885520590.979 DT     00A0 Rx 8  00 52 00 00 00 1F 00 00 
    722 1885520591.224 DT     00A1 Rx 8  80 80 80 80 64 00 00 00 
    723 1885520594.554 DT     02B0 Rx 5  56 00 00 07 40 
    724 1885520595.199 DT     04F0 Rx 8  40 00 38 00 00 D6 E3 1D 
    725 1885520595.742 DT     0220 Rx 8  00 40 00 40 00 00 00 40 
    726 1885520595.987 DT     0164 Rx 8  00 08 01 00 00 00 07 0E 
    727 1885520596.225 DT     0350 Rx 8  00 10 C4 7E 80 00 00 2A 
    728 1885520596.470 DT     0260 Rx 8  06 00 00 00 02 98 5F 03 
    729 1885520596.704 DT     0165 Rx 8  EA E7 7F 00 00 00 06 74 
    730 1885520596.949 DT     0080 Rx 8  00 17 00 00 8C 2E 00 C8 
    731 1885520597.189 DT     0081 Rx 8  40 85 5F 00 00 00 00 38 
    732 1885520597.434 DT     018F Rx 8  00 2F 00 00 00 64 00 00 
    733 1885520597.674 DT     02A0 Rx 8  80 00 5F 80 37 12 9E 08 
    734 1885520597.914 DT     0316 Rx 8  05 8C 00 00 00 2E 00 7F 
    735 1885520598.147 DT     0329 Rx 8  4F 79 7E 0E 11 27 00 10 
    736 1885520598.381 DT     0545 Rx 8  CA 00 00 7E 55 FE 55 FE 
    737 1885520600.734 DT     0153 Rx 8  20 00 10 FF 00 FF 90 BE 
    738 1885520600.979 DT     0430 Rx 8  00 80 00 00 00 00 08 00 
    739 1885520602.442 DT     02C0 Rx 8  10 00 00 00 00 00 00 00 
    740 1885520604.596 DT     02B0 Rx 5  56 00 00 07 51 
    741 1885520605.737 DT     0220 Rx 8  00 40 00 40 00 00 00 40 
    742 1885520605.989 DT     0164 Rx 8  00 08 01 00 00 00 08 01 
    743 1885520606.239 DT     01F1 Rx 8  0F 00 00 00 00 00 00 00 
    744 1885520606.479 DT     0316 Rx 8  05 8C 00 00 00 2E 00 7F 
    745 1885520606.713 DT     0165 Rx 8  EA E7 7F 00 00 00 07 75 
    746 1885520606.952 DT     0080 Rx 8  00 17 00 00 8C 2E 00 B9 
    747 1885520607.196 DT     0081 Rx 8  40 85 5F 00 00 00 00 29 
    748 1885520607.441 DT     018F Rx 8  00 2F 00 00 00 64 00 00 
    749 1885520607.682 DT     0260 Rx 8  06 00 00 00 02 98 5F 12 
    750 1885520607.927 DT     02A0 Rx 8  20 00 5F 80 37 12 9E 08 
    751 1885520608.154 DT     0329 Rx 8  4F 79 7E 0E 11 27 00 10 
    752 1885520608.394 DT     0350 Rx 8  00 10 D4 7E 80 00 00 3A 
    753 1885520608.640 DT     0382 Rx 8  40 FE 0F 00 00 00 00 04 
    754 1885520608.879 DT     0545 Rx 8  CA 00 00 7E 55 FE 55 FE 
    755 1885520610.730 DT     0153 Rx 8  20 00 10 FF 00 FF A0 CE 
    756 1885520613.700 DT     05F0 Rx 2  00 00 
    757 1885520614.653 DT     02B0 Rx 5  56 00 00 07 62 
    758 1885520615.183 DT     04F0 Rx 8  40 00 3A 00 00 D6 E3 1D 
    759 1885520615.744 DT     0220 Rx 8  00 40 00 40 00 00 00 40 
    760 1885520615.989 DT     0164 Rx 8  00 08 01 00 00 00 09 00 
    761 1885520616.417 DT     0316 Rx 8  05 8C 00 00 00 2E 00 7F 
    762 1885520616.656 DT     0080 Rx 8  00 17 00 00 8C 2E 00 AA 
    763 1885520616.901 DT     0081 Rx 8  40 85 5F 00 00 00 00 1A 
    764 1885520617.135 DT     0165 Rx 8  E8 E7 7F 00 00 00 08 78 
    765 1885520617.379 DT     018F Rx 8  00 2F 00 00 00 64 00 00 
    766 1885520617.620 DT     0260 Rx 8  05 00 00 00 02 98 5F 22 
    767 1885520617.859 DT     02A0 Rx 8  40 00 5F 80 37 12 9E 08 
    768 1885520618.092 DT     0329 Rx 8  4F 79 7E 0E 11 27 00 10 
    769 1885520618.332 DT     0350 Rx 8  00 10 E4 7E 80 00 00 0A 
    770 1885520618.567 DT     0545 Rx 8  CA 00 00 7E 55 FE 55 FE 
    771 1885520618.720 DT     05E4 Rx 3  04 00 00 
    772 1885520620.730 DT     0153 Rx 8  20 00 10 FF 00 FF B0 DE 
    773 1885520620.981 DT     0430 Rx 8  00 A0 00 00 00 00 06 00 
    774 1885520624.717 DT     02B0 Rx 5  56 00 00 07 73 
    775 1885520625.745 DT     0220 Rx 8  00 40 00 40 00 00 00 40 
    776 1885520625.995 DT     0164 Rx 8  00 08 01 00 00 00 0A 03 
    777 1885520626.247 DT     01F1 Rx 8  0F 00 00 00 00 00 00 00 
    778 1885520626.486 DT     0316 Rx 8  05 8C 00 00 00 2E 00 7F 
    779 1885520626.731 DT     018F Rx 8  00 2F 00 00 00 64 00 00 
    780 1885520626.971 DT     0080 Rx 8  00 17 00 00 8C 2E 00 9B 
    781 1885520627.216 DT     0081 Rx 8  40 85 5F 00 00 00 00 0B 
    782 1885520627.449 DT     0165 Rx 8  EB E7 7F 00 00 00 09 7A 
    783 1885520627.689 DT     0260 Rx 8  05 00 00 00 02 98 5F 31 
    784 1885520627.922 DT     02A0 Rx 8  E0 00 5F 80 37 12 9E 08 
    785 1885520628.156 DT     0329 Rx 8  4F 79 7E 0E 11 27 00 10 
    786 1885520628.395 DT     0350 Rx 8  00 10 F4 7E 80 00 00 1A 
    787 1885520628.641 DT     0382 Rx 8  40 FE 0F 00 00 00 00 08 
    788 1885520628.880 DT     0545 Rx 8  CA 00 00 7E 55 FE 55 FE 
    789 1885520630.731 DT     0153 Rx 8  20 00 10 FF 00 FF C0 EE 
    790 1885520634.788 DT     02B0 Rx 5  56 00 00 07 04 
    791 1885520635.199 DT     04F0 Rx 8  40 00 3C 00 00 D6 E3 1D 
    792 1885520635.466 DT     0690 Rx 8  00 00 01 00 00 20 18 00 
    793 1885520635.740 DT     0220 Rx 8  00 40 00 40 00 00 00 40 
    794 1885520635.991 DT     0164 Rx 8  00 08 01 00 00 00 0B 02 
    795 1885520636.282 DT     0316 Rx 8  05 8C 00 00 00 2E 00 7F 
    796 1885520636.521 DT     0080 Rx 8  00 17 00 00 8C 2E 00 8C 
    797 1885520636.761 DT     0081 Rx 8  40 85 5F 00 00 00 00 FC 
    798 1885520636.994 DT     0165 Rx 8  E8 E7 7F 00 00 00 0A 7A 
    799 1885520637.244 DT     018F Rx 8  00 2F 00 00 00 64 00 00 
    800 1885520637.485 DT     0260 Rx 8  05 00 00 00 02 98 5F 04 
    801 1885520637.718 DT     02A0 Rx 8  80 00 5F 80 37 12 9E 08 
    802 1885520637.952 DT     0329 Rx 8  80 79 7E 0E 11 27 00 10 
    803 1885520638.191 DT     0350 Rx 8  00 10 04 7E 80 00 00 EA 
    804 1885520638.431 DT     0545 Rx 8  CA 00 00 7E 55 FE 55 FE 
    805 1885520640.745 DT     0153 Rx 8  20 00 10 FF 00 FF D0 FE 
    806 1885520640.990 DT     0430 Rx 8  00 C0 00 00 00 00 04 00 
    807 1885520644.829 DT     02B0 Rx 5  56 00 00 07 15 
    808 1885520645.743 DT     0220 Rx 8  00 40 00 40 00 00 00 40 
    809 1885520645.993 DT     0164 Rx 8  00 08 01 00 00 00 0C 05 
    810 1885520646.244 DT     01F1 Rx 8  0F 00 00 00 00 00 00 00 
    811 1885520646.507 DT     0316 Rx 8  05 8C 00 00 00 2E 00 7F 
    812 1885520646.751 DT     018F Rx 8  00 2F 00 00 00 64 00 00 
    813 1885520646.991 DT     0165 Rx 8  EA E7 7F 00 00 00 0B 79 
    814 1885520647.230 DT     0080 Rx 8  00 17 00 00 8C 2E 00 7D 
    815 1885520647.470 DT     0081 Rx 8  40 85 5F 00 00 00 00 ED 
    816 1885520647.709 DT     0260 Rx 8  05 00 00 00 02 98 5F 13 
    817 1885520647.949 DT     02A0 Rx 8  20 00 5F 80 37 12 9E 08 
    818 1885520648.183 DT     0329 Rx 8  80 79 7E 0E 11 27 00 10 
    819 1885520648.428 DT     0350 Rx 8  00 10 14 7E 80 00 00 FA 
    820 1885520648.674 DT     0382 Rx 8  40 FE 0F 00 00 00 00 0C 
    821 1885520648.907 DT     0545 Rx 8  CA 00 00 7E 55 FE 55 FE 
    822 1885520650.735 DT     0153 Rx 8  20 00 10 FF 00 FF E0 0E 
    823 1885520654.883 DT     02B0 Rx 5  56 00 00 07 26 
    824 1885520655.230 DT     04F0 Rx 8  40 00 3E 00 00 D6 E3 1D 
    825 1885520655.744 DT     0220 Rx 8  00 40 00 40 00 00 00 40 
    826 1885520655.995 DT     0164 Rx 8  00 08 01 00 00 00 0D 04 
    827 1885520656.439 DT     0316 Rx 8  05 8C 00 00 00 30 00 7F 
    828 1885520656.680 DT     0080 Rx 8  00 17 00 00 8C 30 00 3E 
    829 1885520656.925 DT     0081 Rx 8  40 85 5F 00 00 00 00 DE 
    830 1885520657.159 DT     0165 Rx 8  EA E7 7F 00 00 00 0C 7E 
    831 1885520657.404 DT     018F Rx 8  00 2F 00 00 00 64 00 00 
    832 1885520657.643 DT     0260 Rx 8  05 00 00 00 02 98 5F 22 
    833 1885520657.883 DT     02A0 Rx 8  40 00 5F 80 37 12 9E 08 
    834 1885520658.117 DT     0329 Rx 8  80 79 7E 0E 11 27 00 10 
    835 1885520658.355 DT     0350 Rx 8  00 10 24 7E 80 00 00 CA 
    836 1885520658.596 DT     0545 Rx 8  CA 00 00 7E 4F FE 4F FE 
    837 1885520660.743 DT     0153 Rx 8  20 00 10 FF 00 FF 00 2E 
    838 1885520660.988 DT     0430 Rx 8  00 E0 00 00 00 00 02 00 
    839 1885520663.731 DT     05F0 Rx 2  00 00 
    840 1885520664.947 DT     02B0 Rx 5  56 00 00 07 37 
    841 1885520665.746 DT     0220 Rx 8  00 40 00 40 00 00 00 40 
    842 1885520665.991 DT     0164 Rx 8  00 08 01 00 00 00 0E 07 
    843 1885520666.242 DT     01F1 Rx 8  0F 00 00 00 00 00 00 00 
    844 1885520666.481 DT     0260 Rx 8  05 00 00 00 02 98 5F 31 
    845 1885520666.726 DT     018F Rx 8  00 2F 00 00 00 64 00 00 
    846 1885520666.971 DT     0080 Rx 8  00 17 00 00 8C 30 00 2F 
    847 1885520667.211 DT     0081 Rx 8  40 85 5F 00 00 00 00 CF 
    848 1885520667.450 DT     0165 Rx 8  E9 E7 7F 00 00 00 0D 7C 
    849 1885520667.684 DT     02A0 Rx 8  E0 00 5F 80 37 12 9E 08 
    850 1885520667.924 DT     0316 Rx 8  05 8C 00 00 00 30 00 7F 
    851 1885520668.157 DT     0329 Rx 8  80 79 7E 0E 11 27 00 10 
    852 1885520668.396 DT     0350 Rx 8  00 10 34 7E 80 00 00 DA 
    853 1885520668.648 DT     0382 Rx 8  40 FE 0F 00 00 00 00 00 
    854 1885520668.887 DT     0545 Rx 8  CA 00 00 7E 4F FE 4F FE 
    855 1885520670.738 DT     0153 Rx 8  20 00 10 FF 00 FF 10 3E 
    856 1885520674.995 DT     02B0 Rx 5  56 00 00 07 C8 
    857 1885520675.234 DT     04F0 Rx 8  40 00 40 00 00 D6 E3 1D 
    858 1885520675.748 DT     0220 Rx 8  00 40 00 40 00 00 00 40 
    859 1885520675.993 DT     0164 Rx 8  00 08 01 00 00 00 0F 06 
    860 1885520676.301 DT     0316 Rx 8  05 8C 00 00 00 30 00 7F 
    861 1885520676.546 DT     0080 Rx 8  00 17 00 00 8C 30 00 10 
    862 1885520676.786 DT     0081 Rx 8  40 85 5F 00 00 00 00 B0 
    863 1885520677.031 DT     018F Rx 8  00 2F 00 00 00 64 00 00 
    864 1885520677.270 DT     0165 Rx 8  EB E7 7F 00 00 00 0E 7D 
    865 1885520677.511 DT     0260 Rx 8  05 00 00 00 02 98 5F 04 
    866 1885520677.749 DT     02A0 Rx 8  80 00 5F 80 37 12 9E 08 
    867 1885520677.978 DT     0329 Rx 8  80 79 7E 0E 11 27 00 10 
    868 1885520678.223 DT     0350 Rx 8  00 10 44 7E 80 00 00 AA 
    869 1885520678.461 DT     0545 Rx 8  CA 00 00 7E 4F FE 4F FE 
    870 1885520680.756 DT     0153 Rx 8  20 00 10 FF 00 FF 20 4E 
    871 1885520681.012 DT     0430 Rx 8  00 00 00 00 00 00 00 00 
    872 1885520685.081 DT     02B0 Rx 5  56 00 00 07 D9 
    873 1885520685.760 DT     0220 Rx 8  00 40 00 40 00 00 00 40 
    874 1885520686.010 DT     0164 Rx 8  00 08 01 00 00 00 00 09 
    875 1885520686.262 DT     01F1 Rx 8  0F 00 00 00 00 00 00 00 
    876 1885520686.501 DT     0316 Rx 8  05 8C 00 00 00 30 00 7F 
    877 1885520686.752 DT     018F Rx 8  00 2F 00 00 00 64 00 00 
    878 1885520686.991 DT     0080 Rx 8  00 17 00 00 8C 30 00 01 
    879 1885520687.231 DT     0081 Rx 8  40 85 5F 00 00 00 00 A1 
    880 1885520687.470 DT     0165 Rx 8  EB E7 7F 00 00 00 0F 7C 
    881 1885520687.710 DT     0260 Rx 8  05 00 00 00 02 98 5F 13 
    882 1885520687.955 DT     02A0 Rx 8  20 00 5F 80 37 12 9E 08 
    883 1885520688.182 DT     0329 Rx 8  80 79 7E 0E 11 27 00 10 
    884 1885520688.427 DT     0350 Rx 8  00 10 54 7E 80 00 00 BA 
    885 1885520688.673 DT     0382 Rx 8  40 FE 0F 00 00 00 00 04 
    886 1885520688.913 DT     0545 Rx 8  CA 00 00 7E 4F FE 4F FE 
    887 1885520689.375 DT     00A0 Rx 8  00 52 00 00 00 1F 00 00 
    888 1885520689.614 DT     00A1 Rx 8  80 80 80 80 63 00 00 00 
    889 1885520690.751 DT     0153 Rx 8  20 00 10 FF 00 FF 30 5E 
    890 1885520695.115 DT     02B0 Rx 5  56 00 00 07 EA 
    891 1885520695.354 DT     04F0 Rx 8  40 00 42 00 00 D6 E3 1D 
    892 1885520695.771 DT     0220 Rx 8  00 40 00 40 00 00 00 40 
    893 1885520696.022 DT     0164 Rx 8  00 08 01 00 00 00 01 08 
    894 1885520696.409 DT     0316 Rx 8  05 8C 00 00 00 30 00 7F 
    895 1885520696.650 DT     0080 Rx 8  00 17 00 00 8C 30 00 F2 
    896 1885520696.895 DT     0081 Rx 8  40 85 5F 00 00 00 00 92 
    897 1885520697.140 DT     018F Rx 8  00 2F 00 00 00 64 00 00 
    898 1885520697.379 DT     0165 Rx 8  EB E7 7F 00 00 00 00 73 
    899 1885520697.619 DT     0260 Rx 8  05 00 00 00 02 98 5F 22 
    900 1885520697.858 DT     02A0 Rx 8  40 00 5F 80 37 12 9E 08 
    901 1885520698.091 DT     0329 Rx 8  D7 79 7E 0E 11 27 00 10 
    902 1885520698.331 DT     0545 Rx 8  CA 00 00 7E 4F FE 4F FE 
    903 1885520698.571 DT     0350 Rx 8  00 10 64 7E 80 00 00 8A 
    904 1885520700.758 DT     0153 Rx 8  20 00 10 FF 00 FF 40 6E 
    905 1885520701.003 DT     0430 Rx 8  00 20 00 00 00 00 0E 00 
    906 1885520702.506 DT     02C0 Rx 8  10 00 00 00 00 00 00 00 
    907 1885520705.173 DT     02B0 Rx 5  56 00 00 07 FB 
    908 1885520705.767 DT     0220 Rx 8  00 40 00 40 00 00 00 40 
    909 1885520706.017 DT     0164 Rx 8  00 08 01 00 00 00 02 0B 
    910 1885520706.269 DT     01F1 Rx 8  0F 00 00 00 00 00 00 00 
    911 1885520706.508 DT     0316 Rx 8  05 8C 00 00 00 30 00 7F 
    912 1885520706.748 DT     0080 Rx 8  00 17 00 00 8C 30 00 E3 
    913 1885520706.993 DT     0081 Rx 8  40 85 5F 00 00 00 00 83 
    914 1885520707.238 DT     018F Rx 8  00 2F 00 00 00 64 00 00 
    915 1885520707.477 DT     0165 Rx 8  EA E7 7F 00 00 00 01 73 
    916 1885520707.717 DT     0260 Rx 8  05 00 00 00 02 98 5F 31 
    917 1885520707.951 DT     02A0 Rx 8  E0 00 5F 80 37 12 9E 08 
    918 1885520708.184 DT     0329 Rx 8  D7 79 7E 0E 11 27 00 10 
    919 1885520708.429 DT     0382 Rx 8  40 FE 0F 00 00 00 00 08 
    920 1885520708.669 DT     0350 Rx 8  00 10 74 7E 80 00 00 9A 
    921 1885520708.909 DT     0545 Rx 8  CA 00 00 7E 4F FE 4F FE 
    922 1885520710.754 DT     0153 Rx 8  20 00 10 FF 00 FF 50 7E 
    923 1885520713.753 DT     05F0 Rx 2  00 00 
    924 1885520715.186 DT     04F0 Rx 8  40 00 44 00 00 D6 E3 1D 
    925 1885520715.368 DT     02B0 Rx 5  56 00 00 07 8C 
    926 1885520715.768 DT     0220 Rx 8  00 40 00 40 00 00 00 40 
    927 1885520716.013 DT     0164 Rx 8  00 08 01 00 00 00 03 0A 
    928 1885520716.321 DT     0316 Rx 8  05 8C 00 00 00 30 00 7F 
    929 1885520716.561 DT     0080 Rx 8  00 17 00 00 8C 30 00 D4 
    930 1885520716.806 DT     0081 Rx 8  40 85 5F 00 00 00 00 74 
    931 1885520717.051 DT     018F Rx 8  00 2F 00 00 00 64 00 00 
    932 1885520717.296 DT     0260 Rx 8  05 00 00 00 02 98 5F 04 
    933 1885520717.531 DT     0165 Rx 8  EA E7 7F 00 00 00 02 70 
    934 1885520717.765 DT     02A0 Rx 8  80 00 5F 80 37 12 9E 08 
    935 1885520718.003 DT     0329 Rx 8  D7 79 7E 0E 11 27 00 10 
    936 1885520718.243 DT     0545 Rx 8  CA 00 00 7E 4F FE 4F FE 
    937 1885520718.832 DT     0350 Rx 8  00 10 84 7E 80 00 00 6A 
    938 1885520718.985 DT     05E4 Rx 3  04 00 00 
    939 1885520720.762 DT     0153 Rx 8  20 00 10 FF 00 FF 60 8E 
    940 1885520721.007 DT     0430 Rx 8  00 40 00 00 00 00 0C 00 
    941 1885520725.301 DT     02B0 Rx 5  56 00 00 07 9D 
    942 1885520725.764 DT     0220 Rx 8  00 40 00 40 00 00 00 40 
    943 1885520726.015 DT     0164 Rx 8  00 08 01 00 00 00 04 0D 
    944 1885520726.260 DT     01F1 Rx 8  0F 00 00 00 00 00 00 00 
    945 1885520726.506 DT     0316 Rx 8  05 8C 00 00 00 30 00 7F 
    946 1885520726.740 DT     0329 Rx 8  D7 79 7E 0E 11 27 00 10 
    947 1885520726.978 DT     0080 Rx 8  00 17 00 00 8C 30 00 C5 
    948 1885520727.218 DT     0081 Rx 8  40 85 5F 00 00 00 00 65 
    949 1885520727.452 DT     0165 Rx 8  EA E7 7F 00 00 00 03 71 
    950 1885520727.703 DT     018F Rx 8  00 2F 00 00 00 64 00 00 
    951 1885520727.943 DT     0260 Rx 8  05 00 00 00 02 98 5F 13 
    952 1885520728.181 DT     02A0 Rx 8  20 00 5F 80 37 12 9E 08 
    953 1885520728.426 DT     0382 Rx 8  40 FE 0F 00 00 00 00 0C 
    954 1885520728.667 DT     0545 Rx 8  CA 00 00 7E 4F FE 4F FE 
    955 1885520729.020 DT     0350 Rx 8  00 10 94 7E 80 00 00 7A 
    956 1885520730.757 DT     0153 Rx 8  20 00 10 FF 00 FF 70 9E 
    957 1885520735.167 DT     04F0 Rx 8  40 00 46 00 00 D6 E3 1D 
    958 1885520735.355 DT     02B0 Rx 5  56 00 00 07 AE 
    959 1885520735.601 DT     0690 Rx 8  00 00 01 00 00 20 1C 00 
    960 1885520735.852 DT     0220 Rx 8  00 40 00 40 00 00 00 40 
    961 1885520736.097 DT     0164 Rx 8  00 08 01 00 00 00 05 0C 
    962 1885520736.410 DT     0316 Rx 8  05 8C 00 00 00 30 00 7F 
    963 1885520736.650 DT     0080 Rx 8  00 17 00 00 8C 30 00 B6 
    964 1885520736.895 DT     0081 Rx 8  40 85 5F 00 00 00 00 56 
    965 1885520737.140 DT     018F Rx 8  00 2F 00 00 00 64 00 00 
    966 1885520737.380 DT     0260 Rx 8  05 00 00 00 02 98 5F 22 
    967 1885520737.614 DT     0165 Rx 8  EA E7 7F 00 00 00 04 76 
    968 1885520737.853 DT     02A0 Rx 8  40 00 5F 80 37 12 9E 08 
    969 1885520738.086 DT     0329 Rx 8  D7 79 7E 0E 11 27 00 10 
    970 1885520738.326 DT     0545 Rx 8  CA 00 00 7E 4F FE 4F FE 
    971 1885520739.239 DT     0350 Rx 8  00 10 A4 7E 80 00 00 4A 
    972 1885520740.765 DT     0153 Rx 8  20 00 10 FF 00 FF 80 AE 
    973 1885520741.016 DT     0430 Rx 8  00 60 00 00 00 00 0A 00 
    974 1885520745.402 DT     02B0 Rx 5  56 00 00 07 BF 
    975 1885520745.768 DT     0220 Rx 8  00 40 00 40 00 00 00 40 
    976 1885520746.018 DT     0164 Rx 8  00 08 01 00 00 00 06 0F 
    977 1885520746.270 DT     01F1 Rx 8  0F 00 00 00 00 00 00 00 
    978 1885520746.509 DT     0260 Rx 8  05 00 00 00 02 98 5F 31 
    979 1885520746.743 DT     02A0 Rx 8  E0 00 5F 80 37 12 9E 08 
    980 1885520746.983 DT     0080 Rx 8  00 17 00 00 8C 30 00 A7 
    981 1885520747.228 DT     0081 Rx 8  40 85 5F 00 00 00 00 47 
    982 1885520747.473 DT     018F Rx 8  00 2F 00 00 00 64 00 00 
    983 1885520747.712 DT     0165 Rx 8  EB E7 7F 00 00 00 05 76 
    984 1885520747.952 DT     0316 Rx 8  05 8C 00 00 00 30 00 7F 
    985 1885520748.186 DT     0329 Rx 8  D7 79 7E 0E 11 27 00 10 
    986 1885520748.436 DT     0382 Rx 8  40 FE 0F 00 00 00 00 00 
    987 1885520748.676 DT     0545 Rx 8  CA 00 00 7E 4F FE 4F FE 
    988 1885520749.452 DT     0350 Rx 8  00 10 B4 7E 80 00 00 5A 
    989 1885520750.755 DT     0153 Rx 8  20 00 10 FF 00 FF 90 BE 
    990 1885520755.194 DT     04F0 Rx 8  40 00 48 00 00 D6 E3 1D 
    991 1885520755.450 DT     02B0 Rx 5  56 00 00 07 40 
    992 1885520755.769 DT     0220 Rx 8  00 40 00 40 00 00 00 40 
    993 1885520756.014 DT     0164 Rx 8  00 08 01 00 00 00 07 0E 
    994 1885520756.316 DT     0316 Rx 8  05 8C 00 00 00 30 00 7F 
    995 1885520756.557 DT     0080 Rx 8  00 17 00 00 8C 30 00 98 
    996 1885520756.802 DT     0081 Rx 8  40 85 5F 00 00 00 00 38 
    997 1885520757.047 DT     018F Rx 8  00 2F 00 00 00 64 00 00 
    998 1885520757.286 DT     0260 Rx 8  05 00 00 00 02 98 5F 04 
    999 1885520757.526 DT     02A0 Rx 8  80 00 5F 80 37 12 9E 08 
   1000 1885520757.760 DT     0165 Rx 8  EA E7 7F 00 00 00 06 74 
   1001 1885520757.987 DT     0329 Rx 8  0F 79 7E 0E 11 27 00 10 
   1002 1885520758.232 DT     0545 Rx 8  CA 00 00 7E 4F FE 4F FE 
   1003 1885520759.650 DT     0350 Rx 8  00 10 C4 7E 80 00 00 2A 
   1004 1885520760.763 DT     0153 Rx 8  20 00 10 FF 00 FF A0 CE 
   1005 1885520761.013 DT     0430 Rx 8  00 80 00 00 00 00 08 00 
   1006 1885520763.722 DT     05F0 Rx 2  00 00 
   1007 1885520765.510 DT     02B0 Rx 5  56 00 00 07 51 
   1008 1885520765.778 DT     0220 Rx 8  00 40 00 40 00 00 00 40 
   1009 1885520766.023 DT     0164 Rx 8  00 08 01 00 00 00 08 01 
   1010 1885520766.273 DT     01F1 Rx 8  0F 00 00 00 00 00 00 00 
   1011 1885520766.514 DT     0316 Rx 8  05 8C 00 00 00 30 00 7F 
   1012 1885520766.764 DT     018F Rx 8  00 2F 00 00 00 64 00 00 
   1013 1885520767.003 DT     0260 Rx 8  05 00 00 00 02 98 5F 13 
   1014 1885520767.241 DT     0080 Rx 8  00 17 00 00 8C 30 00 89 
   1015 1885520767.481 DT     0081 Rx 8  40 85 5F 00 00 00 00 29 
   1016 1885520767.720 DT     0165 Rx 8  E7 E7 7F 00 00 00 07 78 
   1017 1885520767.960 DT     02A0 Rx 8  20 00 5F 80 37 12 9E 08 
   1018 1885520768.194 DT     0329 Rx 8  0F 79 7E 0E 11 27 00 10 
   1019 1885520768.439 DT     0382 Rx 8  40 FE 0F 00 00 00 00 04 
   1020 1885520768.679 DT     0545 Rx 8  CA 00 00 7E 4F FE 4F FE 
   1021 1885520769.855 DT     0350 Rx 8  00 10 D4 7E 80 00 00 3A 
   1022 1885520770.757 DT     0153 Rx 8  20 00 10 FF 00 FF B0 DE 
   1023 1885520775.179 DT     04F0 Rx 8  40 00 4A 00 00 D6 E3 1D 
   1024 1885520775.567 DT     02B0 Rx 5  56 00 00 07 62 
   1025 1885520775.818 DT     0220 Rx 8  00 40 00 40 00 00 00 40 
   1026 1885520776.063 DT     0164 Rx 8  00 08 01 00 00 00 09 00 
   1027 1885520776.446 DT     0316 Rx 8  05 8C 00 00 00 30 00 7F 
   1028 1885520776.685 DT     0080 Rx 8  00 17 00 00 8C 30 00 7A 
   1029 1885520776.930 DT     0081 Rx 8  40 85 5F 00 00 00 00 1A 
   1030 1885520777.175 DT     018F Rx 8  00 2F 00 00 00 64 00 00 
   1031 1885520777.415 DT     0260 Rx 8  05 00 00 00 02 98 5F 22 
   1032 1885520777.654 DT     0165 Rx 8  EA E7 7F 00 00 00 08 7A 
   1033 1885520777.894 DT     02A0 Rx 8  40 00 5F 80 37 12 9E 08 
   1034 1885520778.121 DT     0329 Rx 8  0F 79 7E 0E 11 27 00 10 
   1035 1885520778.361 DT     0545 Rx 8  CA 00 00 7E 4F FE 4F FE 
   1036 1885520780.074 DT     0350 Rx 8  00 10 E4 7E 80 00 00 0A 
   1037 1885520780.772 DT     0153 Rx 8  20 00 10 FF 00 FF C0 EE 
   1038 1885520781.017 DT     0430 Rx 8  00 A0 00 00 00 00 06 00 
   1039 1885520785.617 DT     02B0 Rx 5  56 00 00 07 73 
   1040 1885520785.862 DT     0220 Rx 8  00 40 00 40 00 00 00 40 
   1041 1885520786.112 DT     0164 Rx 8  00 08 01 00 00 00 0A 03 
   1042 1885520786.363 DT     01F1 Rx 8  0F 00 00 00 00 00 00 00 
   1043 1885520786.597 DT     02A0 Rx 8  E0 00 5F 80 37 12 9E 08 
   1044 1885520786.836 DT     0080 Rx 8  00 17 00 00 8C 30 00 6B 
   1045 1885520787.081 DT     0081 Rx 8  40 85 5F 00 00 00 00 0B 
   1046 1885520787.326 DT     018F Rx 8  00 2F 00 00 00 64 00 00 
   1047 1885520787.567 DT     0260 Rx 8  05 00 00 00 02 98 5F 31 
   1048 1885520787.800 DT     0165 Rx 8  EB E7 7F 00 00 00 09 7A 
   1049 1885520788.045 DT     0316 Rx 8  05 8C 00 00 00 30 00 7F 
   1050 1885520788.279 DT     0329 Rx 8  0F 79 7E 0E 11 27 00 10 
   1051 1885520788.525 DT     0382 Rx 8  40 FE 0F 00 00 00 00 08 
   1052 1885520788.763 DT     0545 Rx 8  CA 00 00 7E 4F FE 4F FE 
   1053 1885520790.294 DT     0350 Rx 8  00 10 F4 7E 80 00 00 1A 
   1054 1885520790.769 DT     0153 Rx 8  20 00 10 FF 00 FF D0 FE 
   1055 1885520792.282 DT     00A0 Rx 8  00 52 00 00 00 1F 00 00 
   1056 1885520792.522 DT     00A1 Rx 8  80 80 80 80 63 00 00 00 
   1057 1885520795.252 DT     04F0 Rx 8  40 00 4C 00 00 D6 E3 1D 
   1058 1885520795.669 DT     02B0 Rx 5  56 00 00 07 04 
   1059 1885520795.919 DT     0220 Rx 8  00 40 00 40 00 00 00 40 
   1060 1885520796.164 DT     0164 Rx 8  00 08 01 00 00 00 0B 02 
   1061 1885520796.404 DT     02A0 Rx 8  80 00 5F 80 37 12 9E 08 
   1062 1885520796.643 DT     0260 Rx 8  05 00 00 00 02 98 5F 04 
   1063 1885520796.888 DT     0080 Rx 8  00 17 00 00 8C 30 00 5C 
   1064 1885520797.128 DT     0081 Rx 8  40 85 5F 00 00 00 00 FC 
   1065 1885520797.373 DT     018F Rx 8  00 2F 00 00 00 64 00 00 
   1066 1885520797.619 DT     0316 Rx 8  05 8C 00 00 00 30 00 7F 
   1067 1885520797.853 DT     0165 Rx 8  EA E7 7F 00 00 00 0A 78 
   1068 1885520798.086 DT     0329 Rx 8  0F 79 7E 0E 11 27 00 10 
   1069 1885520798.325 DT     0545 Rx 8  CA 00 00 7E 4F FE 4F FE 
   1070 1885520800.536 DT     0350 Rx 8  00 10 04 7E 80 00 00 EA 
   1071 1885520800.776 DT     0153 Rx 8  20 00 10 FF 00 FF E0 0E 
   1072 1885520801.026 DT     0430 Rx 8  00 C0 00 00 00 00 04 00 
   1073 1885520802.535 DT     02C0 Rx 8  10 00 00 00 00 00 00 00 
   1074 1885520805.774 DT     0220 Rx 8  00 40 00 40 00 00 00 40 
   1075 1885520806.019 DT     0164 Rx 8  00 08 01 00 00 00 0C 05 
   1076 1885520806.269 DT     01F1 Rx 8  0F 00 00 00 00 00 00 00 
   1077 1885520806.457 DT     02B0 Rx 5  56 00 00 07 15 
   1078 1885520806.697 DT     0316 Rx 8  05 8C 00 00 00 30 00 7F 
   1079 1885520806.943 DT     018F Rx 8  00 2F 00 00 00 64 00 00 
   1080 1885520807.188 DT     0080 Rx 8  00 17 00 00 8C 30 00 4D 
   1081 1885520807.426 DT     0081 Rx 8  40 85 5F 00 00 00 00 ED 
   1082 1885520807.667 DT     0260 Rx 8  05 00 00 00 02 98 5F 13 
   1083 1885520807.901 DT     0165 Rx 8  EA E7 7F 00 00 00 0B 79 
   1084 1885520808.139 DT     02A0 Rx 8  20 00 5F 80 37 12 9E 08 
   1085 1885520808.373 DT     0329 Rx 8  0F 79 7E 0E 11 27 00 10 
   1086 1885520808.618 DT     0382 Rx 8  40 FE 0F 00 00 00 00 0C 
   1087 1885520808.858 DT     0545 Rx 8  CA 00 00 7E 4F FE 4F FE 
   1088 1885520810.753 DT     0350 Rx 8  00 10 14 7E 80 00 00 FA 
   1089 1885520810.993 DT     0153 Rx 8  20 00 10 FF 00 FF 00 2E 
   1090 1885520813.730 DT     05F0 Rx 2  00 00 
   1091 1885520815.185 DT     04F0 Rx 8  40 00 4E 00 00 D6 E3 1D 
   1092 1885520815.774 DT     0220 Rx 8  00 40 00 40 00 00 00 40 
   1093 1885520816.024 DT     0164 Rx 8  00 08 01 00 00 00 0D 04 
   1094 1885520816.205 DT     02B0 Rx 5  56 00 00 07 26 
   1095 1885520816.452 DT     0316 Rx 8  05 8C 00 00 00 30 00 7F 
   1096 1885520816.681 DT     0329 Rx 8  4F 79 7E 0E 11 27 00 10 
   1097 1885520816.925 DT     0080 Rx 8  00 17 00 00 8C 30 00 3E 
   1098 1885520817.170 DT     0081 Rx 8  40 85 5F 00 00 00 00 DE 
   1099 1885520817.415 DT     018F Rx 8  00 2F 00 00 00 64 00 00 
   1100 1885520817.656 DT     0260 Rx 8  05 00 00 00 02 98 5F 22 
   1101 1885520817.890 DT     0165 Rx 8  E9 E7 7F 00 00 00 0C 7D 
   1102 1885520818.128 DT     02A0 Rx 8  40 00 5F 80 37 12 9E 08 
   1103 1885520818.368 DT     0545 Rx 8  CA 00 00 7E 4F FE 4F FE 
   1104 1885520819.338 DT     05E4 Rx 3  04 00 00 
   1105 1885520820.767 DT     0153 Rx 8  20 00 10 FF 00 FF 10 3E 
   1106 1885520821.012 DT     0350 Rx 8  00 10 24 7E 80 00 00 CA 
   1107 1885520821.257 DT     0430 Rx 8  00 E0 00 00 00 00 02 00 
   1108 1885520825.777 DT     0220 Rx 8  00 40 00 40 00 00 00 40 
   1109 1885520826.022 DT     0164 Rx 8  00 08 01 00 00 00 0E 07 
   1110 1885520826.272 DT     01F1 Rx 8  0F 00 00 00 00 00 00 00 
   1111 1885520826.460 DT     02B0 Rx 5  56 00 00 07 37 
   1112 1885520826.700 DT     0080 Rx 8  00 17 00 00 8C 30 00 2F 
   1113 1885520826.945 DT     0081 Rx 8  40 85 5F 00 00 00 00 CF 
   1114 1885520827.190 DT     018F Rx 8  00 2F 00 00 00 64 00 00 
   1115 1885520827.429 DT     0260 Rx 8  05 00 00 00 02 98 5F 31 
   1116 1885520827.663 DT     02A0 Rx 8  E0 00 5F 80 37 12 9E 08 
   1117 1885520827.908 DT     0316 Rx 8  05 8C 00 00 00 30 00 7F 
   1118 1885520828.142 DT     0165 Rx 8  EA E7 7F 00 00 00 0D 7F 
   1119 1885520828.375 DT     0329 Rx 8  4F 79 7E 0E 11 27 00 10 
   1120 1885520828.621 DT     0382 Rx 8  40 FE 0F 00 00 00 00 00 
   1121 1885520828.866 DT     0545 Rx 8  CA 00 00 7E 4F FE 4F FE 
   1122 1885520830.763 DT     0153 Rx 8  20 00 10 FF 00 FF 20 4E 
   1123 1885520831.184 DT     0350 Rx 8  00 10 34 7E 80 00 00 DA 
   1124 1885520835.162 DT     04F0 Rx 8  40 00 50 00 00 D6 E3 1D 
   1125 1885520835.435 DT     0690 Rx 8  00 00 01 00 00 20 20 00 
   1126 1885520835.783 DT     0220 Rx 8  00 40 00 40 00 00 00 40 
   1127 1885520836.028 DT     0164 Rx 8  00 08 01 00 00 00 0F 06 
   1128 1885520836.216 DT     02B0 Rx 5  56 00 00 07 C8 
   1129 1885520836.455 DT     0316 Rx 8  05 8C 00 00 00 30 00 7F 
   1130 1885520836.701 DT     018F Rx 8  00 2F 00 00 00 64 00 00 
   1131 1885520836.946 DT     0080 Rx 8  00 17 00 00 8C 30 00 10 
   1132 1885520837.185 DT     0081 Rx 8  40 85 5F 00 00 00 00 B0 
   1133 1885520837.425 DT     0260 Rx 8  05 00 00 00 02 98 5F 04 
   1134 1885520837.664 DT     02A0 Rx 8  80 00 5F 80 37 12 9E 08 
   1135 1885520837.893 DT     0329 Rx 8  4F 79 7E 0E 11 27 00 10 
   1136 1885520838.131 DT     0165 Rx 8  EB E7 7F 00 00 00 0E 7D 
   1137 1885520838.371 DT     0545 Rx 8  CA 00 00 7E 4F FE 4F FE 
   1138 1885520840.770 DT     0153 Rx 8  20 00 10 FF 00 FF 30 5E 
   1139 1885520841.022 DT     0430 Rx 8  00 00 00 00 00 00 00 00 
   1140 1885520841.404 DT     0350 Rx 8  00 10 44 7E 80 00 00 AA 
   1141 1885520845.775 DT     0220 Rx 8  00 40 00 40 00 00 00 40 
   1142 1885520846.025 DT     0164 Rx 8  00 08 01 00 00 00 00 09 
   1143 1885520846.276 DT     01F1 Rx 8  0F 00 00 00 00 00 00 00 
   1144 1885520846.464 DT     02B0 Rx 5  56 00 00 07 D9 
   1145 1885520846.703 DT     0316 Rx 8  05 8C 00 00 00 30 00 7F 
   1146 1885520846.948 DT     0260 Rx 8  05 00 00 00 02 98 5F 13 
   1147 1885520847.188 DT     0080 Rx 8  00 17 00 00 8C 30 00 01 
   1148 1885520847.433 DT     0081 Rx 8  40 85 5F 00 00 00 00 A1 
   1149 1885520847.679 DT     018F Rx 8  00 2F 00 00 00 64 00 00 
   1150 1885520847.918 DT     02A0 Rx 8  20 00 5F 80 37 12 9E 08 
   1151 1885520848.157 DT     0165 Rx 8  EA E7 7F 00 00 00 0F 7D 
   1152 1885520848.385 DT     0329 Rx 8  4F 79 7E 0E 11 27 00 10 
   1153 1885520848.631 DT     0382 Rx 8  40 FE 0F 00 00 00 00 04 
   1154 1885520848.875 DT     0545 Rx 8  CA 00 00 7E 4F FE 4F FE 
   1155 1885520850.766 DT     0153 Rx 8  20 00 10 FF 00 FF 40 6E 
   1156 1885520851.623 DT     0350 Rx 8  00 10 54 7E 80 00 00 BA 
   1157 1885520855.204 DT     04F0 Rx 8  40 00 52 00 00 D6 E3 1D 
   1158 1885520855.781 DT     0220 Rx 8  00 40 00 40 00 00 00 40 
   1159 1885520856.026 DT     0164 Rx 8  00 08 01 00 00 00 01 08 
   1160 1885520856.214 DT     02B0 Rx 5  56 00 00 07 EA 
   1161 1885520856.452 DT     0316 Rx 8  05 8C 00 00 00 30 00 7F 
   1162 1885520856.687 DT     0329 Rx 8  4F 79 7E 0E 11 27 00 10 
   1163 1885520856.926 DT     0080 Rx 8  00 17 00 00 8C 30 00 F2 
   1164 1885520857.172 DT     0081 Rx 8  40 85 5F 00 00 00 00 92 
   1165 1885520857.417 DT     018F Rx 8  00 2F 00 00 00 64 00 00 
   1166 1885520857.656 DT     0260 Rx 8  05 00 00 00 02 98 5F 22 
   1167 1885520857.896 DT     02A0 Rx 8  40 00 5F 80 37 12 9E 08 
   1168 1885520858.134 DT     0165 Rx 8  EB E7 7F 00 00 00 00 73 
   1169 1885520858.368 DT     0545 Rx 8  CA 00 00 7E 4C FE 4C FE 
   1170 1885520860.773 DT     0153 Rx 8  20 00 10 FF 00 FF 50 7E 
   1171 1885520861.018 DT     0430 Rx 8  00 20 00 00 00 00 0E 00 
   1172 1885520861.835 DT     0350 Rx 8  00 10 64 7E 80 00 00 8A 
   1173 1885520863.709 DT     05F0 Rx 2  00 00 
   1174 1885520865.776 DT     0220 Rx 8  00 40 00 40 00 00 00 40 
   1175 1885520866.027 DT     0164 Rx 8  00 08 01 00 00 00 02 0B 
   1176 1885520866.277 DT     01F1 Rx 8  0F 00 00 00 00 00 00 00 
   1177 1885520866.465 DT     02B0 Rx 5  56 00 00 07 FB 
   1178 1885520866.706 DT     0080 Rx 8  00 17 00 00 8C 30 00 E3 
   1179 1885520866.951 DT     0081 Rx 8  40 85 5F 00 00 00 00 83 
   1180 1885520867.196 DT     018F Rx 8  00 2F 00 00 00 64 00 00 
   1181 1885520867.434 DT     0260 Rx 8  05 00 00 00 02 98 5F 31 
   1182 1885520867.669 DT     02A0 Rx 8  E0 00 5F 80 37 12 9E 08 
   1183 1885520867.913 DT     0316 Rx 8  05 8C 00 00 00 30 00 7F 
   1184 1885520868.147 DT     0165 Rx 8  EA E7 7F 00 00 00 01 73 
   1185 1885520868.380 DT     0329 Rx 8  4F 79 7E 0E 11 27 00 10 
   1186 1885520868.626 DT     0382 Rx 8  40 FE 0F 00 00 00 00 08 
   1187 1885520868.859 DT     0545 Rx 8  CA 00 00 7E 4C FE 4C FE 
   1188 1885520870.773 DT     0153 Rx 8  20 00 10 FF 00 FF 60 8E 
   1189 1885520872.053 DT     0350 Rx 8  00 10 74 7E 80 00 00 9A 
   1190 1885520875.178 DT     04F0 Rx 8  40 00 54 00 00 D6 E3 1D 
   1191 1885520875.778 DT     0220 Rx 8  00 40 00 40 00 00 00 40 
   1192 1885520876.028 DT     0164 Rx 8  00 08 01 00 00 00 03 0A 
   1193 1885520876.210 DT     02B0 Rx 5  56 00 00 07 8C 
   1194 1885520876.449 DT     02A0 Rx 8  80 00 5F 80 37 12 9E 08 
   1195 1885520876.690 DT     0260 Rx 8  05 00 00 00 02 98 5F 04 
   1196 1885520876.935 DT     0080 Rx 8  00 17 00 00 8C 30 00 D4 
   1197 1885520877.173 DT     0081 Rx 8  40 85 5F 00 00 00 00 74 
   1198 1885520877.418 DT     018F Rx 8  00 2F 00 00 00 64 00 00 
   1199 1885520877.664 DT     0316 Rx 8  05 8C 00 00 00 30 00 7F 
   1200 1885520877.892 DT     0329 Rx 8  80 79 7E 0E 11 27 00 10 
   1201 1885520878.131 DT     0545 Rx 8  CA 00 00 7E 4C FE 4C FE 
   1202 1885520878.364 DT     0165 Rx 8  EA E7 7F 00 00 00 02 70 
   1203 1885520880.770 DT     0153 Rx 8  20 00 10 FF 00 FF 70 9E 
   1204 1885520881.021 DT     0430 Rx 8  00 40 00 00 00 00 0C 00 
   1205 1885520882.272 DT     0350 Rx 8  00 10 84 7E 80 00 00 6A 
   1206 1885520885.779 DT     0220 Rx 8  00 40 00 40 00 00 00 40 
   1207 1885520886.024 DT     0164 Rx 8  00 08 01 00 00 00 04 0D 
   1208 1885520886.276 DT     01F1 Rx 8  0F 00 00 00 00 00 00 00 
   1209 1885520886.464 DT     02B0 Rx 5  56 00 00 07 9D 
   1210 1885520886.703 DT     0316 Rx 8  05 8C 00 00 00 30 00 7F 
   1211 1885520886.943 DT     0080 Rx 8  00 17 00 00 8C 30 00 C5 
   1212 1885520887.181 DT     0081 Rx 8  40 85 5F 00 00 00 00 65 
   1213 1885520887.426 DT     018F Rx 8  00 2F 00 00 00 64 00 00 
   1214 1885520887.667 DT     0260 Rx 8  05 00 00 00 02 98 5F 13 
   1215 1885520887.912 DT     02A0 Rx 8  20 00 5F 80 37 12 9E 08 
   1216 1885520888.139 DT     0329 Rx 8  80 79 7E 0E 11 27 00 10 
   1217 1885520888.379 DT     0165 Rx 8  EB E7 7F 00 00 00 03 70 
   1218 1885520888.625 DT     0382 Rx 8  40 FE 0F 00 00 00 00 0C 
   1219 1885520888.859 DT     0545 Rx 8  CA 00 00 7E 4C FE 4C FE 
   1220 1885520890.766 DT     0153 Rx 8  20 00 10 FF 00 FF 80 AE 
   1221 1885520891.011 DT     00A0 Rx 8  00 52 00 00 00 1F 00 00 
   1222 1885520891.256 DT     00A1 Rx 8  80 80 80 80 64 00 00 00 
   1223 1885520892.483 DT     0350 Rx 8  00 10 94 7E 80 00 00 7A 
   1224 1885520895.180 DT     04F0 Rx 8  40 00 56 00 00 D6 E3 1D 
   1225 1885520895.780 DT     0220 Rx 8  00 40 00 40 00 00 00 40 
   1226 1885520896.025 DT     0164 Rx 8  00 08 01 00 00 00 05 0C 
   1227 1885520896.236 DT     02B0 Rx 5  56 00 00 07 AE 
   1228 1885520896.481 DT     0316 Rx 8  05 8C 00 00 00 30 00 7F 
   1229 1885520896.715 DT     02A0 Rx 8  40 00 5F 80 37 12 9E 08 
   1230 1885520896.954 DT     0080 Rx 8  00 17 00 00 8C 30 00 B6 
   1231 1885520897.198 DT     0081 Rx 8  40 85 5F 00 00 00 00 56 
   1232 1885520897.443 DT     018F Rx 8  00 2F 00 00 00 64 00 00 
   1233 1885520897.683 DT     0260 Rx 8  05 00 00 00 02 98 5F 22 
   1234 1885520897.917 DT     0329 Rx 8  80 79 7E 0E 11 27 00 10 
   1235 1885520898.150 DT     0545 Rx 8  CA 00 00 7E 4C FE 4C FE 
   1236 1885520898.389 DT     0165 Rx 8  EC E7 7F 00 00 00 04 70 
   1237 1885520900.778 DT     0153 Rx 8  20 00 10 FF 00 FF 90 BE 
   1238 1885520901.023 DT     0430 Rx 8  00 60 00 00 00 00 0A 00 
   1239 1885520902.553 DT     02C0 Rx 8  10 00 00 00 00 00 00 00 
   1240 1885520902.793 DT     0350 Rx 8  00 10 A4 7E 80 00 00 4A 
   1241 1885520905.786 DT     0220 Rx 8  00 40 00 40 00 00 00 40 
   1242 1885520906.037 DT     0164 Rx 8  00 08 01 00 00 00 06 0F 
   1243 1885520906.287 DT     01F1 Rx 8  0F 00 00 00 00 00 00 00 
   1244 1885520906.470 DT     02B0 Rx 5  56 00 00 07 BF 
   1245 1885520906.709 DT     0080 Rx 8  00 17 00 00 8C 30 00 A7 
   1246 1885520906.954 DT     0081 Rx 8  40 85 5F 00 00 00 00 47 
   1247 1885520907.206 DT     018F Rx 8  00 2F 00 00 00 64 00 00 
   1248 1885520907.444 DT     0260 Rx 8  05 00 00 00 02 98 5F 31 
   1249 1885520907.678 DT     02A0 Rx 8  E0 00 5F 80 37 12 9E 08 
   1250 1885520907.918 DT     0316 Rx 8  05 8C 00 00 00 30 00 7F 
   1251 1885520908.152 DT     0329 Rx 8  80 79 7E 0E 11 27 00 10 
   1252 1885520908.386 DT     0165 Rx 8  EA E7 7F 00 00 00 05 77 
   1253 1885520908.632 DT     0382 Rx 8  40 FE 0F 00 00 00 00 00 
   1254 1885520908.865 DT     0545 Rx 8  CA 00 00 7E 4C FE 4C FE 
   1255 1885520910.772 DT     0153 Rx 8  20 00 10 FF 00 FF A0 CE 
   1256 1885520912.914 DT     0350 Rx 8  00 10 B4 7E 80 00 00 5A 
   1257 1885520913.714 DT     05F0 Rx 2  00 00 
   1258 1885520915.182 DT     04F0 Rx 8  40 00 58 00 00 D6 E3 1D 
   1259 1885520915.782 DT     0220 Rx 8  00 40 00 40 00 00 00 40 
   1260 1885520916.027 DT     0164 Rx 8  00 08 01 00 00 00 07 0E 
   1261 1885520916.322 DT     0316 Rx 8  05 8C 00 00 00 30 00 7F 
   1262 1885520916.563 DT     0080 Rx 8  00 17 00 00 8C 30 00 98 
   1263 1885520916.808 DT     0081 Rx 8  40 85 5F 00 00 00 00 38 
   1264 1885520917.053 DT     018F Rx 8  00 2F 00 00 00 64 00 00 
   1265 1885520917.292 DT     0260 Rx 8  05 00 00 00 02 98 5F 04 
   1266 1885520917.533 DT     02A0 Rx 8  80 00 5F 80 37 12 9E 08 
   1267 1885520917.714 DT     02B0 Rx 5  56 00 00 07 40 
   1268 1885520917.947 DT     0329 Rx 8  80 79 7E 0E 11 27 00 10 
   1269 1885520918.181 DT     0545 Rx 8  CA 00 00 7E 4C FE 4C FE 
   1270 1885520918.432 DT     0165 Rx 8  E9 E7 7F 00 00 00 06 77 
   1271 1885520919.889 DT     05E4 Rx 3  04 00 00 
   1272 1885520920.774 DT     0153 Rx 8  20 00 10 FF 00 FF B0 DE 
   1273 1885520921.024 DT     0430 Rx 8  00 80 00 00 00 00 08 00 
   1274 1885520923.138 DT     0350 Rx 8  00 10 C4 7E 80 00 00 2A 
   1275 1885520925.784 DT     0220 Rx 8  00 40 00 40 00 00 00 40 
   1276 1885520926.034 DT     0164 Rx 8  00 08 01 00 00 00 08 01 
   1277 1885520926.285 DT     01F1 Rx 8  0F 00 00 00 00 00 00 00 
   1278 1885520926.466 DT     02B0 Rx 5  56 00 00 07 51 
   1279 1885520926.707 DT     0316 Rx 8  05 8C 00 00 00 30 00 7F 
   1280 1885520926.952 DT     0080 Rx 8  00 17 00 00 8C 30 00 89 
   1281 1885520927.191 DT     0081 Rx 8  40 85 5F 00 00 00 00 29 
   1282 1885520927.435 DT     018F Rx 8  00 2F 00 00 00 64 00 00 
   1283 1885520927.676 DT     0260 Rx 8  05 00 00 00 02 98 5F 13 
   1284 1885520927.921 DT     02A0 Rx 8  20 00 5F 80 37 12 9E 08 
   1285 1885520928.148 DT     0329 Rx 8  80 79 7E 0E 11 27 00 10 
   1286 1885520928.400 DT     0382 Rx 8  40 FE 0F 00 00 00 00 04 
   1287 1885520928.634 DT     0165 Rx 8  EA E7 7F 00 00 00 07 75 
   1288 1885520928.868 DT     0545 Rx 8  CA 00 00 7E 4C FE 4C FE 
   1289 1885520930.775 DT     0153 Rx 8  20 00 10 FF 00 FF C0 EE 
   1290 1885520933.351 DT     0350 Rx 8  00 10 D4 7E 80 00 00 3A 
   1291 1885520935.158 DT     04F0 Rx 8  40 00 5A 00 00 D6 E3 1D 
   1292 1885520935.425 DT     0690 Rx 8  00 00 01 00 00 20 24 00 
   1293 1885520935.786 DT     0220 Rx 8  00 40 00 40 00 00 00 40 
   1294 1885520936.031 DT     0164 Rx 8  00 08 01 00 00 00 09 00 
   1295 1885520936.395 DT     0316 Rx 8  05 8C 00 00 00 30 00 7F 
   1296 1885520936.640 DT     0080 Rx 8  00 17 00 00 8C 30 00 7A 
   1297 1885520936.880 DT     0081 Rx 8  40 85 5F 00 00 00 00 1A 
   1298 1885520937.130 DT     018F Rx 8  00 2F 00 00 00 64 00 00 
   1299 1885520937.370 DT     0260 Rx 8  05 00 00 00 02 98 5F 22 
   1300 1885520937.605 DT     02A0 Rx 8  40 00 5F 80 37 12 9E 08 
   1301 1885520937.793 DT     02B0 Rx 5  56 00 00 07 62 
   1302 1885520938.026 DT     0329 Rx 8  D7 79 7E 0E 11 27 00 10 
   1303 1885520938.260 DT     0545 Rx 8  CA 00 00 7E 4C FE 4C FE 
   1304 1885520938.545 DT     0165 Rx 8  EA E7 7F 00 00 00 08 7A 
   1305 1885520940.789 DT     0153 Rx 8  20 00 10 FF 00 FF D0 FE 
   1306 1885520941.041 DT     0430 Rx 8  00 A0 00 00 00 00 06 00 
   1307 1885520943.565 DT     0350 Rx 8  00 10 E4 7E 80 00 00 0A 
   1308 1885520945.786 DT     0220 Rx 8  00 40 00 40 00 00 00 40 
   1309 1885520946.038 DT     0164 Rx 8  00 08 01 00 00 00 0A 03 
   1310 1885520946.283 DT     01F1 Rx 8  0F 00 00 00 00 00 00 00 
   1311 1885520946.529 DT     0316 Rx 8  05 8C 00 00 00 30 00 7F 
   1312 1885520946.774 DT     018F Rx 8  00 2F 00 00 00 64 00 00 
   1313 1885520947.012 DT     0080 Rx 8  00 17 00 00 8C 30 00 6B 
   1314 1885520947.252 DT     0081 Rx 8  40 85 5F 00 00 00 00 0B 
   1315 1885520947.498 DT     0260 Rx 8  05 00 00 00 02 98 5F 31 
   1316 1885520947.732 DT     02A0 Rx 8  E0 00 5F 80 37 12 9E 08 
   1317 1885520947.913 DT     02B0 Rx 5  56 00 00 07 73 
   1318 1885520948.153 DT     0329 Rx 8  D7 79 7E 0E 11 27 00 10 
   1319 1885520948.398 DT     0382 Rx 8  40 FE 0F 00 00 00 00 08 
   1320 1885520948.632 DT     0165 Rx 8  EB E7 7F 00 00 00 09 7A 
   1321 1885520948.866 DT     0545 Rx 8  CA 00 00 7E 4C FE 4C FE 
   1322 1885520950.780 DT     0153 Rx 8  20 00 10 FF 00 FF E0 0E 
   1323 1885520953.784 DT     0350 Rx 8  00 10 F4 7E 80 00 00 1A 
   1324 1885520955.171 DT     04F0 Rx 8  40 00 5C 00 00 D6 E3 1D 
   1325 1885520955.789 DT     0220 Rx 8  00 40 00 40 00 00 00 40 
   1326 1885520956.034 DT     0164 Rx 8  00 08 01 00 00 00 0B 02 
   1327 1885520956.324 DT     0316 Rx 8  05 8C 00 00 00 30 00 7F 
   1328 1885520956.564 DT     0080 Rx 8  00 17 00 00 8C 30 00 5C 
   1329 1885520956.809 DT     0081 Rx 8  40 85 5F 00 00 00 00 FC 
   1330 1885520957.054 DT     018F Rx 8  00 2F 00 00 00 64 00 00 
   1331 1885520957.299 DT     0260 Rx 8  05 00 00 00 02 98 5F 04 
   1332 1885520957.533 DT     02A0 Rx 8  80 00 5F 80 37 12 9E 08 
   1333 1885520957.721 DT     02B0 Rx 5  56 00 00 07 04 
   1334 1885520957.954 DT     0329 Rx 8  D7 79 7E 0E 11 27 00 10 
   1335 1885520958.187 DT     0545 Rx 8  CA 00 00 7E 4C FE 4C FE 
   1336 1885520958.650 DT     0165 Rx 8  EB E7 7F 00 00 00 0A 79 
   1337 1885520960.787 DT     0153 Rx 8  20 00 10 FF 00 FF 00 2E 
   1338 1885520961.032 DT     0430 Rx 8  00 C0 00 00 00 00 04 00 
   1339 1885520963.728 DT     05F0 Rx 2  00 00 
   1340 1885520964.002 DT     0350 Rx 8  00 10 04 7E 80 00 00 EA 
   1341 1885520965.790 DT     0220 Rx 8  00 40 00 40 00 00 00 40 
   1342 1885520966.035 DT     0164 Rx 8  00 08 01 00 00 00 0C 05 
   1343 1885520966.285 DT     01F1 Rx 8  0F 00 00 00 00 00 00 00 
   1344 1885520966.526 DT     0316 Rx 8  05 8C 00 00 00 30 00 7F 
   1345 1885520966.764 DT     02A0 Rx 8  20 00 5F 80 37 12 9E 08 
   1346 1885520967.004 DT     0080 Rx 8  00 17 00 00 8C 30 00 4D 
   1347 1885520967.249 DT     0081 Rx 8  40 85 5F 00 00 00 00 ED 
   1348 1885520967.495 DT     018F Rx 8  00 2F 00 00 00 64 00 00 
   1349 1885520967.734 DT     0260 Rx 8  05 00 00 00 02 98 5F 13 
   1350 1885520967.916 DT     02B0 Rx 5  56 00 00 07 15 
   1351 1885520968.155 DT     0329 Rx 8  D7 79 7E 0E 11 27 00 10 
   1352 1885520968.402 DT     0382 Rx 8  40 FE 0F 00 00 00 00 0C 
   1353 1885520968.635 DT     0545 Rx 8  CA 00 00 7E 4C FE 4C FE 
   1354 1885520968.872 DT     0165 Rx 8  EA E7 7F 00 00 00 0B 79 
   1355 1885520970.782 DT     0153 Rx 8  20 00 10 FF 00 FF 10 3E 
   1356 1885520974.220 DT     0350 Rx 8  00 10 14 7E 80 00 00 FA 
   1357 1885520975.173 DT     04F0 Rx 8  40 00 5E 00 00 D6 E3 1D 
   1358 1885520975.796 DT     0220 Rx 8  00 40 00 40 00 00 00 40 
   1359 1885520976.041 DT     0164 Rx 8  00 08 01 00 00 00 0D 04 
   1360 1885520976.425 DT     0316 Rx 8  05 8C 00 00 00 30 00 7F 
   1361 1885520976.671 DT     0080 Rx 8  00 17 00 00 8C 30 00 3E 
   1362 1885520976.908 DT     0081 Rx 8  40 85 5F 00 00 00 00 DE 
   1363 1885520977.159 DT     018F Rx 8  00 2F 00 00 00 64 00 00 
   1364 1885520977.396 DT     0260 Rx 8  05 00 00 00 02 98 5F 22 
   1365 1885520977.634 DT     02A0 Rx 8  40 00 5F 80 37 12 9E 08 
   1366 1885520977.819 DT     02B0 Rx 5  56 00 00 07 26 
   1367 1885520978.051 DT     0329 Rx 8  D7 79 7E 0E 11 27 00 10 
   1368 1885520978.290 DT     0545 Rx 8  CA 00 00 7E 4C FE 4C FE 
   1369 1885520978.751 DT     0165 Rx 8  EA E7 7F 00 00 00 0C 7E 
   1370 1885520980.786 DT     0153 Rx 8  20 00 10 FF 00 FF 20 4E 
   1371 1885520981.031 DT     0430 Rx 8  00 E0 00 00 00 00 02 00 
   1372 1885520984.436 DT     0350 Rx 8  00 10 24 7E 80 00 00 CA 
   1373 1885520985.790 DT     0220 Rx 8  00 40 00 40 00 00 00 40 
   1374 1885520986.035 DT     0164 Rx 8  00 08 01 00 00 00 0E 07 
   1375 1885520986.285 DT     01F1 Rx 8  0F 00 00 00 00 00 00 00 
   1376 1885520986.531 DT     0316 Rx 8  05 8C 00 00 00 30 00 7F 
   1377 1885520986.771 DT     0080 Rx 8  00 17 00 00 8C 30 00 2F 
   1378 1885520987.016 DT     0081 Rx 8  40 85 5F 00 00 00 00 CF 
   1379 1885520987.261 DT     018F Rx 8  00 2F 00 00 00 64 00 00 
   1380 1885520987.500 DT     0260 Rx 8  05 00 00 00 02 98 5F 31 
   1381 1885520987.733 DT     02A0 Rx 8  E0 00 5F 80 37 12 9E 08 
   1382 1885520987.928 DT     02B0 Rx 5  56 00 00 07 37 
   1383 1885520988.161 DT     0329 Rx 8  D7 79 7E 0E 11 27 00 10 
   1384 1885520988.406 DT     0382 Rx 8  40 FE 0F 00 00 00 00 00 
   1385 1885520988.641 DT     0545 Rx 8  CA 00 00 7E 4C FE 4C FE 
   1386 1885520988.874 DT     0165 Rx 8  EA E7 7F 00 00 00 0D 7F 
   1387 1885520989.234 DT     00A0 Rx 8  00 52 00 00 00 1F 00 00 
   1388 1885520989.479 DT     00A1 Rx 8  80 80 80 80 64 00 00 00 
   1389 1885520990.781 DT     0153 Rx 8  20 00 10 FF 00 FF 30 5E 
   1390 1885520994.648 DT     0350 Rx 8  00 10 34 7E 80 00 00 DA 
   1391 1885520995.202 DT     04F0 Rx 8  40 00 60 00 00 D6 E3 1D 
   1392 1885520995.790 DT     0220 Rx 8  00 40 00 40 00 00 00 40 
   1393 1885520996.035 DT     0164 Rx 8  00 08 01 00 00 00 0F 06 
   1394 1885520996.280 DT     0316 Rx 8  05 8C 00 00 00 30 00 7F 
   1395 1885520996.520 DT     0080 Rx 8  00 17 00 00 8C 30 00 10 
   1396 1885520996.765 DT     0081 Rx 8  40 85 5F 00 00 00 00 B0 
   1397 1885520997.010 DT     018F Rx 8  00 2F 00 00 00 64 00 00 
   1398 1885520997.249 DT     0260 Rx 8  05 00 00 00 02 98 5F 04 
   1399 1885520997.489 DT     02A0 Rx 8  80 00 5F 80 37 12 9E 08 
   1400 1885520997.671 DT     02B0 Rx 5  56 00 00 07 C8 
   1401 1885520997.904 DT     0329 Rx 8  0F 79 7E 0E 11 27 00 10 
   1402 1885520998.138 DT     0545 Rx 8  CA 00 00 7E 4C FE 4C FE 
   1403 1885520998.863 DT     0165 Rx 8  EA E7 7F 00 00 00 0E 7C 
   1404 1885521000.783 DT     0153 Rx 8  20 00 10 FF 00 FF 40 6E 
   1405 1885521001.039 DT     0430 Rx 8  00 00 00 00 00 00 00 00 
   1406 1885521002.622 DT     02C0 Rx 8  10 00 00 00 00 00 00 00 
   1407 1885521004.867 DT     0350 Rx 8  00 10 44 7E 80 00 00 AA 
   1408 1885521005.792 DT     0220 Rx 8  00 40 00 40 00 00 00 40 
   1409 1885521006.037 DT     0164 Rx 8  00 08 01 00 00 00 00 09 
   1410 1885521006.288 DT     01F1 Rx 8  0F 00 00 00 00 00 00 00 
   1411 1885521006.534 DT     0316 Rx 8  05 8C 00 00 00 30 00 7F 
   1412 1885521006.772 DT     02A0 Rx 8  20 00 5F 80 37 12 9E 08 
   1413 1885521007.012 DT     0080 Rx 8  00 17 00 00 8C 30 00 01 
   1414 1885521007.257 DT     0081 Rx 8  40 85 5F 00 00 00 00 A1 
   1415 1885521007.503 DT     018F Rx 8  00 2F 00 00 00 64 00 00 
   1416 1885521007.742 DT     0260 Rx 8  05 00 00 00 02 98 5F 13 
   1417 1885521007.930 DT     02B0 Rx 5  56 00 00 07 D9 
   1418 1885521008.163 DT     0329 Rx 8  0F 79 7E 0E 11 27 00 10 
   1419 1885521008.408 DT     0382 Rx 8  40 FE 0F 00 00 00 00 04 
   1420 1885521008.642 DT     0545 Rx 8  CA 00 00 7E 4C FE 4C FE 
   1421 1885521008.921 DT     0165 Rx 8  EA E7 7F 00 00 00 0F 7D 
   1422 1885521010.789 DT     0153 Rx 8  20 00 10 FF 00 FF 50 7E 
   1423 1885521013.726 DT     05F0 Rx 2  00 00 
   1424 1885521015.090 DT     0350 Rx 8  00 10 54 7E 80 00 00 BA 
   1425 1885521015.324 DT     04F0 Rx 8  40 00 62 00 00 D6 E3 1D 
   1426 1885521015.792 DT     0220 Rx 8  00 40 00 40 00 00 00 40 
   1427 1885521016.043 DT     0164 Rx 8  00 08 01 00 00 00 01 08 
   1428 1885521016.402 DT     0316 Rx 8  05 8C 00 00 00 30 00 7F 
   1429 1885521016.642 DT     0080 Rx 8  00 17 00 00 8C 30 00 F2 
   1430 1885521016.887 DT     0081 Rx 8  40 85 5F 00 00 00 00 92 
   1431 1885521017.131 DT     018F Rx 8  00 2F 00 00 00 64 00 00 
   1432 1885521017.371 DT     0260 Rx 8  05 00 00 00 02 98 5F 22 
   1433 1885521017.611 DT     02A0 Rx 8  40 00 5F 80 37 12 9E 08 
   1434 1885521017.794 DT     02B0 Rx 5  56 00 00 07 EA 
   1435 1885521018.027 DT     0329 Rx 8  0F 79 7E 0E 11 27 00 10 
   1436 1885521018.261 DT     0545 Rx 8  CA 00 00 7E 4C FE 4C FE 
   1437 1885521018.986 DT     0165 Rx 8  EB E7 7F 00 00 00 00 73 
   1438 1885521020.436 DT     05E4 Rx 3  04 00 00 
   1439 1885521020.791 DT     0153 Rx 8  20 00 10 FF 00 FF 60 8E 
   1440 1885521021.036 DT     0430 Rx 8  00 20 00 00 00 00 0E 00 
   1441 1885521025.303 DT     0350 Rx 8  00 10 64 7E 80 00 00 8A 
   1442 1885521025.794 DT     0220 Rx 8  00 40 00 40 00 00 00 40 
   1443 1885521026.045 DT     0164 Rx 8  00 08 01 00 00 00 02 0B 
   1444 1885521026.295 DT     01F1 Rx 8  0F 00 00 00 00 00 00 00 
   1445 1885521026.536 DT     0316 Rx 8  05 8C 00 00 00 30 00 7F 
   1446 1885521026.781 DT     0080 Rx 8  00 17 00 00 8C 30 00 E3 
   1447 1885521027.026 DT     0081 Rx 8  40 85 5F 00 00 00 00 83 
   1448 1885521027.271 DT     018F Rx 8  00 2F 00 00 00 64 00 00 
   1449 1885521027.510 DT     0260 Rx 8  05 00 00 00 02 98 5F 31 
   1450 1885521027.744 DT     02A0 Rx 8  E0 00 5F 80 37 12 9E 08 
   1451 1885521027.927 DT     02B0 Rx 5  56 00 00 07 FB 
   1452 1885521028.160 DT     0329 Rx 8  0F 79 7E 0E 11 27 00 10 
   1453 1885521028.405 DT     0382 Rx 8  40 FE 0F 00 00 00 00 08 
   1454 1885521028.639 DT     0545 Rx 8  CA 00 00 7E 4C FE 4C FE 
   1455 1885521029.044 DT     0165 Rx 8  EA E7 7F 00 00 00 01 73 
   1456 1885521030.780 DT     0153 Rx 8  20 00 10 FF 00 FF 70 9E 
   1457 1885521035.157 DT     04F0 Rx 8  40 00 64 00 00 D6 E3 1D 
   1458 1885521035.425 DT     0690 Rx 8  00 00 01 00 00 20 28 00 
   1459 1885521035.665 DT     0350 Rx 8  00 10 74 7E 80 00 00 9A 
   1460 1885521035.916 DT     0220 Rx 8  00 40 00 40 00 00 00 40 
   1461 1885521036.161 DT     0164 Rx 8  00 08 01 00 00 00 03 0A 
   1462 1885521036.395 DT     02A0 Rx 8  80 00 5F 80 37 12 9E 08 
   1463 1885521036.641 DT     0260 Rx 8  05 00 00 00 02 98 5F 04 
   1464 1885521036.879 DT     0080 Rx 8  00 17 00 00 8C 30 00 D4 
   1465 1885521037.124 DT     0081 Rx 8  40 85 5F 00 00 00 00 74 
   1466 1885521037.369 DT     018F Rx 8  00 2F 00 00 00 64 00 00 
   1467 1885521037.553 DT     02B0 Rx 5  56 00 00 07 8C 
   1468 1885521037.798 DT     0316 Rx 8  05 8C 00 00 00 30 00 7F 
   1469 1885521038.031 DT     0329 Rx 8  0F 79 7E 0E 11 27 00 10 
   1470 1885521038.265 DT     0545 Rx 8  CA 00 00 7E 4C FE 4C FE 
   1471 1885521039.110 DT     0165 Rx 8  EA E7 7F 00 00 00 02 70 
   1472 1885521040.790 DT     0153 Rx 8  20 00 10 FF 00 FF 80 AE 
   1473 1885521041.035 DT     0430 Rx 8  00 40 00 00 00 00 0C 00 
   1474 1885521045.737 DT     0350 Rx 8  00 10 84 7E 80 00 00 6A 
   1475 1885521045.982 DT     0220 Rx 8  00 40 00 40 00 00 00 40 
   1476 1885521046.232 DT     0164 Rx 8  00 08 01 00 00 00 04 0D 
   1477 1885521046.483 DT     01F1 Rx 8  0F 00 00 00 00 00 00 00 
   1478 1885521046.723 DT     0316 Rx 8  05 8C 00 00 00 30 00 7F 
   1479 1885521046.968 DT     018F Rx 8  00 2F 00 00 00 64 00 00 
   1480 1885521047.207 DT     0080 Rx 8  00 17 00 00 8C 30 00 C5 
   1481 1885521047.453 DT     0081 Rx 8  40 85 5F 00 00 00 00 65 
   1482 1885521047.687 DT     0260 Rx 8  05 00 00 00 02 98 5F 13 
   1483 1885521047.932 DT     02A0 Rx 8  20 00 5F 80 37 12 9E 08 
   1484 1885521048.113 DT     02B0 Rx 5  56 00 00 07 9D 
   1485 1885521048.343 DT     0329 Rx 8  0F 79 7E 0E 11 27 00 10 
   1486 1885521048.589 DT     0382 Rx 8  40 FE 0F 00 00 00 00 0C 
   1487 1885521048.828 DT     0545 Rx 8  CA 00 00 7E 4C FE 4C FE 
   1488 1885521049.141 DT     0165 Rx 8  EA E7 7F 00 00 00 03 71 
   1489 1885521050.787 DT     0153 Rx 8  20 00 10 FF 00 FF 90 BE 
   1490 1885521055.185 DT     04F0 Rx 8  40 00 66 00 00 D6 E3 1D 
   1491 1885521055.796 DT     0220 Rx 8  00 40 00 40 00 00 00 40 
   1492 1885521056.041 DT     0164 Rx 8  00 08 01 00 00 00 05 0C 
   1493 1885521056.281 DT     0350 Rx 8  00 10 94 7E 80 00 00 7A 
   1494 1885521056.520 DT     0316 Rx 8  05 8C 00 00 00 30 00 7F 
   1495 1885521056.760 DT     02A0 Rx 8  40 00 5F 80 37 12 9E 08 
   1496 1885521056.999 DT     0080 Rx 8  00 17 00 00 8C 30 00 B6 
   1497 1885521057.244 DT     0081 Rx 8  40 85 5F 00 00 00 00 56 
   1498 1885521057.489 DT     018F Rx 8  00 2F 00 00 00 64 00 00 
   1499 1885521057.729 DT     0260 Rx 8  05 00 00 00 02 98 5F 22 
   1500 1885521057.917 DT     02B0 Rx 5  56 00 00 07 AE 
   1501 1885521058.151 DT     0329 Rx 8  4F 79 7E 0E 11 27 00 10 
   1502 1885521058.384 DT     0545 Rx 8  CA 00 00 7E 4B FE 4B FE 
   1503 1885521059.194 DT     0165 Rx 8  EA E7 7F 00 00 00 04 76 
   1504 1885521060.795 DT     0153 Rx 8  20 00 10 FF 00 FF A0 CE 
   1505 1885521061.045 DT     0430 Rx 8  00 60 00 00 00 00 0A 00 
   1506 1885521063.701 DT     05F0 Rx 2  00 00 
   1507 1885521065.797 DT     0220 Rx 8  00 40 00 40 00 00 00 40 
   1508 1885521066.049 DT     0164 Rx 8  00 08 01 00 00 00 06 0F 
   1509 1885521066.294 DT     01F1 Rx 8  0F 00 00 00 00 00 00 00 
   1510 1885521066.540 DT     0316 Rx 8  05 8C 00 00 00 30 00 7F 
   1511 1885521066.778 DT     0080 Rx 8  00 17 00 00 8C 30 00 A7 
   1512 1885521067.023 DT     0081 Rx 8  40 85 5F 00 00 00 00 47 
   1513 1885521067.268 DT     018F Rx 8  00 2F 00 00 00 64 00 00 
   1514 1885521067.509 DT     0260 Rx 8  05 00 00 00 02 98 5F 31 
   1515 1885521067.742 DT     02A0 Rx 8  E0 00 5F 80 37 12 9E 08 
   1516 1885521067.930 DT     02B0 Rx 5  56 00 00 07 BF 
   1517 1885521068.164 DT     0329 Rx 8  4F 79 7E 0E 11 27 00 10 
   1518 1885521068.397 DT     0350 Rx 8  00 10 A4 7E 80 00 00 4A 
   1519 1885521068.648 DT     0382 Rx 8  40 FE 0F 00 00 00 00 00 
   1520 1885521068.881 DT     0545 Rx 8  CA 00 00 7E 4B FE 4B FE 
   1521 1885521069.258 DT     0165 Rx 8  EA E7 7F 00 00 00 05 77 
   1522 1885521070.784 DT     0153 Rx 8  20 00 10 FF 00 FF B0 DE 
   1523 1885521075.234 DT     04F0 Rx 8  40 00 68 00 00 D6 E3 1D 
   1524 1885521075.800 DT     0220 Rx 8  00 40 00 40 00 00 00 40 
   1525 1885521076.045 DT     0164 Rx 8  00 08 01 00 00 00 07 0E 
