;$FILEVERSION=1.1
;$STARTTIME=44925.9495421296
;
;   Start time: 12/30/2022 22:47:20.440.0
;   Generated by PCAN-View v4.3.4.615
;
;   Message Number
;   |         Time Offset (ms)
;   |         |        Type
;   |         |        |        ID (hex)
;   |         |        |        |     Data Length
;   |         |        |        |     |   Data Bytes (hex) ...
;   |         |        |        |     |   |
;---+--   ----+----  --+--  ----+---  +  -+ -- -- -- -- -- -- --
     1)         0.3  Rx         0280  8  01 0D C2 0C 0F 00 33 0F 
     2)         0.7  Rx         0288  8  8A 8D 11 04 00 4C 07 87 
     3)         1.0  Rx         0440  8  00 80 00 FE 80 80 D8 00 
     4)         1.3  Rx         0380  8  00 66 0B 0F 20 00 00 0B 
     5)         1.8  Rx         0488  8  E0 0D 0F 7E FE 8D FF 10 
     6)         4.8  Rx         0540  8  B0 00 FF 00 FE 00 00 16 
     7)         7.4  Rx         0280  8  01 0D C2 0C 0F 00 33 0F 
     8)         7.9  Rx         0288  8  8A 8D 11 04 00 4C 07 87 
     9)         8.5  Rx         0380  8  00 66 0B 0F 20 00 00 0B 
    10)         9.0  Rx         0488  8  D0 0D 0F 7E FE 8D FF 20 
    11)        10.9  Rx         0440  8  00 80 00 FE 80 80 E0 00 
    12)        14.3  Rx         0480  8  9C 17 F3 55 19 00 00 34 
    13)        14.7  Rx         0284  6  0C 0C 00 00 00 00 
    14)        14.9  Rx         0540  8  C0 00 FF 00 FE 00 00 16 
    15)        15.2  Rx         0588  8  1A 66 7E 00 00 00 00 00 
    16)        15.6  Rx         056A  8  B1 00 08 00 1A 00 02 A1 
    17)        20.9  Rx         0440  8  00 80 00 FE 80 80 E8 00 
    18)        21.4  Rx         0280  8  01 0D C2 0C 0F 00 33 0F 
    19)        21.9  Rx         0288  8  E8 8D 11 04 00 4C 07 87 
    20)        22.4  Rx         0380  8  00 66 0B 0F 20 00 00 0B 
    21)        22.9  Rx         0488  8  C0 0D 0F 7E FE 8D FF 30 
    22)        24.8  Rx         0540  8  D0 00 FF 00 FE 00 00 16 
    23)        28.4  Rx         0280  8  01 0D B6 0C 0F 00 33 0F 
    24)        28.9  Rx         0288  8  E8 8D 11 04 00 4C 07 87 
    25)        29.4  Rx         0380  8  00 66 0B 0F 20 00 00 0B 
    26)        29.9  Rx         0488  8  B0 0D 0F 7E FE 8D FF 40 
    27)        30.9  Rx         0440  8  00 80 00 FE 80 80 F0 00 
    28)        34.8  Rx         0540  8  E0 00 FF 00 FE 00 00 16 
    29)        35.4  Rx         0480  8  1C 1A F3 55 19 00 00 B9 
    30)        35.8  Rx         0284  6  0D 0D 00 00 00 00 
    31)        36.3  Rx         0588  8  1A 66 7E 00 00 00 00 00 
    32)        36.6  Rx         056A  8  A1 00 08 00 1A 00 02 B1 
    33)        40.9  Rx         0440  8  00 80 00 FE 80 80 F8 00 
    34)        41.4  Rx         0280  8  01 0D B6 0C 0F 00 33 0F 
    35)        41.9  Rx         0288  8  E8 8D 11 04 00 4C 07 87 
    36)        42.4  Rx         0380  8  00 66 0B 0F 20 00 00 0B 
    37)        42.8  Rx         0488  8  A0 0D 0F 7E FE 8D FF 50 
    38)        44.8  Rx         0540  8  F0 00 FF 00 FE 00 00 16 
    39)        48.4  Rx         0280  8  01 0D B6 0C 0F 00 33 0F 
    40)        48.8  Rx         0288  8  E8 8D 11 04 00 4C 07 87 
    41)        49.4  Rx         0380  8  00 66 0B 0F 20 00 00 0B 
    42)        49.9  Rx         0488  8  90 0D 0F 7E FE 8D FF 60 
    43)        50.9  Rx         0440  8  00 80 00 FE 80 80 80 00 
    44)        54.8  Rx         0540  8  00 00 FF 00 FE 00 00 16 
    45)        55.3  Rx         0284  6  0E 0E 00 00 00 00 
    46)        55.8  Rx         0480  8  1C 1A F3 55 19 00 00 B9 
    47)        56.3  Rx         056A  8  D1 00 08 00 1A 00 02 C1 
    48)        56.6  Rx         0588  8  1A 66 7E 00 00 00 00 00 
    49)        60.8  Rx         0440  8  00 80 00 FE 80 80 88 00 
    50)        61.4  Rx         0280  8  01 0D B6 0C 0F 00 33 0F 
    51)        61.8  Rx         0288  8  2C 8D 11 04 00 4C 07 87 
    52)        62.4  Rx         0380  8  00 66 0B 0F 20 00 00 0B 
    53)        62.8  Rx         0488  8  80 0D 0F 7E FE 8D FF 70 
    54)        64.8  Rx         0540  8  10 00 FF 00 FE 00 00 16 
    55)        68.4  Rx         0280  8  01 0D B6 0C 0F 00 33 0F 
    56)        68.8  Rx         0288  8  2C 8D 11 04 00 4C 07 87 
    57)        69.4  Rx         0380  8  00 66 0B 0F 20 00 00 0B 
    58)        69.9  Rx         0488  8  70 0D 0F 7E FE 8D FF 80 
    59)        70.9  Rx         0440  8  00 80 00 FE 80 80 90 00 
    60)        74.8  Rx         0540  8  20 00 FF 00 FE 00 00 16 
    61)        75.4  Rx         0480  8  1C 1A F3 55 19 00 00 B9 
    62)        75.8  Rx         0284  6  0F 0F 00 00 00 00 
    63)        76.3  Rx         056A  8  C1 00 08 00 1A 00 02 D1 
    64)        76.6  Rx         0588  8  1A 66 7E 00 00 00 00 00 
    65)        80.8  Rx         0440  8  00 80 00 FE 80 80 98 00 
    66)        81.4  Rx         0280  8  01 0D B6 0C 0F 00 33 0F 
    67)        81.9  Rx         0288  8  2C 8D 11 04 00 4C 07 87 
    68)        82.4  Rx         0380  8  00 66 0B 0F 20 00 00 0B 
    69)        82.9  Rx         0488  8  60 0D 0F 7E FE 8D FF 90 
    70)        84.8  Rx         0540  8  30 00 FF 00 FE 00 00 16 
    71)        88.4  Rx         0280  8  01 0D B6 0C 0F 00 33 0F 
    72)        88.9  Rx         0288  8  2C 8D 11 04 00 4C 07 87 
    73)        89.4  Rx         0380  8  00 66 0B 0F 20 00 00 0B 
    74)        89.9  Rx         0488  8  50 0D 0F 7E FE 8D FF A0 
    75)        90.9  Rx         0440  8  00 80 00 FE 80 80 A0 00 
    76)        94.8  Rx         0540  8  40 00 FF 00 FE 00 00 16 
    77)        95.4  Rx         0480  8  1C 1A F3 55 19 00 00 B9 
    78)        95.8  Rx         0284  6  00 00 00 00 00 00 
    79)        96.3  Rx         0588  8  1A 66 7E 00 00 00 00 00 
    80)        97.4  Rx         056A  8  F1 00 08 00 1A 00 02 E1 
    81)        97.9  Rx         0280  8  01 0D B8 0C 0F 00 33 0F 
    82)        98.4  Rx         0288  8  64 8D 11 04 00 4C 07 87 
    83)        98.9  Rx         0380  8  00 66 0B 0F 20 00 00 0B 
    84)        99.4  Rx         0488  8  40 0D 0F 7E FE 8D FF B0 
    85)       100.9  Rx         0440  8  00 80 00 FE 80 80 A8 00 
    86)       104.8  Rx         0540  8  50 00 FF 00 FE 00 00 16 
    87)       109.4  Rx         0280  8  01 0D B8 0C 0F 00 33 0F 
    88)       109.8  Rx         0288  8  64 8D 11 04 00 4C 07 87 
    89)       110.3  Rx         0380  8  00 66 0B 0F 20 00 00 0B 
    90)       110.7  Rx         0488  8  30 0D 0F 7E FE 8D FF C0 
    91)       111.0  Rx         0440  8  00 80 00 FE 80 80 B0 00 
    92)       114.8  Rx         0540  8  60 00 FF 00 FE 00 00 16 
    93)       115.4  Rx         0480  8  1C 1A F3 55 19 00 00 B9 
    94)       115.8  Rx         0284  6  01 01 00 00 00 00 
    95)       116.2  Rx         0588  8  1A 66 7E 00 00 00 00 00 
    96)       116.6  Rx         056A  8  E1 00 08 00 1A 00 02 F1 
    97)       120.8  Rx         0440  8  00 80 00 FE 80 80 B8 00 
    98)       121.4  Rx         0280  8  01 0D B8 0C 0F 00 33 0F 
    99)       121.9  Rx         0288  8  64 8D 11 04 00 4C 07 87 
   100)       122.4  Rx         0380  8  00 66 0B 0F 20 00 00 0B 
   101)       122.8  Rx         0488  8  20 0D 0F 7E FE 8D FF D0 
   102)       124.8  Rx         0540  8  70 00 FF 00 FE 00 00 16 
   103)       128.4  Rx         0280  8  01 0D B8 0C 0F 00 33 0F 
   104)       128.9  Rx         0288  8  64 8D 11 04 00 4C 07 87 
   105)       129.4  Rx         0380  8  00 66 0B 0F 20 00 00 0B 
   106)       129.9  Rx         0488  8  10 0D 0F 7E FE 8D FF E0 
   107)       130.9  Rx         0440  8  00 80 00 FE 80 80 C0 00 
   108)       134.8  Rx         0540  8  80 00 FF 00 FE 00 00 16 
   109)       135.4  Rx         0480  8  1C 1A F3 55 19 00 00 B9 
   110)       136.0  Rx         0284  6  02 02 00 00 00 00 
   111)       136.5  Rx         056A  8  11 00 08 00 1A 00 02 01 
   112)       137.1  Rx         0588  8  1A 66 7E 00 00 00 00 00 
   113)       137.7  Rx         0280  8  01 0D C0 0C 0F 00 33 0F 
   114)       138.2  Rx         0288  8  8A 8D 11 04 00 4C 07 87 
   115)       138.7  Rx         0380  8  00 66 0B 0F 20 00 00 0B 
   116)       139.4  Rx         0488  8  00 0D 0F 7E FE 8D FF F0 
   117)       140.8  Rx         0440  8  00 80 00 FE 80 80 C8 00 
   118)       144.8  Rx         0540  8  90 00 FF 00 FE 00 00 16 
   119)       149.4  Rx         0280  8  01 0D C0 0C 0F 00 33 0F 
   120)       149.8  Rx         0288  8  8A 8D 11 04 00 4C 07 87 
   121)       150.3  Rx         0380  8  00 66 0B 0F 20 00 00 0B 
   122)       150.7  Rx         0488  8  F0 0D 0F 7E FE 8D FF 00 
   123)       151.0  Rx         0440  8  00 80 00 FE 80 80 D0 00 
   124)       154.8  Rx         0540  8  A0 00 FF 00 FE 00 00 16 
   125)       156.2  Rx         0284  6  03 03 00 00 00 00 
   126)       156.7  Rx         0480  8  1C 1A F3 55 19 00 00 B9 
   127)       157.1  Rx         0588  8  1A 66 7E 00 00 00 00 00 
   128)       157.6  Rx         056A  8  01 00 08 00 1A 00 02 11 
   129)       158.2  Rx         0280  8  01 0D C0 0C 0F 00 33 0F 
   130)       158.6  Rx         0288  8  8A 8D 11 04 00 4C 07 87 
   131)       159.2  Rx         0380  8  00 66 0B 0F 20 00 00 0B 
   132)       159.6  Rx         0488  8  E0 0D 0F 7E FE 8D FF 10 
   133)       160.9  Rx         0440  8  00 80 00 FE 80 80 D8 00 
   134)       164.8  Rx         0540  8  B0 00 FF 00 FE 00 00 16 
   135)       169.4  Rx         0280  8  01 0D C0 0C 0F 00 33 0F 
   136)       169.8  Rx         0288  8  8A 8D 11 04 00 4C 07 87 
   137)       170.3  Rx         0380  8  00 66 0B 0F 20 00 00 0B 
   138)       170.7  Rx         0488  8  D0 0D 0F 7E FE 8D FF 20 
   139)       171.0  Rx         0440  8  00 80 00 FE 80 80 E0 00 
   140)       174.8  Rx         0540  8  C0 00 FF 00 FE 00 00 16 
   141)       175.3  Rx         0284  6  04 04 00 00 00 00 
   142)       175.8  Rx         0480  8  1C 1A F3 55 19 00 00 B9 
   143)       176.2  Rx         0588  8  1A 66 7E 00 00 00 00 00 
   144)       176.6  Rx         056A  8  31 00 08 00 1A 00 02 21 
   145)       180.8  Rx         0440  8  00 80 00 FE 80 80 E8 00 
   146)       181.4  Rx         0280  8  01 0D C5 0C 0F 00 33 0F 
   147)       181.9  Rx         0288  8  E8 8D 11 04 00 4C 07 87 
   148)       182.4  Rx         0380  8  00 66 0B 0F 20 00 00 0B 
   149)       183.3  Rx         0488  8  C0 0D 0F 7E FE 8D FF 30 
   150)       184.8  Rx         0540  8  D0 00 FF 00 FE 00 00 16 
   151)       188.4  Rx         0280  8  01 0D C5 0C 0F 00 33 0F 
   152)       188.9  Rx         0288  8  E8 8D 11 04 00 4C 07 87 
   153)       189.4  Rx         0380  8  00 66 0B 0F 20 00 00 0B 
   154)       189.8  Rx         0488  8  B0 0D 0F 7E FE 8D FF 40 
   155)       190.9  Rx         0440  8  00 80 00 FE 80 80 F0 00 
   156)       194.8  Rx         0540  8  E0 00 FF 00 FE 00 00 16 
   157)       195.3  Rx         0284  6  05 05 00 00 00 00 
   158)       195.8  Rx         0480  8  1C 1A F3 55 19 00 00 B9 
   159)       196.2  Rx         0588  8  1A 66 7E 00 00 00 00 00 
   160)       196.6  Rx         056A  8  21 00 08 00 1A 00 02 31 
   161)       200.8  Rx         0440  8  00 80 00 FE 80 80 F8 00 
   162)       201.4  Rx         0280  8  01 0D C5 0C 0F 00 33 0F 
   163)       201.8  Rx         0288  8  E8 8D 11 04 00 4C 07 87 
   164)       202.4  Rx         0380  8  00 66 0B 0F 20 00 00 0B 
   165)       202.9  Rx         0488  8  A0 0D 0F 7E FE 8D FF 50 
   166)       204.8  Rx         0540  8  F0 00 FF 00 FE 00 00 16 
   167)       208.4  Rx         0280  8  01 0D CC 0C 0F 00 33 0F 
   168)       208.9  Rx         0288  8  E8 8D 11 04 00 4C 07 87 
   169)       209.4  Rx         0380  8  00 66 0B 0F 20 00 00 0B 
   170)       209.9  Rx         0488  8  90 0D 0F 7E FE 8D FF 60 
   171)       210.8  Rx         0440  8  00 80 00 FE 80 80 80 00 
   172)       214.8  Rx         0540  8  00 00 FF 00 FE 00 00 16 
   173)       215.3  Rx         0284  6  06 06 00 00 00 00 
   174)       215.8  Rx         0480  8  1C 1A F3 55 19 00 00 B9 
   175)       216.2  Rx         0588  8  1A 66 7E 00 00 00 00 00 
   176)       216.6  Rx         056A  8  51 00 08 00 1A 00 02 41 
   177)       220.8  Rx         0440  8  00 80 00 FE 80 80 88 00 
   178)       221.4  Rx         0280  8  01 0D CC 0C 0F 00 33 0F 
   179)       221.8  Rx         0288  8  2C 8D 11 04 00 4C 07 87 
   180)       222.4  Rx         0380  8  00 66 0B 0F 20 00 00 0B 
   181)       222.8  Rx         0488  8  80 0D 0F 7E FE 8D FF 70 
   182)       224.8  Rx         0540  8  10 00 FF 00 FE 00 00 16 
   183)       228.4  Rx         0280  8  01 0D CC 0C 0F 00 33 0F 
   184)       228.8  Rx         0288  8  2C 8D 11 04 00 4C 07 87 
   185)       229.4  Rx         0380  8  00 66 0B 0F 20 00 00 0B 
   186)       229.9  Rx         0488  8  70 0D 0F 7E FE 8D FF 80 
   187)       230.8  Rx         0440  8  00 80 00 FE 80 80 90 00 
   188)       234.8  Rx         0540  8  20 00 FF 00 FE 00 00 16 
   189)       235.4  Rx         0480  8  1C 1A F3 55 19 00 00 B9 
   190)       235.7  Rx         0284  6  07 07 00 00 00 00 
   191)       236.2  Rx         0588  8  1A 66 7E 00 00 00 00 00 
   192)       236.6  Rx         056A  8  41 00 08 00 1A 00 02 51 
   193)       240.8  Rx         0440  8  00 80 00 FE 80 80 98 00 
   194)       241.4  Rx         0280  8  01 0D CC 0C 0F 00 33 0F 
   195)       242.1  Rx         0288  8  2C 8D 11 04 00 4C 07 87 
   196)       242.6  Rx         0380  8  00 66 0B 0F 20 00 00 0B 
   197)       243.2  Rx         0488  8  60 0D 0F 7E FE 8D FF 90 
   198)       244.8  Rx         0540  8  30 00 FF 00 FE 00 00 16 
   199)       248.4  Rx         0280  8  01 0D C7 0C 0F 00 33 0F 
   200)       248.9  Rx         0288  8  2C 8D 11 04 00 4C 07 87 
   201)       249.4  Rx         0380  8  00 66 0B 0F 20 00 00 0B 
   202)       249.9  Rx         0488  8  50 0D 0F 7E FE 8D FF A0 
   203)       250.8  Rx         0440  8  00 80 00 FE 80 80 A0 00 
   204)       254.8  Rx         0540  8  40 00 FF 00 FE 00 00 16 
   205)       255.3  Rx         0284  6  08 08 00 00 00 00 
   206)       255.8  Rx         0480  8  1C 1A F3 55 19 00 00 B9 
   207)       256.2  Rx         0588  8  1A 66 7E 00 00 00 00 00 
   208)       256.6  Rx         056A  8  71 00 08 00 1A 00 02 61 
   209)       260.8  Rx         0440  8  00 80 00 FE 80 80 A8 00 
   210)       261.4  Rx         0280  8  01 0D C7 0C 0F 00 33 0F 
   211)       261.8  Rx         0288  8  64 8D 11 04 00 4C 07 87 
   212)       262.4  Rx         0380  8  00 66 0B 0F 20 00 00 0B 
   213)       262.8  Rx         0488  8  40 0D 0F 7E FE 8D FF B0 
   214)       264.8  Rx         0540  8  50 00 FF 00 FE 00 00 16 
   215)       268.4  Rx         0280  8  01 0D C7 0C 0F 00 33 0F 
   216)       268.9  Rx         0288  8  64 8D 11 04 00 4C 07 87 
   217)       269.4  Rx         0380  8  00 66 0B 0F 20 00 00 0B 
   218)       269.9  Rx         0488  8  30 0D 0F 7E FE 8D FF C0 
   219)       270.9  Rx         0440  8  00 80 00 FE 80 80 B0 00 
   220)       274.8  Rx         0540  8  60 00 FF 00 FE 00 00 16 
   221)       275.3  Rx         0284  6  09 09 00 00 00 00 
   222)       275.8  Rx         0480  8  1C 1A F3 55 19 00 00 B9 
   223)       276.2  Rx         0588  8  1A 66 7E 00 00 00 00 00 
   224)       276.6  Rx         056A  8  61 00 08 00 1A 00 02 71 
   225)       280.8  Rx         0440  8  00 80 00 FE 80 80 B8 00 
   226)       281.4  Rx         0280  8  01 0D C7 0C 0F 00 33 0F 
   227)       281.9  Rx         0288  8  64 8D 11 04 00 4C 07 87 
   228)       282.4  Rx         0380  8  00 66 0B 0F 20 00 00 0B 
   229)       283.3  Rx         0488  8  20 0D 0F 7E FE 8D FF D0 
   230)       284.8  Rx         0540  8  70 00 FF 00 FE 00 00 16 
   231)       288.4  Rx         0280  8  01 0D CC 0C 0F 00 33 0F 
   232)       288.9  Rx         0288  8  64 8D 11 04 00 4C 07 87 
   233)       289.4  Rx         0380  8  00 66 0B 0F 20 00 00 0B 
   234)       289.9  Rx         0488  8  10 0D 0F 7E FE 8D FF E0 
   235)       290.8  Rx         0440  8  00 80 00 FE 80 80 C0 00 
   236)       294.8  Rx         0540  8  80 00 FF 00 FE 00 00 16 
   237)       295.4  Rx         0480  8  1C 1A F3 55 19 00 00 B9 
   238)       295.7  Rx         0284  6  0A 0A 00 00 00 00 
   239)       296.2  Rx         0588  8  1A 66 7E 00 00 00 00 00 
   240)       296.6  Rx         056A  8  91 00 08 00 1A 00 02 81 
   241)       300.8  Rx         0440  8  00 80 00 FE 80 80 C8 00 
   242)       301.4  Rx         0280  8  01 0D CC 0C 0F 00 33 0F 
   243)       301.9  Rx         0288  8  8A 8D 11 04 00 4C 07 87 
   244)       302.4  Rx         0380  8  00 66 0B 0F 20 00 00 0B 
   245)       303.0  Rx         0488  8  00 0D 0F 7E FE 8D FF F0 
   246)       304.7  Rx         0540  8  90 00 FF 00 FE 00 00 16 
   247)       308.3  Rx         0280  8  01 0D CC 0C 0F 00 33 0F 
   248)       308.8  Rx         0288  8  8A 8D 11 04 00 4C 07 87 
   249)       309.3  Rx         0380  8  00 66 0B 0F 20 00 00 0B 
   250)       309.8  Rx         0488  8  F0 0D 0F 7E FE 8D FF 00 
   251)       310.7  Rx         0440  8  00 80 00 FE 80 80 D0 00 
   252)       314.7  Rx         0540  8  A0 00 FF 00 FE 00 00 16 
   253)       315.2  Rx         0480  8  1C 1A F3 55 19 00 00 B9 
   254)       315.6  Rx         0284  6  0B 0B 00 00 00 00 
   255)       316.1  Rx         0588  8  1A 66 7E 00 00 00 00 00 
   256)       316.5  Rx         056A  8  81 00 08 00 1A 00 02 91 
   257)       320.7  Rx         0440  8  00 80 00 FE 80 80 D8 00 
   258)       321.2  Rx         0280  8  01 0D D3 0C 0F 00 33 0F 
   259)       321.7  Rx         0288  8  8A 8D 11 04 00 4C 07 87 
   260)       322.3  Rx         0380  8  00 66 0B 0F 20 00 00 0B 
   261)       322.7  Rx         0488  8  E0 0D 0F 7E FE 8D FF 10 
   262)       324.7  Rx         0540  8  B0 00 FF 00 FE 00 00 16 
   263)       328.3  Rx         0280  8  01 0D D3 0C 0F 00 33 0F 
   264)       328.8  Rx         0288  8  8A 8D 11 04 00 4C 07 87 
   265)       329.3  Rx         0380  8  00 66 0B 0F 20 00 00 0B 
   266)       329.7  Rx         0488  8  D0 0D 0F 7E FE 8D FF 20 
   267)       330.7  Rx         0440  8  00 80 00 FE 80 80 E0 00 
   268)       334.6  Rx         0540  8  C0 00 FF 00 FE 00 00 16 
   269)       335.2  Rx         0480  8  1C 1A F3 55 19 00 00 B9 
   270)       335.7  Rx         0284  6  0C 0C 00 00 00 00 
   271)       336.1  Rx         0588  8  1A 66 7E 00 00 00 00 00 
   272)       336.5  Rx         056A  8  B1 00 08 00 1A 00 02 A1 
   273)       340.6  Rx         0440  8  00 80 00 FE 80 80 E8 00 
   274)       341.3  Rx         0280  8  01 0D D3 0C 0F 00 33 0F 
   275)       341.7  Rx         0288  8  E8 8D 11 04 00 4C 07 87 
   276)       342.2  Rx         0380  8  00 66 0B 0F 20 00 00 0B 
   277)       342.7  Rx         0488  8  C0 0D 0F 7E FE 8D FF 30 
   278)       344.7  Rx         0540  8  D0 00 FF 00 FE 00 00 16 
   279)       348.3  Rx         0280  8  01 0D D3 0C 0F 00 33 0F 
   280)       348.8  Rx         0288  8  E8 8D 11 04 00 4C 07 87 
   281)       349.4  Rx         0380  8  00 66 0B 0F 20 00 00 0B 
   282)       349.9  Rx         0488  8  B0 0D 0F 7E FE 8D FF 40 
   283)       350.7  Rx         0440  8  00 80 00 FE 80 80 F0 00 
   284)       354.7  Rx         0540  8  E0 00 FF 00 FE 00 00 16 
   285)       355.2  Rx         0480  8  1C 1A F3 55 19 00 00 B9 
   286)       355.6  Rx         0284  6  0D 0D 00 00 00 00 
   287)       356.1  Rx         0588  8  1A 66 7E 00 00 00 00 00 
   288)       356.5  Rx         056A  8  A1 00 08 00 1A 00 02 B1 
   289)       360.6  Rx         0440  8  00 80 00 FE 80 80 F8 00 
   290)       361.3  Rx         0280  8  01 0D DF 0C 0F 00 33 0F 
   291)       361.7  Rx         0288  8  E8 8D 11 04 00 4C 07 87 
   292)       362.2  Rx         0380  8  00 66 0B 0F 20 00 00 0B 
   293)       362.7  Rx         0488  8  A0 0D 0F 7E FE 8D FF 50 
   294)       364.7  Rx         0540  8  F0 00 FF 00 FE 00 00 16 
   295)       368.3  Rx         0280  8  01 0D DF 0C 0F 00 33 0F 
   296)       368.8  Rx         0288  8  E8 8D 11 04 00 4C 07 87 
   297)       369.3  Rx         0380  8  00 66 0B 0F 20 00 00 0B 
   298)       369.8  Rx         0488  8  90 0D 0F 7E FE 8D FF 60 
   299)       370.7  Rx         0440  8  00 80 00 FE 80 80 80 00 
   300)       374.7  Rx         0540  8  00 00 FF 00 FE 00 00 16 
   301)       375.2  Rx         0480  8  1C 1A F3 55 19 00 00 B9 
   302)       375.6  Rx         0284  6  0E 0E 00 00 00 00 
   303)       376.1  Rx         0588  8  1A 66 7E 00 00 00 00 00 
   304)       376.5  Rx         056A  8  D1 00 08 00 1A 00 02 C1 
   305)       380.7  Rx         0440  8  00 80 00 FE 80 80 88 00 
   306)       381.2  Rx         0280  8  01 0D DF 0C 0F 00 33 0F 
   307)       381.7  Rx         0288  8  2C 8D 11 04 00 4C 07 87 
   308)       382.3  Rx         0380  8  00 66 0B 0F 20 00 00 0B 
   309)       383.1  Rx         0488  8  80 0D 0F 7E FE 8D FF 70 
   310)       384.7  Rx         0540  8  10 00 FF 00 FE 00 00 16 
   311)       388.3  Rx         0280  8  01 0D D1 0C 0F 00 33 0F 
   312)       388.8  Rx         0288  8  2C 8D 11 04 00 4C 07 87 
   313)       389.3  Rx         0380  8  00 66 0B 0F 20 00 00 0B 
   314)       389.7  Rx         0488  8  70 0D 0F 7E FE 8D FF 80 
   315)       390.7  Rx         0440  8  00 80 00 FE 80 80 90 00 
   316)       394.6  Rx         0540  8  20 00 FF 00 FE 00 00 16 
   317)       395.2  Rx         0480  8  1C 1A F3 55 19 00 00 B9 
   318)       395.6  Rx         0284  6  0F 0F 00 00 00 00 
   319)       396.0  Rx         0588  8  1A 66 7E 00 00 00 00 00 
   320)       396.5  Rx         056A  8  C1 00 08 00 1A 00 02 D1 
   321)       400.6  Rx         0440  8  00 80 00 FE 80 80 98 00 
   322)       401.3  Rx         0280  8  01 0D D1 0C 0F 00 33 0F 
   323)       401.7  Rx         0288  8  2C 8D 11 04 00 4C 07 87 
   324)       402.2  Rx         0380  8  00 66 0B 0F 20 00 00 0B 
   325)       402.8  Rx         0488  8  60 0D 0F 7E FE 8D FF 90 
   326)       404.7  Rx         0540  8  30 00 FF 00 FE 00 00 16 
   327)       408.2  Rx         0280  8  01 0D D1 0C 0F 00 33 0F 
   328)       408.8  Rx         0288  8  2C 8D 11 04 00 4C 07 87 
   329)       409.3  Rx         0380  8  00 66 0B 0F 20 00 00 0B 
   330)       409.7  Rx         0488  8  50 0D 0F 7E FE 8D FF A0 
   331)       410.7  Rx         0440  8  00 80 00 FE 80 80 A0 00 
   332)       414.6  Rx         0540  8  40 00 FF 00 FE 00 00 16 
   333)       415.3  Rx         0480  8  1C 1A F3 55 19 00 00 B9 
   334)       415.6  Rx         0284  6  00 00 00 00 00 00 
   335)       416.1  Rx         0588  8  1A 66 7E 00 00 00 00 00 
   336)       416.5  Rx         056A  8  F1 00 08 00 1A 00 02 E1 
   337)       420.6  Rx         0440  8  00 80 00 FE 80 80 A8 00 
   338)       421.3  Rx         0280  8  01 0D D1 0C 0F 00 33 0F 
   339)       421.7  Rx         0288  8  64 8D 11 04 00 4C 07 87 
   340)       422.2  Rx         0380  8  00 66 0B 0F 20 00 00 0B 
   341)       422.8  Rx         0488  8  40 0D 0F 7E FE 8D FF B0 
   342)       424.7  Rx         0540  8  50 00 FF 00 FE 00 00 16 
   343)       428.3  Rx         0280  8  01 0D C5 0C 0F 00 33 0F 
   344)       428.7  Rx         0288  8  64 8D 11 04 00 4C 07 87 
   345)       429.3  Rx         0380  8  00 66 0B 0F 20 00 00 0B 
   346)       429.8  Rx         0488  8  30 0D 0F 7E FE 8D FF C0 
   347)       430.7  Rx         0440  8  00 80 00 FE 80 80 B0 00 
   348)       434.7  Rx         0540  8  60 00 FF 00 FE 00 00 16 
   349)       435.2  Rx         0480  8  1C 1A F3 55 19 00 00 B9 
   350)       435.6  Rx         0284  6  01 01 00 00 00 00 
   351)       436.1  Rx         0588  8  1A 66 7E 00 00 00 00 00 
   352)       436.5  Rx         056A  8  E1 00 08 00 1A 00 02 F1 
   353)       440.6  Rx         0440  8  00 80 00 FE 80 80 B8 00 
   354)       441.2  Rx         0280  8  01 0D C5 0C 0F 00 33 0F 
   355)       441.8  Rx         0288  8  64 8D 11 04 00 4C 07 87 
   356)       442.3  Rx         0380  8  00 66 0B 0F 20 00 00 0B 
   357)       442.9  Rx         0488  8  20 0D 0F 7E FE 8D FF D0 
   358)       444.7  Rx         0540  8  70 00 FF 00 FE 00 00 16 
   359)       448.3  Rx         0280  8  01 0D C5 0C 0F 00 33 0F 
   360)       448.8  Rx         0288  8  64 8D 11 04 00 4C 07 87 
   361)       449.3  Rx         0380  8  00 66 0B 0F 20 00 00 0B 
   362)       449.8  Rx         0488  8  10 0D 0F 7E FE 8D FF E0 
   363)       450.7  Rx         0440  8  00 80 00 FE 80 80 C0 00 
   364)       454.7  Rx         0540  8  80 00 FF 00 FE 00 00 16 
   365)       455.2  Rx         0480  8  1C 1A F3 55 19 00 00 B9 
   366)       455.7  Rx         0284  6  02 02 00 00 00 00 
   367)       456.3  Rx         0588  8  1A 66 7E 00 00 00 00 00 
   368)       456.8  Rx         056A  8  11 00 08 00 1A 00 02 01 
   369)       460.6  Rx         0440  8  00 80 00 FE 80 80 C8 00 
   370)       462.2  Rx         0280  8  01 0D C5 0C 0F 00 33 0F 
   371)       462.6  Rx         0288  8  8A 8D 11 04 00 4C 07 87 
   372)       463.3  Rx         0380  8  00 66 0B 0F 20 00 00 0B 
   373)       463.7  Rx         0488  8  00 0D 0F 7E FE 8D FF F0 
   374)       464.7  Rx         0540  8  90 00 FF 00 FE 00 00 16 
   375)       469.3  Rx         0280  8  01 0D AA 0C 0F 00 33 0F 
   376)       469.7  Rx         0288  8  8A 8D 11 04 00 4C 07 87 
   377)       470.2  Rx         0380  8  00 66 0B 0F 20 00 00 0B 
   378)       470.6  Rx         0488  8  F0 0D 0F 7E FE 8D FF 00 
   379)       470.8  Rx         0440  8  00 80 00 FE 80 80 D0 00 
   380)       474.7  Rx         0540  8  A0 00 FF 00 FE 00 00 16 
   381)       476.1  Rx         0480  8  1C 1A F3 55 19 00 00 B9 
   382)       476.5  Rx         0284  6  03 03 00 00 00 00 
   383)       477.0  Rx         0588  8  1A 66 7E 00 00 00 00 00 
   384)       477.5  Rx         056A  8  01 00 08 00 1A 00 02 11 
   385)       480.6  Rx         0440  8  00 80 00 FE 80 80 D8 00 
   386)       482.2  Rx         0280  8  01 0D AA 0C 0F 00 33 0F 
   387)       482.6  Rx         0288  8  8A 8D 11 04 00 4C 07 87 
   388)       483.6  Rx         0380  8  00 66 0B 0F 20 00 00 0B 
   389)       484.1  Rx         0488  8  E0 0D 0F 7E FE 8D FF 10 
   390)       484.7  Rx         0540  8  B0 00 FF 00 FE 00 00 16 
   391)       489.3  Rx         0280  8  01 0D AA 0C 0F 00 33 0F 
   392)       489.7  Rx         0288  8  8A 8D 11 04 00 4C 07 87 
   393)       490.1  Rx         0380  8  00 66 0B 0F 20 00 00 0B 
   394)       490.6  Rx         0488  8  D0 0D 0F 7E FE 8D FF 20 
   395)       490.8  Rx         0440  8  00 80 00 FE 80 80 E0 00 
   396)       494.7  Rx         0540  8  C0 00 FF 00 FE 00 00 16 
   397)       496.1  Rx         0480  8  1C 1A F3 55 19 00 00 B9 
   398)       496.5  Rx         0284  6  04 04 00 00 00 00 
   399)       497.0  Rx         0588  8  1A 66 7E 00 00 00 00 00 
   400)       497.4  Rx         056A  8  31 00 08 00 1A 00 02 21 
   401)       500.6  Rx         0440  8  00 80 00 FE 80 80 E8 00 
   402)       502.2  Rx         0280  8  01 0D A0 0C 0F 00 33 0F 
   403)       502.6  Rx         0288  8  E8 8D 11 04 00 4C 07 87 
   404)       503.3  Rx         0380  8  00 66 0B 0F 20 00 00 0B 
   405)       503.7  Rx         0488  8  C0 0D 0F 7E FE 8D FF 30 
   406)       504.7  Rx         0540  8  D0 00 FF 00 FE 00 00 16 
   407)       509.2  Rx         0280  8  01 0D A0 0C 0F 00 33 0F 
   408)       509.7  Rx         0288  8  E8 8D 11 04 00 4C 07 87 
   409)       510.2  Rx         0380  8  00 66 0B 0F 20 00 00 0B 
   410)       510.5  Rx         0488  8  B0 0D 0F 7E FE 8D FF 40 
   411)       510.8  Rx         0440  8  00 80 00 FE 80 80 F0 00 
   412)       514.6  Rx         0540  8  E0 00 FF 00 FE 00 00 16 
   413)       516.1  Rx         0480  8  1C 1A F3 55 19 00 00 B9 
   414)       516.5  Rx         0284  6  05 05 00 00 00 00 
   415)       517.0  Rx         0588  8  1A 66 7E 00 00 00 00 00 
   416)       517.4  Rx         056A  8  21 00 08 00 1A 00 02 31 
   417)       520.6  Rx         0440  8  00 80 00 FE 80 80 F8 00 
   418)       522.2  Rx         0280  8  01 0D A0 0C 0F 00 33 0F 
   419)       522.6  Rx         0288  8  E8 8D 11 04 00 4C 07 87 
   420)       523.3  Rx         0380  8  00 66 0B 0F 20 00 00 0B 
   421)       523.7  Rx         0488  8  A0 0D 0F 7E FE 8D FF 50 
   422)       524.7  Rx         0540  8  F0 00 FF 00 FE 00 00 16 
   423)       529.2  Rx         0280  8  01 0D A0 0C 0F 00 33 0F 
   424)       529.6  Rx         0288  8  E8 8D 11 04 00 4C 07 87 
   425)       530.2  Rx         0380  8  00 66 0B 0F 20 00 00 0B 
   426)       530.6  Rx         0488  8  90 0D 0F 7E FE 8D FF 60 
   427)       530.8  Rx         0440  8  00 80 00 FE 80 80 80 00 
   428)       534.6  Rx         0540  8  00 00 FF 00 FE 00 00 16 
   429)       536.1  Rx         0284  6  06 06 00 00 00 00 
   430)       536.5  Rx         0480  8  1C 1A F3 55 19 00 00 B9 
   431)       537.0  Rx         0588  8  1A 66 7E 00 00 00 00 00 
   432)       537.5  Rx         056A  8  51 00 08 00 1A 00 02 41 
   433)       540.6  Rx         0440  8  00 80 00 FE 80 80 88 00 
   434)       542.2  Rx         0280  8  01 0D 9D 0C 0F 00 33 0F 
   435)       542.6  Rx         0288  8  2C 8D 11 04 00 4C 07 87 
   436)       543.3  Rx         0380  8  00 66 0B 0F 20 00 00 0B 
   437)       543.7  Rx         0488  8  80 0D 0F 7E FE 8D FF 70 
   438)       544.7  Rx         0540  8  10 00 FF 00 FE 00 00 16 
   439)       549.3  Rx         0280  8  01 0D 9D 0C 0F 00 33 0F 
   440)       549.7  Rx         0288  8  2C 8D 11 04 00 4C 07 87 
   441)       550.1  Rx         0380  8  00 66 0B 0F 20 00 00 0B 
   442)       550.6  Rx         0488  8  70 0D 0F 7E FE 8D FF 80 
   443)       550.8  Rx         0440  8  00 80 00 FE 80 80 90 00 
   444)       554.7  Rx         0540  8  20 00 FF 00 FE 00 00 16 
   445)       556.1  Rx         0480  8  1C 1A F3 55 19 00 00 B9 
   446)       556.5  Rx         0284  6  07 07 00 00 00 00 
   447)       556.9  Rx         0588  8  1A 66 7E 00 00 00 00 00 
   448)       557.6  Rx         056A  8  41 00 08 00 1A 00 02 51 
   449)       560.6  Rx         0440  8  00 80 00 FE 80 80 98 00 
   450)       563.3  Rx         0280  8  01 0D 9D 0C 0F 00 33 0F 
   451)       563.7  Rx         0288  8  2C 8D 11 04 00 4C 07 87 
   452)       564.2  Rx         0380  8  00 66 0B 0F 20 00 00 0B 
   453)       564.6  Rx         0488  8  60 0D 0F 7E FE 8D FF 90 
   454)       564.9  Rx         0540  8  30 00 FF 00 FE 00 00 16 
   455)       570.1  Rx         0280  8  01 0D 9D 0C 0F 00 33 0F 
   456)       570.5  Rx         0288  8  2C 8D 11 04 00 4C 07 87 
   457)       570.8  Rx         0440  8  00 80 00 FE 80 80 A0 00 
   458)       571.1  Rx         0380  8  00 66 0B 0F 20 00 00 0B 
   459)       571.6  Rx         0488  8  50 0D 0F 7E FE 8D FF A0 
   460)       574.6  Rx         0540  8  40 00 FF 00 FE 00 00 16 
   461)       577.2  Rx         0480  8  1C 1A F3 55 19 00 00 B9 
   462)       577.6  Rx         0284  6  08 08 00 00 00 00 
   463)       578.1  Rx         0588  8  1A 66 7E 00 00 00 00 00 
   464)       578.6  Rx         056A  8  71 00 08 00 1A 00 02 61 
   465)       579.1  Rx         0280  8  01 0D 9B 0C 0F 00 33 0F 
   466)       579.5  Rx         0288  8  64 8D 11 04 00 4C 07 87 
   467)       580.1  Rx         0380  8  00 66 0B 0F 20 00 00 0B 
   468)       580.5  Rx         0488  8  40 0D 0F 7E FE 8D FF B0 
   469)       580.7  Rx         0440  8  00 80 00 FE 80 80 A8 00 
   470)       584.7  Rx         0540  8  50 00 FF 00 FE 00 00 16 
   471)       590.1  Rx         0280  8  01 0D 9B 0C 0F 00 33 0F 
   472)       590.5  Rx         0288  8  64 8D 11 04 00 4C 07 87 
   473)       590.7  Rx         0440  8  00 80 00 FE 80 80 B0 00 
   474)       591.1  Rx         0380  8  00 66 0B 0F 20 00 00 0B 
   475)       591.6  Rx         0488  8  30 0D 0F 7E FE 8D FF C0 
   476)       594.6  Rx         0540  8  60 00 FF 00 FE 00 00 16 
   477)       597.2  Rx         0480  8  1C 1A F3 55 19 00 00 B9 
   478)       597.6  Rx         0284  6  09 09 00 00 00 00 
   479)       598.1  Rx         0588  8  1A 66 7E 00 00 00 00 00 
   480)       598.6  Rx         056A  8  61 00 08 00 1A 00 02 71 
   481)       599.2  Rx         0280  8  01 0D 9B 0C 0F 00 33 0F 
   482)       599.5  Rx         0288  8  64 8D 11 04 00 4C 07 87 
   483)       600.0  Rx         0380  8  00 66 0B 0F 20 00 00 0B 
   484)       600.5  Rx         0488  8  20 0D 0F 7E FE 8D FF D0 
   485)       600.7  Rx         0440  8  00 80 00 FE 80 80 B8 00 
   486)       604.6  Rx         0540  8  70 00 FF 00 FE 00 00 16 
   487)       610.1  Rx         0280  8  01 0D 9B 0C 0F 00 33 0F 
   488)       610.5  Rx         0288  8  64 8D 11 04 00 4C 07 87 
   489)       610.7  Rx         0440  8  00 80 00 FE 80 80 C0 00 
   490)       611.1  Rx         0380  8  00 66 0B 0F 20 00 00 0B 
   491)       611.6  Rx         0488  8  10 0D 0F 7E FE 8D FF E0 
   492)       614.6  Rx         0540  8  80 00 FF 00 FE 00 00 16 
   493)       617.2  Rx         0480  8  1C 1A F3 55 19 00 00 B9 
   494)       617.5  Rx         0284  6  0A 0A 00 00 00 00 
   495)       618.1  Rx         0588  8  1A 66 7E 00 00 00 00 00 
   496)       618.6  Rx         056A  8  91 00 08 00 1A 00 02 81 
   497)       619.1  Rx         0280  8  01 0D A0 0C 0F 00 33 0F 
   498)       619.6  Rx         0288  8  8A 8D 11 04 00 4C 07 87 
   499)       620.1  Rx         0380  8  00 66 0B 0F 20 00 00 0B 
   500)       620.5  Rx         0488  8  00 0D 0F 7E FE 8D FF F0 
   501)       620.7  Rx         0440  8  00 80 00 FE 80 80 C8 00 
   502)       624.6  Rx         0540  8  90 00 FF 00 FE 00 00 16 
   503)       630.1  Rx         0280  8  01 0D A0 0C 0F 00 33 0F 
   504)       630.5  Rx         0288  8  8A 8D 11 04 00 4C 07 87 
   505)       630.7  Rx         0440  8  00 80 00 FE 80 80 D0 00 
   506)       631.1  Rx         0380  8  00 66 0B 0F 20 00 00 0B 
   507)       631.6  Rx         0488  8  F0 0D 0F 7E FE 8D FF 00 
   508)       634.6  Rx         0540  8  A0 00 FF 00 FE 00 00 16 
   509)       637.2  Rx         0480  8  1C 1A F3 55 19 00 00 B9 
   510)       637.6  Rx         0284  6  0B 0B 00 00 00 00 
   511)       638.1  Rx         0588  8  1A 66 7E 00 00 00 00 00 
   512)       638.6  Rx         056A  8  81 00 08 00 1A 00 02 91 
   513)       639.1  Rx         0280  8  01 0D A0 0C 0F 00 33 0F 
   514)       639.6  Rx         0288  8  8A 8D 11 04 00 4C 07 87 
   515)       640.1  Rx         0380  8  00 66 0B 0F 20 00 00 0B 
   516)       640.5  Rx         0488  8  E0 0D 0F 7E FE 8D FF 10 
   517)       640.8  Rx         0440  8  00 80 00 FE 80 80 D8 00 
   518)       644.6  Rx         0540  8  B0 00 FF 00 FE 00 00 16 
   519)       650.1  Rx         0280  8  01 0D AA 0C 0F 00 33 0F 
   520)       650.5  Rx         0288  8  8A 8D 11 04 00 4C 07 87 
   521)       650.7  Rx         0440  8  00 80 00 FE 80 80 E0 00 
   522)       651.1  Rx         0380  8  00 66 0B 0F 20 00 00 0B 
   523)       651.6  Rx         0488  8  D0 0D 0F 7E FE 8D FF 20 
   524)       654.6  Rx         0540  8  C0 00 FF 00 FE 00 00 16 
   525)       657.2  Rx         0480  8  1C 1A F3 55 19 00 00 B9 
   526)       657.6  Rx         0284  6  0C 0C 00 00 00 00 
   527)       658.1  Rx         0588  8  1A 66 7E 00 00 00 00 00 
   528)       658.5  Rx         056A  8  B1 00 08 00 1A 00 02 A1 
   529)       659.1  Rx         0280  8  01 0D AA 0C 0F 00 33 0F 
   530)       659.5  Rx         0288  8  E8 8D 11 04 00 4C 07 87 
   531)       660.0  Rx         0380  8  00 66 0B 0F 20 00 00 0B 
   532)       660.5  Rx         0488  8  C0 0D 0F 7E FE 8D FF 30 
   533)       660.7  Rx         0440  8  00 80 00 FE 80 80 E8 00 
   534)       664.6  Rx         0540  8  D0 00 FF 00 FE 00 00 16 
   535)       670.1  Rx         0280  8  01 0D AA 0C 0F 00 33 0F 
   536)       670.5  Rx         0288  8  E8 8D 11 04 00 4C 07 87 
   537)       670.7  Rx         0440  8  00 80 00 FE 80 80 F0 00 
   538)       671.1  Rx         0380  8  00 66 0B 0F 20 00 00 0B 
   539)       671.5  Rx         0488  8  B0 0D 0F 7E FE 8D FF 40 
   540)       674.6  Rx         0540  8  E0 00 FF 00 FE 00 00 16 
   541)       677.2  Rx         0480  8  1C 1A F3 55 19 00 00 B9 
   542)       677.5  Rx         0284  6  0D 0D 00 00 00 00 
   543)       678.1  Rx         0588  8  1A 66 7E 00 00 00 00 00 
   544)       678.6  Rx         056A  8  A1 00 08 00 1A 00 02 B1 
   545)       679.1  Rx         0280  8  01 0D AA 0C 0F 00 33 0F 
   546)       679.5  Rx         0288  8  E8 8D 11 04 00 4C 07 87 
   547)       680.0  Rx         0380  8  00 66 0B 0F 20 00 00 0B 
   548)       680.5  Rx         0488  8  A0 0D 0F 7E FE 8D FF 50 
   549)       680.7  Rx         0440  8  00 80 00 FE 80 80 F8 00 
   550)       684.6  Rx         0540  8  F0 00 FF 00 FE 00 00 16 
   551)       690.1  Rx         0280  8  01 0D A5 0C 0F 00 33 0F 
   552)       690.5  Rx         0288  8  E8 8D 11 04 00 4C 07 87 
   553)       690.8  Rx         0440  8  00 80 00 FE 80 80 80 00 
   554)       691.1  Rx         0380  8  00 66 0B 0F 20 00 00 0B 
   555)       691.5  Rx         0488  8  90 0D 0F 7E FE 8D FF 60 
   556)       694.6  Rx         0540  8  00 00 FF 00 FE 00 00 16 
   557)       697.1  Rx         0480  8  1C 1A F3 55 19 00 00 B9 
   558)       697.5  Rx         0284  6  0E 0E 00 00 00 00 
   559)       698.1  Rx         0588  8  1A 66 7E 00 00 00 00 00 
   560)       698.5  Rx         056A  8  D1 00 08 00 1A 00 02 C1 
   561)       699.1  Rx         0280  8  01 0D A5 0C 0F 00 33 0F 
   562)       699.5  Rx         0288  8  2C 8D 11 04 00 4C 07 87 
   563)       700.0  Rx         0380  8  00 66 0B 0F 20 00 00 0B 
   564)       700.5  Rx         0488  8  80 0D 0F 7E FE 8D FF 70 
   565)       700.7  Rx         0440  8  00 80 00 FE 80 80 88 00 
   566)       704.6  Rx         0540  8  10 00 FF 00 FE 00 00 16 
   567)       710.1  Rx         0280  8  01 0D A5 0C 0F 00 33 0F 
   568)       710.5  Rx         0288  8  2C 8D 11 04 00 4C 07 87 
   569)       710.7  Rx         0440  8  00 80 00 FE 80 80 90 00 
   570)       711.1  Rx         0380  8  00 66 0B 0F 20 00 00 0B 
   571)       711.5  Rx         0488  8  70 0D 0F 7E FE 8D FF 80 
   572)       714.6  Rx         0540  8  20 00 FF 00 FE 00 00 16 
   573)       717.2  Rx         0480  8  1C 1A F3 55 19 00 00 B9 
   574)       717.6  Rx         0284  6  0F 0F 00 00 00 00 
   575)       718.1  Rx         0588  8  1A 66 7E 00 00 00 00 00 
   576)       718.5  Rx         056A  8  C1 00 08 00 1A 00 02 D1 
   577)       719.1  Rx         0280  8  01 0D A5 0C 0F 00 33 0F 
   578)       719.5  Rx         0288  8  2C 8D 11 04 00 4C 07 87 
   579)       720.0  Rx         0380  8  00 66 0B 0F 20 00 00 0B 
   580)       720.5  Rx         0488  8  60 0D 0F 7E FE 8D FF 90 
   581)       720.7  Rx         0440  8  00 80 00 FE 80 80 98 00 
   582)       724.6  Rx         0540  8  30 00 FF 00 FE 00 00 16 
   583)       730.1  Rx         0280  8  01 0D 99 0C 0F 00 33 0F 
   584)       730.5  Rx         0288  8  2C 8D 11 04 00 4C 07 87 
   585)       730.7  Rx         0440  8  00 80 00 FE 80 80 A0 00 
   586)       731.1  Rx         0380  8  00 66 0B 0F 20 00 00 0B 
   587)       731.5  Rx         0488  8  50 0D 0F 7E FE 8D FF A0 
   588)       734.6  Rx         0540  8  40 00 FF 00 FE 00 00 16 
   589)       737.2  Rx         0480  8  1C 1A F3 55 19 00 00 B9 
   590)       737.5  Rx         0284  6  00 00 00 00 00 00 
   591)       738.0  Rx         0588  8  1A 66 7E 00 00 00 00 00 
   592)       738.5  Rx         056A  8  F1 00 08 00 1A 00 02 E1 
   593)       739.1  Rx         0280  8  01 0D 99 0C 0F 00 33 0F 
   594)       739.5  Rx         0288  8  64 8D 11 04 00 4C 07 87 
   595)       740.0  Rx         0380  8  00 66 0B 0F 20 00 00 0B 
   596)       740.5  Rx         0488  8  40 0D 0F 7E FE 8D FF B0 
   597)       740.7  Rx         0440  8  00 80 00 FE 80 80 A8 00 
   598)       744.6  Rx         0540  8  50 00 FF 00 FE 00 00 16 
   599)       750.0  Rx         0280  8  01 0D 99 0C 0F 00 33 0F 
   600)       750.5  Rx         0288  8  64 8D 11 04 00 4C 07 87 
   601)       750.7  Rx         0440  8  00 80 00 FE 80 80 B0 00 
   602)       751.1  Rx         0380  8  00 66 0B 0F 20 00 00 0B 
   603)       751.5  Rx         0488  8  30 0D 0F 7E FE 8D FF C0 
   604)       754.6  Rx         0540  8  60 00 FF 00 FE 00 00 16 
   605)       757.1  Rx         0480  8  1C 1A F3 55 19 00 00 B9 
   606)       757.5  Rx         0284  6  01 01 00 00 00 00 
   607)       758.1  Rx         0588  8  1A 66 7E 00 00 00 00 00 
   608)       758.5  Rx         056A  8  E1 00 08 00 1A 00 02 F1 
   609)       759.1  Rx         0280  8  01 0D 8F 0C 0F 00 33 0F 
   610)       759.5  Rx         0288  8  64 8D 11 04 00 4C 07 87 
   611)       760.0  Rx         0380  8  00 66 0B 0F 20 00 00 0B 
   612)       760.4  Rx         0488  8  20 0D 0F 7E FE 8D FF D0 
   613)       760.7  Rx         0440  8  00 80 00 FE 80 80 B8 00 
   614)       764.6  Rx         0540  8  70 00 FF 00 FE 00 00 16 
   615)       770.0  Rx         0280  8  01 0D 8F 0C 0F 00 33 0F 
   616)       770.6  Rx         0440  8  00 80 00 FE 80 80 C0 00 
   617)       770.8  Rx         0288  8  64 8D 11 04 00 4C 07 87 
   618)       771.3  Rx         0380  8  00 66 0B 0F 20 00 00 0B 
   619)       771.8  Rx         0488  8  10 0D 0F 7E FE 8D FF E0 
   620)       774.6  Rx         0540  8  80 00 FF 00 FE 00 00 16 
   621)       777.1  Rx         0480  8  1C 1A F3 55 19 00 00 B9 
   622)       777.5  Rx         0284  6  02 02 00 00 00 00 
   623)       778.1  Rx         0588  8  1A 66 7E 00 00 00 00 00 
   624)       778.5  Rx         056A  8  11 00 08 00 1A 00 02 01 
   625)       779.1  Rx         0280  8  01 0D 8F 0C 0F 00 33 0F 
   626)       779.5  Rx         0288  8  8A 8D 11 04 00 4C 07 87 
   627)       780.0  Rx         0380  8  00 66 0B 0F 20 00 00 0B 
   628)       780.5  Rx         0488  8  00 0D 0F 7E FE 8D FF F0 
   629)       780.7  Rx         0440  8  00 80 00 FE 80 80 C8 00 
   630)       784.6  Rx         0540  8  90 00 FF 00 FE 00 00 16 
   631)       790.6  Rx         0440  8  00 80 00 FE 80 80 D0 00 
   632)       791.2  Rx         0280  8  01 0D 8F 0C 0F 00 33 0F 
   633)       791.6  Rx         0288  8  8A 8D 11 04 00 4C 07 87 
   634)       792.1  Rx         0380  8  00 66 0B 0F 20 00 00 0B 
   635)       792.6  Rx         0488  8  F0 0D 0F 7E FE 8D FF 00 
   636)       793.2  Rx         0480  8  1C 1A F3 55 19 00 00 B9 
   637)       793.6  Rx         0284  6  03 03 00 00 00 00 
   638)       794.0  Rx         0588  8  1A 66 7E 00 00 00 00 00 
   639)       794.5  Rx         056A  8  01 00 08 00 1A 00 02 11 
   640)       794.7  Rx         0540  8  A0 00 FF 00 FE 00 00 16 
   641)       799.2  Rx         0280  8  01 0D 94 0C 0F 00 33 0F 
   642)       799.6  Rx         0288  8  8A 8D 11 04 00 4C 07 87 
   643)       800.1  Rx         0380  8  00 66 0B 0F 20 00 00 0B 
   644)       800.5  Rx         0488  8  E0 0D 0F 7E FE 8D FF 10 
   645)       800.8  Rx         0440  8  00 80 00 FE 80 80 D8 00 
   646)       804.6  Rx         0540  8  B0 00 FF 00 FE 00 00 16 
   647)       810.6  Rx         0440  8  00 80 00 FE 80 80 E0 00 
   648)       811.1  Rx         0280  8  01 0D 94 0C 0F 00 33 0F 
   649)       811.6  Rx         0288  8  8A 8D 11 04 00 4C 07 87 
   650)       812.1  Rx         0380  8  00 66 0B 0F 20 00 00 0B 
   651)       812.5  Rx         0488  8  D0 0D 0F 7E FE 8D FF 20 
   652)       813.2  Rx         0480  8  1C 1A F3 55 19 00 00 B9 
   653)       813.6  Rx         0284  6  04 04 00 00 00 00 
   654)       814.0  Rx         0588  8  1A 66 7E 00 00 00 00 00 
   655)       814.4  Rx         056A  8  31 00 08 00 1A 00 02 21 
   656)       814.7  Rx         0540  8  C0 00 FF 00 FE 00 00 16 
   657)       819.1  Rx         0280  8  01 0D 94 0C 0F 00 33 0F 
   658)       819.6  Rx         0288  8  E8 8D 11 04 00 4C 07 87 
   659)       820.1  Rx         0380  8  00 66 0B 0F 20 00 00 0B 
   660)       820.6  Rx         0488  8  C0 0D 0F 7E FE 8D FF 30 
   661)       820.8  Rx         0440  8  00 80 00 FE 80 80 E8 00 
   662)       824.6  Rx         0540  8  D0 00 FF 00 FE 00 00 16 
   663)       830.5  Rx         0440  8  00 80 00 FE 80 80 F0 00 
   664)       831.1  Rx         0280  8  01 0D 94 0C 0F 00 33 0F 
   665)       831.6  Rx         0288  8  E8 8D 11 04 00 4C 07 87 
   666)       832.1  Rx         0380  8  00 66 0B 0F 20 00 00 0B 
   667)       832.6  Rx         0488  8  B0 0D 0F 7E FE 8D FF 40 
   668)       833.5  Rx         0480  8  1C 1A F3 55 19 00 00 B9 
   669)       834.0  Rx         0284  6  05 05 00 00 00 00 
   670)       834.3  Rx         0588  8  1A 66 7E 00 00 00 00 00 
   671)       834.6  Rx         0540  8  E0 00 FF 00 FE 00 00 16 
   672)       834.9  Rx         056A  8  21 00 08 00 1A 00 02 31 
   673)       840.1  Rx         0280  8  01 0D 96 0C 0F 00 33 0F 
   674)       840.5  Rx         0288  8  E8 8D 11 04 00 4C 07 87 
   675)       840.7  Rx         0440  8  00 80 00 FE 80 80 F8 00 
   676)       841.1  Rx         0380  8  00 66 0B 0F 20 00 00 0B 
   677)       841.6  Rx         0488  8  A0 0D 0F 7E FE 8D FF 50 
   678)       844.6  Rx         0540  8  F0 00 FF 00 FE 00 00 16 
   679)       850.6  Rx         0440  8  00 80 00 FE 80 80 80 00 
   680)       852.1  Rx         0280  8  01 0D 96 0C 0F 00 33 0F 
   681)       852.5  Rx         0288  8  E8 8D 11 04 00 4C 07 87 
   682)       853.2  Rx         0380  8  00 66 0B 0F 20 00 00 0B 
   683)       853.7  Rx         0488  8  90 0D 0F 7E FE 8D FF 60 
   684)       854.1  Rx         0480  8  1C 1A F3 55 19 00 00 B9 
   685)       854.5  Rx         0284  6  06 06 00 00 00 00 
   686)       854.7  Rx         0540  8  00 00 FF 00 FE 00 00 16 
   687)       855.0  Rx         0588  8  1A 66 7E 00 00 00 00 00 
   688)       855.4  Rx         056A  8  51 00 08 00 1A 00 02 41 
   689)       860.0  Rx         0280  8  01 0D 96 0C 0F 00 33 0F 
   690)       860.5  Rx         0288  8  2C 8D 11 04 00 4C 07 87 
   691)       860.7  Rx         0440  8  00 80 00 FE 80 80 88 00 
   692)       861.1  Rx         0380  8  00 66 0B 0F 20 00 00 0B 
   693)       861.5  Rx         0488  8  80 0D 0F 7E FE 8D FF 70 
   694)       864.6  Rx         0540  8  10 00 FF 00 FE 00 00 16 
   695)       870.6  Rx         0440  8  00 80 00 FE 80 80 90 00 
   696)       872.0  Rx         0280  8  01 0D 96 0C 0F 00 33 0F 
   697)       872.5  Rx         0288  8  2C 8D 11 04 00 4C 07 87 
   698)       873.2  Rx         0380  8  00 66 0B 0F 20 00 00 0B 
   699)       873.7  Rx         0488  8  70 0D 0F 7E FE 8D FF 80 
   700)       874.1  Rx         0480  8  1C 1A F3 55 19 00 00 B9 
   701)       874.5  Rx         0284  6  07 07 00 00 00 00 
   702)       874.7  Rx         0540  8  20 00 FF 00 FE 00 00 16 
   703)       875.0  Rx         0588  8  1A 66 7E 00 00 00 00 00 
   704)       875.4  Rx         056A  8  41 00 08 00 1A 00 02 51 
   705)       880.1  Rx         0280  8  01 0D B1 0C 0F 00 33 0F 
   706)       880.5  Rx         0288  8  2C 8D 11 04 00 4C 07 87 
   707)       880.7  Rx         0440  8  00 80 00 FE 80 80 98 00 
   708)       881.3  Rx         0380  8  00 66 0B 0F 20 00 00 0B 
   709)       881.8  Rx         0488  8  60 0D 0F 7E FE 8D FF 90 
   710)       884.6  Rx         0540  8  30 00 FF 00 FE 00 00 16 
   711)       890.5  Rx         0440  8  00 80 00 FE 80 80 A0 00 
   712)       892.1  Rx         0280  8  01 0D B1 0C 0F 00 33 0F 
   713)       892.5  Rx         0288  8  2C 8D 11 04 00 4C 07 87 
   714)       893.2  Rx         0380  8  00 66 0B 0F 20 00 00 0B 
   715)       893.7  Rx         0488  8  50 0D 0F 7E FE 8D FF A0 
   716)       894.1  Rx         0480  8  1C 1A F3 55 19 00 00 B9 
   717)       894.5  Rx         0284  6  08 08 00 00 00 00 
   718)       894.7  Rx         0540  8  40 00 FF 00 FE 00 00 16 
   719)       894.9  Rx         0588  8  1A 66 7E 00 00 00 00 00 
   720)       895.4  Rx         056A  8  71 00 08 00 1A 00 02 61 
   721)       900.0  Rx         0280  8  01 0D B1 0C 0F 00 33 0F 
   722)       900.4  Rx         0288  8  64 8D 11 04 00 4C 07 87 
   723)       900.7  Rx         0440  8  00 80 00 FE 80 80 A8 00 
   724)       901.1  Rx         0380  8  00 66 0B 0F 20 00 00 0B 
   725)       901.5  Rx         0488  8  40 0D 0F 7E FE 8D FF B0 
   726)       904.6  Rx         0540  8  50 00 FF 00 FE 00 00 16 
   727)       910.5  Rx         0440  8  00 80 00 FE 80 80 B0 00 
   728)       912.1  Rx         0280  8  01 0D C5 0C 0F 00 33 0F 
   729)       912.5  Rx         0288  8  64 8D 11 04 00 4C 07 87 
   730)       913.2  Rx         0380  8  00 66 0B 0F 20 00 00 0B 
   731)       913.7  Rx         0488  8  30 0D 0F 7E FE 8D FF C0 
   732)       914.1  Rx         0480  8  1C 1A F3 55 19 00 00 B9 
   733)       914.5  Rx         0284  6  09 09 00 00 00 00 
   734)       914.7  Rx         0540  8  60 00 FF 00 FE 00 00 16 
   735)       915.0  Rx         0588  8  1A 66 7E 00 00 00 00 00 
   736)       915.4  Rx         056A  8  61 00 08 00 1A 00 02 71 
   737)       920.0  Rx         0280  8  01 0D C5 0C 0F 00 33 0F 
   738)       920.4  Rx         0288  8  64 8D 11 04 00 4C 07 87 
   739)       920.7  Rx         0440  8  00 80 00 FE 80 80 B8 00 
   740)       921.1  Rx         0380  8  00 66 0B 0F 20 00 00 0B 
   741)       921.5  Rx         0488  8  20 0D 0F 7E FE 8D FF D0 
   742)       924.6  Rx         0540  8  70 00 FF 00 FE 00 00 16 
   743)       930.5  Rx         0440  8  00 80 00 FE 80 80 C0 00 
   744)       932.0  Rx         0280  8  01 0D C5 0C 0F 00 33 0F 
   745)       932.5  Rx         0288  8  64 8D 11 04 00 4C 07 87 
   746)       933.5  Rx         0380  8  00 66 0B 0F 20 00 00 0B 
   747)       934.0  Rx         0488  8  10 0D 0F 7E FE 8D FF E0 
   748)       934.4  Rx         0480  8  1C 1A F3 55 19 00 00 B9 
   749)       934.7  Rx         0540  8  80 00 FF 00 FE 00 00 16 
   750)       934.9  Rx         0284  6  0A 0A 00 00 00 00 
   751)       935.3  Rx         0588  8  1A 66 7E 00 00 00 00 00 
   752)       935.8  Rx         056A  8  91 00 08 00 1A 00 02 81 
   753)       940.5  Rx         0440  8  00 80 00 FE 80 80 C8 00 
   754)       941.1  Rx         0280  8  01 0D C5 0C 0F 00 33 0F 
   755)       941.6  Rx         0288  8  8A 8D 11 04 00 4C 07 87 
   756)       942.1  Rx         0380  8  00 66 0B 0F 20 00 00 0B 
   757)       942.7  Rx         0488  8  00 0D 0F 7E FE 8D FF F0 
   758)       944.6  Rx         0540  8  90 00 FF 00 FE 00 00 16 
   759)       950.5  Rx         0440  8  00 80 00 FE 80 80 D0 00 
   760)       953.3  Rx         0280  8  01 0D D1 0C 0F 00 33 0F 
   761)       953.7  Rx         0288  8  8A 8D 11 04 00 4C 07 87 
   762)       954.1  Rx         0380  8  00 66 0B 0F 20 00 00 0B 
   763)       954.6  Rx         0540  8  A0 00 FF 00 FE 00 00 16 
   764)       954.9  Rx         0488  8  F0 0D 0F 7E FE 8D FF 00 
   765)       955.2  Rx         0480  8  1C 1A F3 55 19 00 00 B9 
   766)       955.5  Rx         0284  6  0B 0B 00 00 00 00 
   767)       956.0  Rx         0588  8  1A 66 7E 00 00 00 00 00 
   768)       956.4  Rx         056A  8  81 00 08 00 1A 00 02 91 
   769)       960.5  Rx         0440  8  00 80 00 FE 80 80 D8 00 
   770)       961.2  Rx         0280  8  01 0D D1 0C 0F 00 33 0F 
   771)       961.6  Rx         0288  8  8A 8D 11 04 00 4C 07 87 
   772)       962.1  Rx         0380  8  00 66 0B 0F 20 00 00 0B 
   773)       962.7  Rx         0488  8  E0 0D 0F 7E FE 8D FF 10 
   774)       964.6  Rx         0540  8  B0 00 FF 00 FE 00 00 16 
   775)       970.5  Rx         0440  8  00 80 00 FE 80 80 E0 00 
   776)       973.2  Rx         0280  8  01 0D D1 0C 0F 00 33 0F 
   777)       973.7  Rx         0288  8  8A 8D 11 04 00 4C 07 87 
   778)       974.2  Rx         0380  8  00 66 0B 0F 20 00 00 0B 
   779)       974.6  Rx         0540  8  C0 00 FF 00 FE 00 00 16 
   780)       974.8  Rx         0488  8  D0 0D 0F 7E FE 8D FF 20 
   781)       975.1  Rx         0480  8  1C 1A F3 55 19 00 00 B9 
   782)       975.5  Rx         0284  6  0C 0C 00 00 00 00 
   783)       976.0  Rx         0588  8  1A 66 7E 00 00 00 00 00 
   784)       976.4  Rx         056A  8  B1 00 08 00 1A 00 02 A1 
   785)       980.5  Rx         0440  8  00 80 00 FE 80 80 E8 00 
   786)       981.1  Rx         0280  8  01 0D D8 0C 0F 00 33 0F 
   787)       981.6  Rx         0288  8  E8 8D 11 04 00 4C 07 87 
   788)       982.1  Rx         0380  8  00 66 0B 0F 20 00 00 0B 
   789)       982.5  Rx         0488  8  C0 0D 0F 7E FE 8D FF 30 
   790)       984.6  Rx         0540  8  D0 00 FF 00 FE 00 00 16 
   791)       990.5  Rx         0440  8  00 80 00 FE 80 80 F0 00 
   792)       993.3  Rx         0280  8  01 0D D8 0C 0F 00 33 0F 
   793)       993.7  Rx         0288  8  E8 8D 11 04 00 4C 07 87 
   794)       994.2  Rx         0380  8  00 66 0B 0F 20 00 00 0B 
   795)       994.6  Rx         0540  8  E0 00 FF 00 FE 00 00 16 
   796)       994.8  Rx         0488  8  B0 0D 0F 7E FE 8D FF 40 
   797)       995.2  Rx         0480  8  1C 1A F3 55 19 00 00 B9 
   798)       995.6  Rx         0284  6  0D 0D 00 00 00 00 
   799)       996.0  Rx         0588  8  1A 66 7E 00 00 00 00 00 
   800)       996.4  Rx         056A  8  A1 00 08 00 1A 00 02 B1 
   801)      1000.5  Rx         0440  8  00 80 00 FE 80 80 F8 00 
   802)      1001.1  Rx         0280  8  01 0D D8 0C 0F 00 33 0F 
   803)      1001.6  Rx         0288  8  E8 8D 11 04 00 4C 07 87 
   804)      1002.1  Rx         0380  8  00 66 0B 0F 20 00 00 0B 
   805)      1002.7  Rx         0488  8  A0 0D 0F 7E FE 8D FF 50 
   806)      1004.5  Rx         0540  8  F0 00 FF 00 FE 00 00 16 
   807)      1010.5  Rx         0440  8  00 80 00 FE 80 80 80 00 
   808)      1013.2  Rx         0280  8  01 0D D8 0C 0F 00 33 0F 
   809)      1013.7  Rx         0288  8  E8 8D 11 04 00 4C 07 87 
   810)      1014.1  Rx         0380  8  00 66 0B 0F 20 00 00 0B 
   811)      1014.6  Rx         0540  8  00 00 FF 00 FE 00 00 16 
   812)      1014.8  Rx         0488  8  90 0D 0F 7E FE 8D FF 60 
   813)      1015.2  Rx         0480  8  1C 1A F3 55 19 00 00 B9 
   814)      1015.5  Rx         0284  6  0E 0E 00 00 00 00 
   815)      1016.0  Rx         0588  8  1A 66 7E 00 00 00 00 00 
   816)      1016.4  Rx         056A  8  D1 00 08 00 1A 00 02 C1 
   817)      1020.5  Rx         0440  8  00 80 00 FE 80 80 88 00 
   818)      1022.0  Rx         0280  8  01 0D DF 0C 0F 00 33 0F 
   819)      1022.4  Rx         0288  8  2C 8D 11 04 00 4C 07 87 
   820)      1023.1  Rx         0380  8  00 66 0B 0F 20 00 00 0B 
   821)      1023.6  Rx         0488  8  80 0D 0F 7E FE 8D FF 70 
   822)      1024.6  Rx         0540  8  10 00 FF 00 FE 00 00 16 
   823)      1030.5  Rx         0440  8  00 80 00 FE 80 80 90 00 
   824)      1034.0  Rx         0280  8  01 0D DF 0C 0F 00 33 0F 
   825)      1034.4  Rx         0288  8  2C 8D 11 04 00 4C 07 87 
   826)      1034.7  Rx         0540  8  20 00 FF 00 FE 00 00 16 
   827)      1035.0  Rx         0380  8  00 66 0B 0F 20 00 00 0B 
   828)      1035.4  Rx         0488  8  70 0D 0F 7E FE 8D FF 80 
   829)      1035.9  Rx         0480  8  9C 1C F3 55 19 00 00 3F 
   830)      1036.3  Rx         0284  6  0F 0F 00 00 00 00 
   831)      1036.8  Rx         0588  8  1A 66 7E 00 00 00 00 00 
   832)      1037.3  Rx         056A  8  C1 00 08 00 1A 00 02 D1 
   833)      1040.5  Rx         0440  8  00 80 00 FE 80 80 98 00 
   834)      1042.0  Rx         0280  8  01 0D DF 0C 0F 00 33 0F 
   835)      1042.5  Rx         0288  8  2C 8D 11 04 00 4C 07 87 
   836)      1043.2  Rx         0380  8  00 66 0B 0F 20 00 00 0B 
   837)      1043.6  Rx         0488  8  60 0D 0F 7E FE 8D FF 90 
   838)      1044.0  Rx         0580  8  94 00 00 14 1C 93 48 14 
   839)      1044.5  Rx         0540  8  30 00 FF 00 FE 00 00 16 
   840)      1050.5  Rx         0440  8  00 80 00 FE 80 80 A0 00 
   841)      1054.0  Rx         0280  8  01 0D DF 0C 0F 00 33 0F 
   842)      1054.4  Rx         0288  8  2C 8D 11 04 00 4C 07 87 
   843)      1054.7  Rx         0540  8  40 00 FF 00 FE 00 00 16 
   844)      1055.0  Rx         0380  8  00 66 0B 0F 20 00 00 0B 
   845)      1055.5  Rx         0488  8  50 0D 0F 7E FE 8D FF A0 
   846)      1055.9  Rx         0480  8  9C 1C F3 55 19 00 00 3F 
   847)      1056.3  Rx         0284  6  00 00 00 00 00 00 
   848)      1056.8  Rx         0588  8  1A 66 7E 00 00 00 00 00 
   849)      1057.2  Rx         056A  8  F1 00 08 00 1A 00 02 E1 
   850)      1060.5  Rx         0440  8  00 80 00 FE 80 80 A8 00 
   851)      1062.0  Rx         0280  8  01 0D D6 0C 0F 00 33 0F 
   852)      1062.4  Rx         0288  8  64 8D 11 04 00 4C 07 87 
   853)      1063.1  Rx         0380  8  00 66 0B 0F 20 00 00 0B 
   854)      1063.6  Rx         0488  8  40 0D 0F 7E FE 8D FF B0 
   855)      1064.6  Rx         0540  8  50 00 FF 00 FE 00 00 16 
   856)      1070.5  Rx         0440  8  00 80 00 FE 80 80 B0 00 
   857)      1074.0  Rx         0280  8  01 0D D6 0C 0F 00 33 0F 
   858)      1074.4  Rx         0288  8  64 8D 11 04 00 4C 07 87 
   859)      1074.7  Rx         0540  8  60 00 FF 00 FE 00 00 16 
   860)      1075.0  Rx         0380  8  00 66 0B 0F 20 00 00 0B 
   861)      1075.5  Rx         0488  8  30 0D 0F 7E FE 8D FF C0 
   862)      1075.9  Rx         0480  8  9C 1C F3 55 19 00 00 3F 
   863)      1076.3  Rx         0284  6  01 01 00 00 00 00 
   864)      1076.8  Rx         0588  8  1A 66 7E 00 00 00 00 00 
   865)      1077.2  Rx         056A  8  E1 00 08 00 1A 00 02 F1 
   866)      1080.5  Rx         0440  8  00 80 00 FE 80 80 B8 00 
   867)      1082.0  Rx         0280  8  01 0D D6 0C 0F 00 33 0F 
   868)      1082.4  Rx         0288  8  64 8D 11 04 00 4C 07 87 
   869)      1083.4  Rx         0380  8  00 66 0B 0F 20 00 00 0B 
   870)      1083.9  Rx         0488  8  20 0D 0F 7E FE 8D FF D0 
   871)      1084.5  Rx         0540  8  70 00 FF 00 FE 00 00 16 
   872)      1090.5  Rx         0440  8  00 80 00 FE 80 80 C0 00 
   873)      1094.0  Rx         0280  8  01 0D D1 0C 0F 00 33 0F 
   874)      1094.4  Rx         0288  8  64 8D 11 04 00 4C 07 87 
   875)      1094.6  Rx         0540  8  80 00 FF 00 FE 00 00 16 
   876)      1095.0  Rx         0380  8  00 66 0B 0F 20 00 00 0B 
   877)      1095.4  Rx         0488  8  10 0D 0F 7E FE 8D FF E0 
   878)      1095.9  Rx         0480  8  9C 1C F3 55 19 00 00 3F 
   879)      1096.3  Rx         0284  6  02 02 00 00 00 00 
   880)      1096.8  Rx         0588  8  1A 66 7E 00 00 00 00 00 
   881)      1097.3  Rx         056A  8  11 00 08 00 1A 00 02 01 
   882)      1100.5  Rx         0440  8  00 80 00 FE 80 80 C8 00 
   883)      1102.0  Rx         0280  8  01 0D D1 0C 0F 00 33 0F 
   884)      1102.4  Rx         0288  8  8A 8D 11 04 00 4C 07 87 
   885)      1103.1  Rx         0380  8  00 66 0B 0F 20 00 00 0B 
   886)      1103.6  Rx         0488  8  00 0D 0F 7E FE 8D FF F0 
   887)      1104.5  Rx         0540  8  90 00 FF 00 FE 00 00 16 
   888)      1110.5  Rx         0440  8  00 80 00 FE 80 80 D0 00 
   889)      1114.0  Rx         0280  8  01 0D D1 0C 0F 00 33 0F 
   890)      1114.4  Rx         0288  8  8A 8D 11 04 00 4C 07 87 
   891)      1114.6  Rx         0540  8  A0 00 FF 00 FE 00 00 16 
   892)      1115.0  Rx         0380  8  00 66 0B 0F 20 00 00 0B 
   893)      1115.5  Rx         0488  8  F0 0D 0F 7E FE 8D FF 00 
   894)      1115.9  Rx         0480  8  9C 1C F3 55 19 00 00 3F 
   895)      1116.3  Rx         0284  6  03 03 00 00 00 00 
   896)      1116.8  Rx         0588  8  1A 66 7E 00 00 00 00 00 
   897)      1117.3  Rx         056A  8  01 00 08 00 1A 00 02 11 
   898)      1120.5  Rx         0440  8  00 80 00 FE 80 80 D8 00 
   899)      1122.0  Rx         0280  8  01 0D D1 0C 0F 00 33 0F 
   900)      1122.4  Rx         0288  8  8A 8D 11 04 00 4C 07 87 
   901)      1123.1  Rx         0380  8  00 66 0B 0F 20 00 00 0B 
   902)      1123.5  Rx         0488  8  E0 0D 0F 7E FE 8D FF 10 
   903)      1124.5  Rx         0540  8  B0 00 FF 00 FE 00 00 16 
   904)      1130.5  Rx         0440  8  00 80 00 FE 80 80 E0 00 
   905)      1134.0  Rx         0280  8  01 0D C2 0C 0F 00 33 0F 
   906)      1134.4  Rx         0288  8  8A 8D 11 04 00 4C 07 87 
   907)      1134.6  Rx         0540  8  C0 00 FF 00 FE 00 00 16 
   908)      1135.0  Rx         0380  8  00 66 0B 0F 20 00 00 0B 
   909)      1135.4  Rx         0488  8  D0 0D 0F 7E FE 8D FF 20 
   910)      1135.9  Rx         0480  8  9C 1C F3 55 19 00 00 3F 
   911)      1136.3  Rx         0284  6  04 04 00 00 00 00 
   912)      1136.8  Rx         0588  8  1A 66 7E 00 00 00 00 00 
   913)      1137.3  Rx         056A  8  31 00 08 00 1A 00 02 21 
   914)      1140.4  Rx         0440  8  00 80 00 FE 80 80 E8 00 
   915)      1142.0  Rx         0280  8  01 0D C2 0C 0F 00 33 0F 
   916)      1142.5  Rx         0288  8  E8 8D 11 04 00 4C 07 87 
   917)      1143.3  Rx         0380  8  00 66 0B 0F 20 00 00 0B 
   918)      1143.8  Rx         0488  8  C0 0D 0F 7E FE 8D FF 30 
   919)      1144.5  Rx         0540  8  D0 00 FF 00 FE 00 00 16 
   920)      1150.5  Rx         0440  8  00 80 00 FE 80 80 F0 00 
   921)      1154.0  Rx         0280  8  01 0D C2 0C 0F 00 33 0F 
   922)      1154.4  Rx         0288  8  E8 8D 11 04 00 4C 07 87 
   923)      1154.6  Rx         0540  8  E0 00 FF 00 FE 00 00 16 
   924)      1155.0  Rx         0380  8  00 66 0B 0F 20 00 00 0B 
   925)      1155.4  Rx         0488  8  B0 0D 0F 7E FE 8D FF 40 
   926)      1155.9  Rx         0480  8  9C 1C F3 55 19 00 00 3F 
   927)      1156.3  Rx         0284  6  05 05 00 00 00 00 
   928)      1156.8  Rx         0588  8  1A 66 7E 00 00 00 00 00 
   929)      1157.2  Rx         056A  8  21 00 08 00 1A 00 02 31 
   930)      1160.4  Rx         0440  8  00 80 00 FE 80 80 F8 00 
   931)      1162.0  Rx         0280  8  01 0D C2 0C 0F 00 33 0F 
   932)      1162.4  Rx         0288  8  E8 8D 11 04 00 4C 07 87 
   933)      1163.1  Rx         0380  8  00 66 0B 0F 20 00 00 0B 
   934)      1163.5  Rx         0488  8  A0 0D 0F 7E FE 8D FF 50 
   935)      1164.5  Rx         0540  8  F0 00 FF 00 FE 00 00 16 
   936)      1170.4  Rx         0440  8  00 80 00 FE 80 80 80 00 
   937)      1174.0  Rx         0280  8  01 0D BB 0C 0F 00 33 0F 
   938)      1174.4  Rx         0288  8  E8 8D 11 04 00 4C 07 87 
   939)      1174.6  Rx         0540  8  00 00 FF 00 FE 00 00 16 
   940)      1175.0  Rx         0380  8  00 66 0B 0F 20 00 00 0B 
   941)      1175.4  Rx         0488  8  90 0D 0F 7E FE 8D FF 60 
   942)      1175.9  Rx         0480  8  9C 1C F3 55 19 00 00 3F 
   943)      1176.3  Rx         0284  6  06 06 00 00 00 00 
   944)      1176.7  Rx         0588  8  1A 66 7E 00 00 00 00 00 
   945)      1177.2  Rx         056A  8  51 00 08 00 1A 00 02 41 
   946)      1180.4  Rx         0440  8  00 80 00 FE 80 80 88 00 
   947)      1182.0  Rx         0280  8  01 0D BB 0C 0F 00 33 0F 
   948)      1182.4  Rx         0288  8  2C 8D 11 04 00 4C 07 87 
   949)      1183.4  Rx         0380  8  00 66 0B 0F 20 00 00 0B 
   950)      1183.9  Rx         0488  8  80 0D 0F 7E FE 8D FF 70 
   951)      1184.5  Rx         0540  8  10 00 FF 00 FE 00 00 16 
   952)      1190.4  Rx         0440  8  00 80 00 FE 80 80 90 00 
   953)      1193.9  Rx         0280  8  01 0D BB 0C 0F 00 33 0F 
   954)      1194.4  Rx         0288  8  2C 8D 11 04 00 4C 07 87 
   955)      1194.6  Rx         0540  8  20 00 FF 00 FE 00 00 16 
   956)      1195.0  Rx         0380  8  00 66 0B 0F 20 00 00 0B 
   957)      1195.4  Rx         0488  8  70 0D 0F 7E FE 8D FF 80 
   958)      1195.9  Rx         0480  8  9C 1C F3 55 19 00 00 3F 
   959)      1196.3  Rx         0284  6  07 07 00 00 00 00 
   960)      1196.7  Rx         0588  8  1A 66 7E 00 00 00 00 00 
   961)      1197.2  Rx         056A  8  41 00 08 00 1A 00 02 51 
   962)      1200.4  Rx         0440  8  00 80 00 FE 80 80 98 00 
   963)      1202.0  Rx         0280  8  01 0D AC 0C 0F 00 33 0F 
   964)      1202.3  Rx         0288  8  2C 8D 11 04 00 4C 07 87 
   965)      1203.1  Rx         0380  8  00 66 0B 0F 20 00 00 0B 
   966)      1203.5  Rx         0488  8  60 0D 0F 7E FE 8D FF 90 
   967)      1204.5  Rx         0540  8  30 00 FF 00 FE 00 00 16 
   968)      1210.4  Rx         0440  8  00 80 00 FE 80 80 A0 00 
   969)      1214.0  Rx         0280  8  01 0D AC 0C 0F 00 33 0F 
   970)      1214.4  Rx         0288  8  2C 8D 11 04 00 4C 07 87 
   971)      1214.6  Rx         0540  8  40 00 FF 00 FE 00 00 16 
   972)      1215.0  Rx         0380  8  00 66 0B 0F 20 00 00 0B 
   973)      1215.4  Rx         0488  8  50 0D 0F 7E FE 8D FF A0 
   974)      1215.9  Rx         0480  8  9C 1C F3 55 19 00 00 3F 
   975)      1216.2  Rx         0284  6  08 08 00 00 00 00 
   976)      1216.8  Rx         0588  8  1A 66 7E 00 00 00 00 00 
   977)      1217.2  Rx         056A  8  71 00 08 00 1A 00 02 61 
   978)      1220.4  Rx         0440  8  00 80 00 FE 80 80 A8 00 
   979)      1222.0  Rx         0280  8  01 0D AC 0C 0F 00 33 0F 
   980)      1222.4  Rx         0288  8  64 8D 11 04 00 4C 07 87 
   981)      1223.1  Rx         0380  8  00 66 0B 0F 20 00 00 0B 
   982)      1223.5  Rx         0488  8  40 0D 0F 7E FE 8D FF B0 
   983)      1224.5  Rx         0540  8  50 00 FF 00 FE 00 00 16 
   984)      1230.4  Rx         0440  8  00 80 00 FE 80 80 B0 00 
   985)      1234.0  Rx         0280  8  01 0D AC 0C 0F 00 33 0F 
   986)      1234.4  Rx         0288  8  64 8D 11 04 00 4C 07 87 
   987)      1234.6  Rx         0540  8  60 00 FF 00 FE 00 00 16 
   988)      1235.0  Rx         0380  8  00 66 0B 0F 20 00 00 0B 
   989)      1235.4  Rx         0488  8  30 0D 0F 7E FE 8D FF C0 
   990)      1235.9  Rx         0480  8  9C 1C F3 55 19 00 00 3F 
   991)      1236.3  Rx         0284  6  09 09 00 00 00 00 
   992)      1236.7  Rx         0588  8  1A 66 7E 00 00 00 00 00 
   993)      1237.2  Rx         056A  8  61 00 08 00 1A 00 02 71 
   994)      1240.4  Rx         0440  8  00 80 00 FE 80 80 B8 00 
   995)      1242.0  Rx         0280  8  01 0D B1 0C 0F 00 33 0F 
   996)      1242.4  Rx         0288  8  64 8D 11 04 00 4C 07 87 
   997)      1243.3  Rx         0380  8  00 66 0B 0F 20 00 00 0B 
   998)      1243.8  Rx         0488  8  20 0D 0F 7E FE 8D FF D0 
   999)      1244.5  Rx         0540  8  70 00 FF 00 FE 00 00 16 
  1000)      1250.4  Rx         0440  8  00 80 00 FE 80 80 C0 00 
  1001)      1253.9  Rx         0280  8  01 0D B1 0C 0F 00 33 0F 
  1002)      1254.4  Rx         0288  8  64 8D 11 04 00 4C 07 87 
  1003)      1254.6  Rx         0540  8  80 00 FF 00 FE 00 00 16 
  1004)      1255.0  Rx         0380  8  00 66 0B 0F 20 00 00 0B 
  1005)      1255.4  Rx         0488  8  10 0D 0F 7E FE 8D FF E0 
  1006)      1255.9  Rx         0480  8  9C 1C F3 55 19 00 00 3F 
  1007)      1256.3  Rx         0284  6  0A 0A 00 00 00 00 
  1008)      1256.7  Rx         0588  8  1A 66 7E 00 00 00 00 00 
  1009)      1257.2  Rx         056A  8  91 00 08 00 1A 00 02 81 
  1010)      1260.4  Rx         0440  8  00 80 00 FE 80 80 C8 00 
  1011)      1262.0  Rx         0280  8  01 0D B1 0C 0F 00 33 0F 
  1012)      1262.4  Rx         0288  8  8A 8D 11 04 00 4C 07 87 
  1013)      1263.1  Rx         0380  8  00 66 0B 0F 20 00 00 0B 
  1014)      1263.5  Rx         0488  8  00 0D 0F 7E FE 8D FF F0 
  1015)      1264.5  Rx         0540  8  90 00 FF 00 FE 00 00 16 
  1016)      1270.4  Rx         0440  8  00 80 00 FE 80 80 D0 00 
  1017)      1273.9  Rx         0280  8  01 0D B1 0C 0F 00 33 0F 
  1018)      1274.3  Rx         0288  8  8A 8D 11 04 00 4C 07 87 
  1019)      1274.6  Rx         0540  8  A0 00 FF 00 FE 00 00 16 
  1020)      1275.0  Rx         0380  8  00 66 0B 0F 20 00 00 0B 
  1021)      1275.4  Rx         0488  8  F0 0D 0F 7E FE 8D FF 00 
  1022)      1275.9  Rx         0480  8  9C 1C F3 55 19 00 00 3F 
  1023)      1276.3  Rx         0284  6  0B 0B 00 00 00 00 
  1024)      1276.7  Rx         0588  8  1A 66 7E 00 00 00 00 00 
  1025)      1277.2  Rx         056A  8  81 00 08 00 1A 00 02 91 
  1026)      1280.4  Rx         0440  8  00 80 00 FE 80 80 D8 00 
  1027)      1282.0  Rx         0280  8  01 0D A2 0C 0F 00 33 0F 
  1028)      1282.4  Rx         0288  8  8A 8D 11 04 00 4C 07 87 
  1029)      1283.4  Rx         0380  8  00 66 0B 0F 20 00 00 0B 
  1030)      1283.9  Rx         0488  8  E0 0D 0F 7E FE 8D FF 10 
  1031)      1284.5  Rx         0540  8  B0 00 FF 00 FE 00 00 16 
  1032)      1290.4  Rx         0440  8  00 80 00 FE 80 80 E0 00 
  1033)      1294.0  Rx         0280  8  01 0D A2 0C 0F 00 33 0F 
  1034)      1294.4  Rx         0288  8  8A 8D 11 04 00 4C 07 87 
  1035)      1294.6  Rx         0540  8  C0 00 FF 00 FE 00 00 16 
  1036)      1295.0  Rx         0380  8  00 66 0B 0F 20 00 00 0B 
  1037)      1295.4  Rx         0488  8  D0 0D 0F 7E FE 8D FF 20 
  1038)      1295.9  Rx         0480  8  9C 1C F3 55 19 00 00 3F 
  1039)      1296.3  Rx         0284  6  0C 0C 00 00 00 00 
  1040)      1296.7  Rx         0588  8  1A 66 7E 00 00 00 00 00 
  1041)      1297.2  Rx         056A  8  B1 00 08 00 1A 00 02 A1 
  1042)      1300.4  Rx         0440  8  00 80 00 FE 80 80 E8 00 
  1043)      1302.0  Rx         0280  8  01 0D A2 0C 0F 00 33 0F 
  1044)      1302.4  Rx         0288  8  E8 8D 11 04 00 4C 07 87 
  1045)      1303.1  Rx         0380  8  00 66 0B 0F 20 00 00 0B 
  1046)      1303.5  Rx         0488  8  C0 0D 0F 7E FE 8D FF 30 
  1047)      1304.5  Rx         0540  8  D0 00 FF 00 FE 00 00 16 
  1048)      1310.4  Rx         0440  8  00 80 00 FE 80 80 F0 00 
  1049)      1314.0  Rx         0280  8  01 0D A2 0C 0F 00 33 0F 
  1050)      1314.4  Rx         0288  8  E8 8D 11 04 00 4C 07 87 
  1051)      1314.6  Rx         0540  8  E0 00 FF 00 FE 00 00 16 
  1052)      1315.0  Rx         0380  8  00 66 0B 0F 20 00 00 0B 
  1053)      1315.5  Rx         0488  8  B0 0D 0F 7E FE 8D FF 40 
  1054)      1315.9  Rx         0480  8  9C 1C F3 55 19 00 00 3F 
  1055)      1316.3  Rx         0284  6  0D 0D 00 00 00 00 
  1056)      1316.7  Rx         0588  8  1A 66 7E 00 00 00 00 00 
  1057)      1317.2  Rx         056A  8  A1 00 08 00 1A 00 02 B1 
  1058)      1320.4  Rx         0440  8  00 80 00 FE 80 80 F8 00 
  1059)      1322.0  Rx         0280  8  01 0D 9B 0C 0F 00 33 0F 
  1060)      1322.4  Rx         0288  8  E8 8D 11 04 00 4C 07 87 
  1061)      1323.1  Rx         0380  8  00 66 0B 0F 20 00 00 0B 
  1062)      1323.5  Rx         0488  8  A0 0D 0F 7E FE 8D FF 50 
  1063)      1324.5  Rx         0540  8  F0 00 FF 00 FE 00 00 16 
  1064)      1330.4  Rx         0440  8  00 80 00 FE 80 80 80 00 
  1065)      1334.0  Rx         0280  8  01 0D 9B 0C 0F 00 33 0F 
  1066)      1334.4  Rx         0288  8  E8 8D 11 04 00 4C 07 87 
  1067)      1334.6  Rx         0540  8  00 00 FF 00 FE 00 00 16 
  1068)      1335.0  Rx         0380  8  00 66 0B 0F 20 00 00 0B 
  1069)      1335.4  Rx         0488  8  90 0D 0F 7E FE 8D FF 60 
  1070)      1335.9  Rx         0480  8  9C 1C F3 55 19 00 00 3F 
  1071)      1336.3  Rx         0284  6  0E 0E 00 00 00 00 
  1072)      1336.8  Rx         0588  8  1A 66 7E 00 00 00 00 00 
  1073)      1337.3  Rx         056A  8  D1 00 08 00 1A 00 02 C1 
  1074)      1340.4  Rx         0440  8  00 80 00 FE 80 80 88 00 
  1075)      1342.0  Rx         0280  8  01 0D 9B 0C 0F 00 33 0F 
  1076)      1342.4  Rx         0288  8  2C 8D 11 04 00 4C 07 87 
  1077)      1343.1  Rx         0380  8  00 66 0B 0F 20 00 00 0B 
  1078)      1343.6  Rx         0488  8  80 0D 0F 7E FE 8D FF 70 
  1079)      1344.5  Rx         0540  8  10 00 FF 00 FE 00 00 16 
  1080)      1350.4  Rx         0440  8  00 80 00 FE 80 80 90 00 
  1081)      1354.0  Rx         0280  8  01 0D 8A 0C 0F 00 33 0F 
  1082)      1354.4  Rx         0288  8  2C 8D 11 04 00 4C 07 87 
  1083)      1354.7  Rx         0540  8  20 00 FF 00 FE 00 00 16 
  1084)      1355.0  Rx         0380  8  00 66 0B 0F 20 00 00 0B 
  1085)      1355.5  Rx         0488  8  70 0D 0F 7E FE 8D FF 80 
  1086)      1355.9  Rx         0480  8  9C 1C F3 55 19 00 00 3F 
  1087)      1356.3  Rx         0284  6  0F 0F 00 00 00 00 
  1088)      1356.8  Rx         0588  8  1A 66 7E 00 00 00 00 00 
  1089)      1357.2  Rx         056A  8  C1 00 08 00 1A 00 02 D1 
  1090)      1360.4  Rx         0440  8  00 80 00 FE 80 80 98 00 
  1091)      1362.0  Rx         0280  8  01 0D 8A 0C 0F 00 33 0F 
  1092)      1362.4  Rx         0288  8  2C 8D 11 04 00 4C 07 87 
  1093)      1363.1  Rx         0380  8  00 66 0B 0F 20 00 00 0B 
  1094)      1363.5  Rx         0488  8  60 0D 0F 7E FE 8D FF 90 
  1095)      1364.5  Rx         0540  8  30 00 FF 00 FE 00 00 16 
  1096)      1370.4  Rx         0440  8  00 80 00 FE 80 80 A0 00 
  1097)      1374.0  Rx         0280  8  01 0D 8A 0C 0F 00 33 0F 
  1098)      1374.4  Rx         0288  8  2C 8D 11 04 00 4C 07 87 
  1099)      1374.6  Rx         0540  8  40 00 FF 00 FE 00 00 16 
  1100)      1375.0  Rx         0380  8  00 66 0B 0F 20 00 00 0B 
  1101)      1375.4  Rx         0488  8  50 0D 0F 7E FE 8D FF A0 
  1102)      1375.9  Rx         0480  8  9C 1C F3 55 19 00 00 3F 
  1103)      1376.3  Rx         0284  6  00 00 00 00 00 00 
  1104)      1376.7  Rx         0588  8  1A 66 7E 00 00 00 00 00 
  1105)      1377.2  Rx         056A  8  F1 00 08 00 1A 00 02 E1 
  1106)      1380.4  Rx         0440  8  00 80 00 FE 80 80 A8 00 
  1107)      1382.0  Rx         0280  8  01 0D 8A 0C 0F 00 33 0F 
  1108)      1382.4  Rx         0288  8  64 8D 11 04 00 4C 07 87 
  1109)      1383.4  Rx         0380  8  00 66 0B 0F 20 00 00 0B 
  1110)      1383.9  Rx         0488  8  40 0D 0F 7E FE 8D FF B0 
  1111)      1384.5  Rx         0540  8  50 00 FF 00 FE 00 00 16 
  1112)      1390.4  Rx         0440  8  00 80 00 FE 80 80 B0 00 
  1113)      1394.0  Rx         0280  8  01 0D 79 0C 0F 00 33 0F 
  1114)      1394.3  Rx         0288  8  64 8D 11 04 00 4C 07 87 
  1115)      1394.6  Rx         0540  8  60 00 FF 00 FE 00 00 16 
  1116)      1395.0  Rx         0380  8  00 66 0B 0F 20 00 00 0B 
  1117)      1395.4  Rx         0488  8  30 0D 0F 7E FE 8D FF C0 
  1118)      1395.9  Rx         0480  8  9C 1C F3 55 19 00 00 3F 
  1119)      1396.2  Rx         0284  6  01 01 00 00 00 00 
  1120)      1396.7  Rx         0588  8  1A 66 7E 00 00 00 00 00 
  1121)      1397.2  Rx         056A  8  E1 00 08 00 1A 00 02 F1 
  1122)      1400.4  Rx         0440  8  00 80 00 FE 80 80 B8 00 
  1123)      1401.9  Rx         0280  8  01 0D 79 0C 0F 00 33 0F 
  1124)      1402.4  Rx         0288  8  64 8D 11 04 00 4C 07 87 
  1125)      1403.1  Rx         0380  8  00 66 0B 0F 20 00 00 0B 
  1126)      1403.6  Rx         0488  8  20 0D 0F 7E FE 8D FF D0 
  1127)      1404.5  Rx         0540  8  70 00 FF 00 FE 00 00 16 
  1128)      1410.4  Rx         0440  8  00 80 00 FE 80 80 C0 00 
  1129)      1414.0  Rx         0280  8  01 0D 79 0C 0F 00 33 0F 
  1130)      1414.4  Rx         0288  8  64 8D 11 04 00 4C 07 87 
  1131)      1414.6  Rx         0540  8  80 00 FF 00 FE 00 00 16 
  1132)      1415.0  Rx         0380  8  00 66 0B 0F 20 00 00 0B 
  1133)      1415.4  Rx         0488  8  10 0D 0F 7E FE 8D FF E0 
  1134)      1415.9  Rx         0480  8  9C 1C F3 55 19 00 00 3F 
  1135)      1416.3  Rx         0284  6  02 02 00 00 00 00 
  1136)      1416.7  Rx         0588  8  1A 66 7E 00 00 00 00 00 
  1137)      1417.2  Rx         056A  8  11 00 08 00 1A 00 02 01 
  1138)      1420.4  Rx         0440  8  00 80 00 FE 80 80 C8 00 
  1139)      1421.9  Rx         0280  8  01 0D 79 0C 0F 00 33 0F 
  1140)      1422.4  Rx         0288  8  8A 8D 11 04 00 4C 07 87 
  1141)      1423.1  Rx         0380  8  00 66 0B 0F 20 00 00 0B 
  1142)      1423.5  Rx         0488  8  00 0D 0F 7E FE 8D FF F0 
  1143)      1424.5  Rx         0540  8  90 00 FF 00 FE 00 00 16 
  1144)      1430.4  Rx         0440  8  00 80 00 FE 80 80 D0 00 
  1145)      1434.0  Rx         0280  8  01 0D 74 0C 0F 00 33 0F 
  1146)      1434.4  Rx         0288  8  8A 8D 11 04 00 4C 07 87 
  1147)      1434.6  Rx         0540  8  A0 00 FF 00 FE 00 00 16 
  1148)      1435.0  Rx         0380  8  00 66 0B 0F 20 00 00 0B 
  1149)      1435.5  Rx         0488  8  F0 0D 0F 7E FE 8D FF 00 
  1150)      1435.9  Rx         0480  8  9C 1C F3 55 19 00 00 3F 
  1151)      1436.3  Rx         0284  6  03 03 00 00 00 00 
  1152)      1436.8  Rx         0588  8  1A 66 7E 00 00 00 00 00 
  1153)      1437.3  Rx         056A  8  01 00 08 00 1A 00 02 11 
  1154)      1440.4  Rx         0440  8  00 80 00 FE 80 80 D8 00 
  1155)      1442.0  Rx         0280  8  01 0D 74 0C 0F 00 33 0F 
  1156)      1442.3  Rx         0288  8  8A 8D 11 04 00 4C 07 87 
  1157)      1443.1  Rx         0380  8  00 66 0B 0F 20 00 00 0B 
  1158)      1443.5  Rx         0488  8  E0 0D 0F 7E FE 8D FF 10 
  1159)      1444.5  Rx         0540  8  B0 00 FF 00 FE 00 00 16 
  1160)      1450.4  Rx         0440  8  00 80 00 FE 80 80 E0 00 
  1161)      1454.1  Rx         0280  8  01 0D 74 0C 0F 00 33 0F 
  1162)      1454.4  Rx         0540  8  C0 00 FF 00 FE 00 00 16 
  1163)      1454.6  Rx         0288  8  8A 8D 11 04 00 4C 07 87 
  1164)      1455.2  Rx         0380  8  00 66 0B 0F 20 00 00 0B 
  1165)      1455.7  Rx         0488  8  D0 0D 0F 7E FE 8D FF 20 
  1166)      1456.2  Rx         0480  8  9C 1C F3 55 19 00 00 3F 
  1167)      1456.7  Rx         0284  6  04 04 00 00 00 00 
  1168)      1457.2  Rx         0588  8  1A 66 7E 00 00 00 00 00 
  1169)      1457.8  Rx         056A  8  31 00 08 00 1A 00 02 21 
  1170)      1460.4  Rx         0440  8  00 80 00 FE 80 80 E8 00 
  1171)      1463.1  Rx         0280  8  01 0D 7E 0C 0F 00 33 0F 
  1172)      1463.6  Rx         0288  8  E8 8D 11 04 00 4C 07 87 
  1173)      1464.0  Rx         0380  8  00 66 0B 0F 20 00 00 0B 
  1174)      1464.4  Rx         0540  8  D0 00 FF 00 FE 00 00 16 
  1175)      1464.7  Rx         0488  8  C0 0D 0F 7E FE 8D FF 30 
  1176)      1470.4  Rx         0440  8  00 80 00 FE 80 80 F0 00 
  1177)      1474.4  Rx         0540  8  E0 00 FF 00 FE 00 00 16 
  1178)      1475.0  Rx         0280  8  01 0D 7E 0C 0F 00 33 0F 
  1179)      1475.4  Rx         0288  8  E8 8D 11 04 00 4C 07 87 
  1180)      1475.9  Rx         0380  8  00 66 0B 0F 20 00 00 0B 
  1181)      1476.4  Rx         0488  8  B0 0D 0F 7E FE 8D FF 40 
  1182)      1476.9  Rx         0480  8  9C 1C F3 55 19 00 00 3F 
  1183)      1477.3  Rx         0284  6  05 05 00 00 00 00 
  1184)      1477.8  Rx         0588  8  1A 66 7E 00 00 00 00 00 
  1185)      1478.2  Rx         056A  8  21 00 08 00 1A 00 02 31 
  1186)      1480.4  Rx         0440  8  00 80 00 FE 80 80 F8 00 
  1187)      1483.4  Rx         0280  8  01 0D 7E 0C 0F 00 33 0F 
  1188)      1483.8  Rx         0288  8  E8 8D 11 04 00 4C 07 87 
  1189)      1484.3  Rx         0380  8  00 66 0B 0F 20 00 00 0B 
  1190)      1484.6  Rx         0540  8  F0 00 FF 00 FE 00 00 16 
  1191)      1484.9  Rx         0488  8  A0 0D 0F 7E FE 8D FF 50 
  1192)      1490.3  Rx         0440  8  00 80 00 FE 80 80 80 00 
  1193)      1494.4  Rx         0540  8  00 00 FF 00 FE 00 00 16 
  1194)      1495.0  Rx         0280  8  01 0D 7E 0C 0F 00 33 0F 
  1195)      1495.4  Rx         0288  8  E8 8D 11 04 00 4C 07 87 
  1196)      1495.9  Rx         0380  8  00 66 0A 0F 20 00 00 0A 
  1197)      1496.3  Rx         0488  8  90 0D 0F 7E FE 8D FF 60 
  1198)      1496.9  Rx         0480  8  9C 1C F3 55 19 00 00 3F 
  1199)      1497.3  Rx         0284  6  06 06 00 00 00 00 
  1200)      1497.8  Rx         0588  8  1A 66 7E 00 00 00 00 00 
  1201)      1498.2  Rx         056A  8  51 00 08 00 1A 00 02 41 
  1202)      1500.4  Rx         0440  8  00 80 00 FE 80 80 88 00 
  1203)      1503.1  Rx         0280  8  01 0D 80 0C 0F 00 33 0F 
  1204)      1503.5  Rx         0288  8  2C 8D 11 04 00 4C 07 87 
  1205)      1504.0  Rx         0380  8  00 66 0A 0F 20 00 00 0A 
  1206)      1504.4  Rx         0540  8  10 00 FF 00 FE 00 00 16 
  1207)      1504.7  Rx         0488  8  80 0D 0F 7E FE 8D FF 70 
  1208)      1510.4  Rx         0440  8  00 80 00 FE 80 80 90 00 
  1209)      1514.3  Rx         0540  8  20 00 FF 00 FE 00 00 16 
  1210)      1515.0  Rx         0280  8  01 0D 80 0C 0F 00 33 0F 
  1211)      1515.4  Rx         0288  8  2C 8D 11 04 00 4C 07 87 
  1212)      1516.0  Rx         0380  8  00 66 0A 0F 20 00 00 0A 
  1213)      1516.4  Rx         0488  8  70 0D 0F 7E FE 8D FF 80 
  1214)      1516.9  Rx         0480  8  9C 1C F3 55 19 00 00 3F 
  1215)      1517.3  Rx         0284  6  07 07 00 00 00 00 
  1216)      1517.8  Rx         0588  8  1A 66 7E 00 00 00 00 00 
  1217)      1518.2  Rx         056A  8  41 00 08 00 1A 00 02 51 
  1218)      1520.3  Rx         0440  8  00 80 00 FE 80 80 98 00 
  1219)      1523.0  Rx         0280  8  01 0D 80 0C 0F 00 33 0F 
  1220)      1523.5  Rx         0288  8  2C 8D 11 04 00 4C 07 87 
  1221)      1524.0  Rx         0380  8  00 66 0A 0F 20 00 00 0A 
  1222)      1524.4  Rx         0488  8  60 0D 0F 7E FE 8D FF 90 
  1223)      1524.7  Rx         0540  8  30 00 FF 00 FE 00 00 16 
  1224)      1530.4  Rx         0440  8  00 80 00 FE 80 80 A0 00 
  1225)      1534.4  Rx         0540  8  40 00 FF 00 FE 00 00 16 
  1226)      1535.0  Rx         0280  8  01 0D 80 0C 0F 00 33 0F 
  1227)      1535.4  Rx         0288  8  2C 8D 11 04 00 4C 07 87 
  1228)      1535.9  Rx         0380  8  00 66 0A 0F 20 00 00 0A 
  1229)      1536.4  Rx         0488  8  50 0D 0F 7E FE 8D FF A0 
  1230)      1537.0  Rx         0480  8  9C 1C F3 55 19 00 00 3F 
  1231)      1537.3  Rx         0284  6  08 08 00 00 00 00 
  1232)      1537.8  Rx         0588  8  1A 66 7E 00 00 00 00 00 
  1233)      1538.3  Rx         056A  8  71 00 08 00 1A 00 02 61 
  1234)      1540.3  Rx         0440  8  00 80 00 FE 80 80 A8 00 
  1235)      1543.1  Rx         0280  8  01 0D 91 0C 0F 00 33 0F 
  1236)      1543.5  Rx         0288  8  64 8D 11 04 00 4C 07 87 
  1237)      1544.0  Rx         0380  8  00 66 0A 0F 20 00 00 0A 
  1238)      1544.4  Rx         0540  8  50 00 FF 00 FE 00 00 16 
  1239)      1544.6  Rx         0488  8  40 0D 0F 7E FE 8D FF B0 
  1240)      1550.3  Rx         0440  8  00 80 00 FE 80 80 B0 00 
  1241)      1554.4  Rx         0540  8  60 00 FF 00 FE 00 00 16 
  1242)      1555.0  Rx         0280  8  01 0D 91 0C 0F 00 33 0F 
  1243)      1555.4  Rx         0288  8  64 8D 11 04 00 4C 07 87 
  1244)      1555.9  Rx         0380  8  00 66 0A 0F 20 00 00 0A 
  1245)      1556.3  Rx         0488  8  30 0D 0F 7E FE 8D FF C0 
  1246)      1556.9  Rx         0480  8  9C 1C F3 55 19 00 00 3F 
  1247)      1557.3  Rx         0284  6  09 09 00 00 00 00 
  1248)      1557.8  Rx         0588  8  1A 66 7E 00 00 00 00 00 
  1249)      1558.2  Rx         056A  8  61 00 08 00 1A 00 02 71 
  1250)      1560.4  Rx         0440  8  00 80 00 FE 80 80 B8 00 
  1251)      1563.1  Rx         0280  8  01 0D 91 0C 0F 00 33 0F 
  1252)      1563.6  Rx         0288  8  64 8D 11 04 00 4C 07 87 
  1253)      1564.2  Rx         0380  8  00 66 0A 0F 20 00 00 0A 
  1254)      1564.5  Rx         0540  8  70 00 FF 00 FE 00 00 16 
  1255)      1564.7  Rx         0488  8  20 0D 0F 7E FE 8D FF D0 
  1256)      1570.3  Rx         0440  8  00 80 00 FE 80 80 C0 00 
  1257)      1574.3  Rx         0540  8  80 00 FF 00 FE 00 00 16 
  1258)      1575.0  Rx         0280  8  01 0D 91 0C 0F 00 33 0F 
  1259)      1575.4  Rx         0288  8  64 8D 11 04 00 4C 07 87 
  1260)      1575.9  Rx         0380  8  00 66 0A 0F 20 00 00 0A 
  1261)      1576.3  Rx         0488  8  10 0D 0F 7E FE 8D FF E0 
  1262)      1576.9  Rx         0480  8  9C 1C F3 55 19 00 00 3F 
  1263)      1577.3  Rx         0284  6  0A 0A 00 00 00 00 
  1264)      1577.8  Rx         0588  8  1A 66 7E 00 00 00 00 00 
  1265)      1578.2  Rx         056A  8  91 00 08 00 1A 00 02 81 
  1266)      1580.3  Rx         0440  8  00 80 00 FE 80 80 C8 00 
  1267)      1583.3  Rx         0280  8  01 0D 99 0C 0F 00 33 0F 
  1268)      1583.8  Rx         0288  8  8A 8D 11 04 00 4C 07 87 
  1269)      1584.3  Rx         0380  8  00 66 0A 0F 20 00 00 0A 
  1270)      1584.5  Rx         0540  8  90 00 FF 00 FE 00 00 16 
  1271)      1584.8  Rx         0488  8  00 0D 0F 7E FE 8D FF F0 
  1272)      1590.4  Rx         0440  8  00 80 00 FE 80 80 D0 00 
  1273)      1594.3  Rx         0540  8  A0 00 FF 00 FE 00 00 16 
  1274)      1595.0  Rx         0280  8  01 0D 99 0C 0F 00 33 0F 
  1275)      1595.4  Rx         0288  8  8A 8D 11 04 00 4C 07 87 
  1276)      1595.9  Rx         0380  8  00 66 0A 0F 20 00 00 0A 
  1277)      1596.3  Rx         0488  8  F0 0D 0F 7E FE 8D FF 00 
  1278)      1596.9  Rx         0480  8  9C 1C F3 55 19 00 00 3F 
  1279)      1597.2  Rx         0284  6  0B 0B 00 00 00 00 
  1280)      1597.8  Rx         0588  8  1A 66 7E 00 00 00 00 00 
  1281)      1598.2  Rx         056A  8  81 00 08 00 1A 00 02 91 
  1282)      1600.3  Rx         0440  8  00 80 00 FE 80 80 D8 00 
  1283)      1603.0  Rx         0280  8  01 0D 99 0C 0F 00 33 0F 
  1284)      1603.5  Rx         0288  8  8A 8D 11 04 00 4C 07 87 
  1285)      1604.0  Rx         0380  8  00 66 0A 0F 20 00 00 0A 
  1286)      1604.4  Rx         0540  8  B0 00 FF 00 FE 00 00 16 
  1287)      1604.6  Rx         0488  8  E0 0D 0F 7E FE 8D FF 10 
  1288)      1610.3  Rx         0440  8  00 80 00 FE 80 80 E0 00 
  1289)      1614.3  Rx         0540  8  C0 00 FF 00 FE 00 00 16 
  1290)      1615.0  Rx         0280  8  01 0D 91 0C 0F 00 33 0F 
  1291)      1615.4  Rx         0288  8  8A 8D 11 04 00 4C 07 87 
  1292)      1615.9  Rx         0380  8  00 66 0A 0F 20 00 00 0A 
  1293)      1616.3  Rx         0488  8  D0 0D 0F 7E FE 8D FF 20 
  1294)      1616.9  Rx         0480  8  9C 1C F3 55 19 00 00 3F 
  1295)      1617.3  Rx         0284  6  0C 0C 00 00 00 00 
  1296)      1617.8  Rx         0588  8  1A 66 7E 00 00 00 00 00 
  1297)      1618.2  Rx         056A  8  B1 00 08 00 1A 00 02 A1 
  1298)      1620.3  Rx         0440  8  00 80 00 FE 80 80 E8 00 
  1299)      1623.0  Rx         0280  8  01 0D 91 0C 0F 00 33 0F 
  1300)      1623.4  Rx         0288  8  E8 8D 11 04 00 4C 07 87 
  1301)      1624.0  Rx         0380  8  00 66 0A 0F 20 00 00 0A 
  1302)      1624.4  Rx         0488  8  C0 0D 0F 7E FE 8D FF 30 
  1303)      1624.6  Rx         0540  8  D0 00 FF 00 FE 00 00 16 
  1304)      1630.3  Rx         0440  8  00 80 00 FE 80 80 F0 00 
  1305)      1634.3  Rx         0540  8  E0 00 FF 00 FE 00 00 16 
  1306)      1635.0  Rx         0280  8  01 0D 91 0C 0F 00 33 0F 
  1307)      1635.4  Rx         0288  8  E8 8D 11 04 00 4C 07 87 
  1308)      1635.9  Rx         0380  8  00 66 0A 0F 20 00 00 0A 
  1309)      1636.3  Rx         0488  8  B0 0D 0F 7E FE 8D FF 40 
  1310)      1636.9  Rx         0480  8  9C 1C F3 55 19 00 00 3F 
  1311)      1637.3  Rx         0284  6  0D 0D 00 00 00 00 
  1312)      1637.8  Rx         0588  8  1A 66 7E 00 00 00 00 00 
  1313)      1638.2  Rx         056A  8  A1 00 08 00 1A 00 02 B1 
  1314)      1640.3  Rx         0440  8  00 80 00 FE 80 80 F8 00 
  1315)      1643.1  Rx         0280  8  01 0D 91 0C 0F 00 33 0F 
  1316)      1643.5  Rx         0288  8  E8 8D 11 04 00 4C 07 87 
  1317)      1644.0  Rx         0380  8  00 66 0A 0F 20 00 00 0A 
  1318)      1644.4  Rx         0540  8  F0 00 FF 00 FE 00 00 16 
  1319)      1644.6  Rx         0488  8  A0 0D 0F 7E FE 8D FF 50 
  1320)      1650.4  Rx         0440  8  00 80 00 FE 80 80 80 00 
  1321)      1654.3  Rx         0540  8  00 00 FF 00 FE 00 00 16 
  1322)      1655.0  Rx         0280  8  01 0D 7E 0C 0F 00 33 0F 
  1323)      1655.4  Rx         0288  8  E8 8D 11 04 00 4C 07 87 
  1324)      1655.9  Rx         0380  8  00 66 0A 0F 20 00 00 0A 
  1325)      1656.4  Rx         0488  8  90 0D 0F 7E FE 8D FF 60 
  1326)      1656.9  Rx         0480  8  9C 1C F3 55 19 00 00 3F 
  1327)      1657.3  Rx         0284  6  0E 0E 00 00 00 00 
  1328)      1657.8  Rx         0588  8  1A 66 7E 00 00 00 00 00 
  1329)      1658.2  Rx         056A  8  D1 00 08 00 1A 00 02 C1 
  1330)      1660.3  Rx         0440  8  00 80 00 FE 80 80 88 00 
  1331)      1663.0  Rx         0280  8  01 0D 7E 0C 0F 00 33 0F 
  1332)      1663.5  Rx         0288  8  2C 8D 11 04 00 4C 07 87 
  1333)      1664.0  Rx         0380  8  00 66 0A 0F 20 00 00 0A 
  1334)      1664.4  Rx         0540  8  10 00 FF 00 FE 00 00 16 
  1335)      1664.6  Rx         0488  8  80 0D 0F 7E FE 8D FF 70 
  1336)      1670.4  Rx         0440  8  00 80 00 FE 80 80 90 00 
  1337)      1674.3  Rx         0540  8  20 00 FF 00 FE 00 00 16 
  1338)      1675.0  Rx         0280  8  01 0D 7E 0C 0F 00 33 0F 
  1339)      1675.4  Rx         0288  8  2C 8D 11 04 00 4C 07 87 
  1340)      1675.9  Rx         0380  8  00 66 0A 0F 20 00 00 0A 
  1341)      1676.3  Rx         0488  8  70 0D 0F 7E FE 8D FF 80 
  1342)      1676.9  Rx         0480  8  9C 1C F3 55 19 00 00 3F 
  1343)      1677.2  Rx         0284  6  0F 0F 00 00 00 00 
  1344)      1677.8  Rx         0588  8  1A 66 7E 00 00 00 00 00 
  1345)      1678.2  Rx         056A  8  C1 00 08 00 1A 00 02 D1 
  1346)      1680.4  Rx         0440  8  00 80 00 FE 80 80 98 00 
  1347)      1683.4  Rx         0280  8  01 0D 7E 0C 0F 00 33 0F 
  1348)      1683.8  Rx         0288  8  2C 8D 11 04 00 4C 07 87 
  1349)      1684.3  Rx         0380  8  00 66 0A 0F 20 00 00 0A 
  1350)      1684.5  Rx         0540  8  30 00 FF 00 FE 00 00 16 
  1351)      1684.8  Rx         0488  8  60 0D 0F 7E FE 8D FF 90 
  1352)      1690.3  Rx         0440  8  00 80 00 FE 80 80 A0 00 
  1353)      1694.3  Rx         0540  8  40 00 FF 00 FE 00 00 16 
  1354)      1695.0  Rx         0280  8  01 0D 91 0C 0F 00 33 0F 
  1355)      1695.4  Rx         0288  8  2C 8D 11 04 00 4C 07 87 
  1356)      1695.9  Rx         0380  8  00 66 0A 0F 20 00 00 0A 
  1357)      1696.3  Rx         0488  8  50 0D 0F 7E FE 8D FF A0 
  1358)      1696.9  Rx         0480  8  9C 1C F3 55 19 00 00 3F 
  1359)      1697.3  Rx         0284  6  00 00 00 00 00 00 
  1360)      1697.8  Rx         0588  8  1A 66 7E 00 00 00 00 00 
  1361)      1698.2  Rx         056A  8  F1 00 08 00 1A 00 02 E1 
  1362)      1700.4  Rx         0440  8  00 80 00 FE 80 80 A8 00 
  1363)      1703.1  Rx         0280  8  01 0D 91 0C 0F 00 33 0F 
  1364)      1703.5  Rx         0288  8  64 8D 11 04 00 4C 07 87 
  1365)      1704.0  Rx         0380  8  00 66 0A 0F 20 00 00 0A 
  1366)      1704.4  Rx         0540  8  50 00 FF 00 FE 00 00 16 
  1367)      1704.6  Rx         0488  8  40 0D 0F 7E FE 8D FF B0 
  1368)      1710.4  Rx         0440  8  00 80 00 FE 80 80 B0 00 
  1369)      1714.3  Rx         0540  8  60 00 FF 00 FE 00 00 16 
  1370)      1715.0  Rx         0280  8  01 0D 91 0C 0F 00 33 0F 
  1371)      1715.4  Rx         0288  8  64 8D 11 04 00 4C 07 87 
  1372)      1715.9  Rx         0380  8  00 66 0A 0F 20 00 00 0A 
  1373)      1716.3  Rx         0488  8  30 0D 0F 7E FE 8D FF C0 
  1374)      1716.9  Rx         0480  8  9C 1C F3 55 19 00 00 3F 
  1375)      1717.3  Rx         0284  6  01 01 00 00 00 00 
  1376)      1717.8  Rx         0588  8  1A 66 7E 00 00 00 00 00 
  1377)      1718.2  Rx         056A  8  E1 00 08 00 1A 00 02 F1 
  1378)      1720.4  Rx         0440  8  00 80 00 FE 80 80 B8 00 
  1379)      1723.0  Rx         0280  8  01 0D 91 0C 0F 00 33 0F 
  1380)      1723.4  Rx         0288  8  64 8D 11 04 00 4C 07 87 
  1381)      1723.9  Rx         0380  8  00 66 0A 0F 20 00 00 0A 
  1382)      1724.4  Rx         0488  8  20 0D 0F 7E FE 8D FF D0 
  1383)      1724.6  Rx         0540  8  70 00 FF 00 FE 00 00 16 
  1384)      1730.4  Rx         0440  8  00 80 00 FE 80 80 C0 00 
  1385)      1734.3  Rx         0540  8  80 00 FF 00 FE 00 00 16 
  1386)      1735.0  Rx         0280  8  01 0D A7 0C 0F 00 33 0F 
  1387)      1735.4  Rx         0288  8  64 8D 11 04 00 4C 07 87 
  1388)      1735.9  Rx         0380  8  00 66 0A 0F 20 00 00 0A 
  1389)      1736.4  Rx         0488  8  10 0D 0F 7E FE 8D FF E0 
  1390)      1736.9  Rx         0480  8  9C 1C F3 55 19 00 00 3F 
  1391)      1737.3  Rx         0284  6  02 02 00 00 00 00 
  1392)      1737.8  Rx         0588  8  1A 66 7E 00 00 00 00 00 
  1393)      1738.3  Rx         056A  8  11 00 08 00 1A 00 02 01 
  1394)      1740.4  Rx         0440  8  00 80 00 FE 80 80 C8 00 
  1395)      1743.0  Rx         0280  8  01 0D A7 0C 0F 00 33 0F 
  1396)      1743.5  Rx         0288  8  8A 8D 11 04 00 4C 07 87 
  1397)      1744.0  Rx         0380  8  00 66 0A 0F 20 00 00 0A 
  1398)      1744.4  Rx         0540  8  90 00 FF 00 FE 00 00 16 
  1399)      1744.6  Rx         0488  8  00 0D 0F 7E FE 8D FF F0 
  1400)      1750.3  Rx         0440  8  00 80 00 FE 80 80 D0 00 
  1401)      1754.3  Rx         0540  8  A0 00 FF 00 FE 00 00 16 
  1402)      1754.9  Rx         0280  8  01 0D A7 0C 0F 00 33 0F 
  1403)      1755.4  Rx         0288  8  8A 8D 11 04 00 4C 07 87 
  1404)      1755.9  Rx         0380  8  00 66 0A 0F 20 00 00 0A 
  1405)      1756.3  Rx         0488  8  F0 0D 0F 7E FE 8D FF 00 
  1406)      1756.9  Rx         0480  8  9C 1C F3 55 19 00 00 3F 
  1407)      1757.2  Rx         0284  6  03 03 00 00 00 00 
  1408)      1757.8  Rx         0588  8  1A 66 7E 00 00 00 00 00 
  1409)      1758.2  Rx         056A  8  01 00 08 00 1A 00 02 11 
  1410)      1760.4  Rx         0440  8  00 80 00 FE 80 80 D8 00 
  1411)      1763.0  Rx         0280  8  01 0D B1 0C 0F 00 33 0F 
  1412)      1763.4  Rx         0288  8  8A 8D 11 04 00 4C 07 87 
  1413)      1763.9  Rx         0380  8  00 66 0A 0F 20 00 00 0A 
  1414)      1764.4  Rx         0488  8  E0 0D 0F 7E FE 8D FF 10 
  1415)      1764.6  Rx         0540  8  B0 00 FF 00 FE 00 00 16 
  1416)      1770.4  Rx         0440  8  00 80 00 FE 80 80 E0 00 
  1417)      1774.3  Rx         0540  8  C0 00 FF 00 FE 00 00 16 
  1418)      1775.0  Rx         0280  8  01 0D B1 0C 0F 00 33 0F 
  1419)      1775.6  Rx         0288  8  8A 8D 11 04 00 4C 07 87 
  1420)      1776.1  Rx         0380  8  00 66 0A 0F 20 00 00 0A 
  1421)      1776.6  Rx         0488  8  D0 0D 0F 7E FE 8D FF 20 
  1422)      1777.0  Rx         0480  8  9C 1C F3 55 19 00 00 3F 
  1423)      1777.6  Rx         0284  6  04 04 00 00 00 00 
  1424)      1778.0  Rx         0588  8  1A 66 7E 00 00 00 00 00 
  1425)      1778.4  Rx         056A  8  31 00 08 00 1A 00 02 21 
  1426)      1780.3  Rx         0440  8  00 80 00 FE 80 80 E8 00 
  1427)      1783.8  Rx         0280  8  01 0D B1 0C 0F 00 33 0F 
  1428)      1784.3  Rx         0288  8  E8 8D 11 04 00 4C 07 87 
  1429)      1784.5  Rx         0540  8  D0 00 FF 00 FE 00 00 16 
  1430)      1784.9  Rx         0380  8  00 66 0A 0F 20 00 00 0A 
  1431)      1785.3  Rx         0488  8  C0 0D 0F 7E FE 8D FF 30 
  1432)      1790.4  Rx         0440  8  00 80 00 FE 80 80 F0 00 
  1433)      1790.9  Rx         0280  8  01 0D B1 0C 0F 00 33 0F 
  1434)      1791.4  Rx         0288  8  E8 8D 11 04 00 4C 07 87 
  1435)      1791.9  Rx         0380  8  00 66 0A 0F 20 00 00 0A 
  1436)      1792.3  Rx         0488  8  B0 0D 0F 7E FE 8D FF 40 
  1437)      1794.3  Rx         0540  8  E0 00 FF 00 FE 00 00 16 
  1438)      1797.9  Rx         0480  8  9C 1C F3 55 19 00 00 3F 
  1439)      1798.3  Rx         0284  6  05 05 00 00 00 00 
  1440)      1798.8  Rx         0588  8  1A 66 7E 00 00 00 00 00 
  1441)      1799.2  Rx         056A  8  21 00 08 00 1A 00 02 31 
  1442)      1800.4  Rx         0440  8  00 80 00 FE 80 80 F8 00 
  1443)      1803.8  Rx         0280  8  01 0D A7 0C 0F 00 33 0F 
  1444)      1804.3  Rx         0288  8  E8 8D 11 04 00 4C 07 87 
  1445)      1804.5  Rx         0540  8  F0 00 FF 00 FE 00 00 16 
  1446)      1804.8  Rx         0380  8  00 66 0A 0F 20 00 00 0A 
  1447)      1805.3  Rx         0488  8  A0 0D 0F 7E FE 8D FF 50 
  1448)      1810.3  Rx         0440  8  00 80 00 FE 80 80 80 00 
  1449)      1810.9  Rx         0280  8  01 0D A7 0C 0F 00 33 0F 
  1450)      1811.4  Rx         0288  8  E8 8D 11 04 00 4C 07 87 
  1451)      1811.9  Rx         0380  8  00 66 0A 0F 20 00 00 0A 
  1452)      1812.3  Rx         0488  8  90 0D 0F 7E FE 8D FF 60 
  1453)      1814.3  Rx         0540  8  00 00 FF 00 FE 00 00 16 
  1454)      1817.9  Rx         0480  8  9C 1C F3 55 19 00 00 3F 
  1455)      1818.3  Rx         0284  6  06 06 00 00 00 00 
  1456)      1818.8  Rx         0588  8  1A 66 7E 00 00 00 00 00 
  1457)      1819.3  Rx         056A  8  51 00 08 00 1A 00 02 41 
  1458)      1820.4  Rx         0440  8  00 80 00 FE 80 80 88 00 
  1459)      1823.8  Rx         0280  8  01 0D A7 0C 0F 00 33 0F 
  1460)      1824.2  Rx         0288  8  2C 8D 11 04 00 4C 07 87 
  1461)      1824.5  Rx         0540  8  10 00 FF 00 FE 00 00 16 
  1462)      1824.8  Rx         0380  8  00 66 0A 0F 20 00 00 0A 
  1463)      1825.3  Rx         0488  8  80 0D 0F 7E FE 8D FF 70 
  1464)      1830.3  Rx         0440  8  00 80 00 FE 80 80 90 00 
  1465)      1834.3  Rx         0540  8  20 00 FF 00 FE 00 00 16 
  1466)      1834.9  Rx         0280  8  01 0D A7 0C 0F 00 33 0F 
  1467)      1835.4  Rx         0288  8  2C 8D 11 04 00 4C 07 87 
  1468)      1835.9  Rx         0380  8  00 66 0A 0F 20 00 00 0A 
  1469)      1836.4  Rx         0488  8  70 0D 0F 7E FE 8D FF 80 
  1470)      1836.9  Rx         0284  6  07 07 00 00 00 00 
  1471)      1837.3  Rx         0480  8  9C 1C F3 55 19 00 00 3F 
  1472)      1837.8  Rx         0588  8  1A 66 7E 00 00 00 00 00 
  1473)      1838.2  Rx         056A  8  41 00 08 00 1A 00 02 51 
  1474)      1840.3  Rx         0440  8  00 80 00 FE 80 80 98 00 
  1475)      1843.0  Rx         0280  8  01 0D 9D 0C 0F 00 33 0F 
  1476)      1843.4  Rx         0288  8  2C 8D 11 04 00 4C 07 87 
  1477)      1843.9  Rx         0380  8  00 66 0A 0F 20 00 00 0A 
  1478)      1844.4  Rx         0540  8  30 00 FF 00 FE 00 00 16 
  1479)      1844.6  Rx         0488  8  60 0D 0F 7E FE 8D FF 90 
  1480)      1850.4  Rx         0440  8  00 80 00 FE 80 80 A0 00 
  1481)      1854.3  Rx         0540  8  40 00 FF 00 FE 00 00 16 
  1482)      1855.0  Rx         0280  8  01 0D 9D 0C 0F 00 33 0F 
  1483)      1855.4  Rx         0288  8  2C 8D 11 04 00 4C 07 87 
  1484)      1855.9  Rx         0380  8  00 66 0A 0F 20 00 00 0A 
  1485)      1856.3  Rx         0488  8  50 0D 0F 7E FE 8D FF A0 
  1486)      1856.8  Rx         0284  6  08 08 00 00 00 00 
  1487)      1857.3  Rx         0480  8  9C 1C F3 55 19 00 00 3F 
  1488)      1857.8  Rx         0588  8  1A 66 7E 00 00 00 00 00 
  1489)      1858.2  Rx         056A  8  71 00 08 00 1A 00 02 61 
  1490)      1860.3  Rx         0440  8  00 80 00 FE 80 80 A8 00 
  1491)      1863.0  Rx         0280  8  01 0D 9D 0C 0F 00 33 0F 
  1492)      1863.4  Rx         0288  8  64 8D 11 04 00 4C 07 87 
  1493)      1863.9  Rx         0380  8  00 66 0A 0F 20 00 00 0A 
  1494)      1864.3  Rx         0540  8  50 00 FF 00 FE 00 00 16 
  1495)      1864.6  Rx         0488  8  40 0D 0F 7E FE 8D FF B0 
  1496)      1870.3  Rx         0440  8  00 80 00 FE 80 80 B0 00 
  1497)      1874.3  Rx         0540  8  60 00 FF 00 FE 00 00 16 
  1498)      1874.9  Rx         0280  8  01 0D 8C 0C 0F 00 33 0F 
  1499)      1875.4  Rx         0288  8  64 8D 11 04 00 4C 07 87 
  1500)      1875.9  Rx         0380  8  00 66 0A 0F 20 00 00 0A 
  1501)      1876.3  Rx         0488  8  30 0D 0F 7E FE 8D FF C0 
  1502)      1876.8  Rx         0284  6  09 09 00 00 00 00 
  1503)      1877.6  Rx         0480  8  9C 1C F3 55 19 00 00 3F 
  1504)      1877.9  Rx         0588  8  1A 66 7E 00 00 00 00 00 
  1505)      1878.4  Rx         056A  8  61 00 08 00 1A 00 02 71 
  1506)      1880.3  Rx         0440  8  00 80 00 FE 80 80 B8 00 
  1507)      1883.8  Rx         0280  8  01 0D 8C 0C 0F 00 33 0F 
  1508)      1884.2  Rx         0288  8  64 8D 11 04 00 4C 07 87 
  1509)      1884.5  Rx         0540  8  70 00 FF 00 FE 00 00 16 
  1510)      1884.8  Rx         0380  8  00 66 0A 0F 20 00 00 0A 
  1511)      1885.3  Rx         0488  8  20 0D 0F 7E FE 8D FF D0 
  1512)      1890.3  Rx         0440  8  00 80 00 FE 80 80 C0 00 
  1513)      1894.3  Rx         0540  8  80 00 FF 00 FE 00 00 16 
  1514)      1894.9  Rx         0280  8  01 0D 8C 0C 0F 00 33 0F 
  1515)      1895.4  Rx         0288  8  64 8D 11 04 00 4C 07 87 
  1516)      1895.9  Rx         0380  8  00 66 0A 0F 20 00 00 0A 
