(1721070404.718444) can0 637#0204005348000000
(1721070404.720602) can0 316#C82600268A00003C
(1721070404.721573) can0 15E#007D000000904000
(1721070404.721573) can0 45F#041800FF1EFE1048
(1721070404.721574) can0 460#9044087D20051608
(1721070404.722545) can0 461#7808850300188488
(1721070404.722546) can0 581#0000260000254F00
(1721070404.722546) can0 153#086001FF0A04FF0E
(1721070404.724504) can0 186#0100D40700800300
(1721070404.724505) can0 1A3#0000000001001080
(1721070404.724505) can0 1F0#2C002C002C002C00
(1721070404.726466) can0 51F#040100000C007478
(1721070404.726467) can0 0AF#3500481F7DF7FF00
(1721070404.726467) can0 329#0026260000000100
(1721070404.728248) can0 37C#0000000000000080
(1721070404.729155) can0 58F#0001000000000000
(1721070404.729155) can0 0C0#FAFF000713
(1721070404.730132) can0 316#C82600268A00003C
(1721070404.730132) can0 45F#041800FF1EFD104C
(1721070404.731108) can0 460#9044087D30061A08
(1721070404.731108) can0 461#780C840300188488
(1721070404.731109) can0 581#0000260000254F00
(1721070404.733060) can0 51F#040100000D007478
(1721070404.734025) can0 0AF#720058207DF7FF00
(1721070404.735002) can0 329#0026260000010100
(1721070404.736023) can0 37C#0000000000000080
(1721070404.736957) can0 58F#0001000000000000
(1721070404.736958) can0 0C0#FAFF000764
(1721070404.737996) can0 613#0450208B5B007604
(1721070404.738910) can0 316#C82600268A00003C
(1721070404.739893) can0 15E#007D000000904000
(1721070404.740864) can0 45F#041800FF1EFC1050
(1721070404.740865) can0 460#9044087D40051608
(1721070404.740865) can0 461#78108303001C8488
(1721070404.741836) can0 581#0000260000254F00
(1721070404.741837) can0 153#086001FF0B04FF0E
(1721070404.741837) can0 186#0100D40700800200
(1721070404.745518) can0 1A3#0000000001001080
(1721070404.745519) can0 1F0#2C002C002C002C00
(1721070404.745519) can0 51F#040100000D007478
(1721070404.746748) can0 0AF#240068217DF7FF00
(1721070404.746756) can0 329#0026260000020100
(1721070404.747686) can0 37C#0000000000000080
(1721070404.747687) can0 5E0#0200000000000000
(1721070404.747687) can0 58F#0001000000000000
(1721070404.748639) can0 0C0#FAFF010765
(1721070404.749620) can0 316#C82600268A00003C
(1721070404.750588) can0 45F#041800FF1EFB1054
(1721070404.750589) can0 460#9044087D50051608
(1721070404.750589) can0 461#78148203001C8488
(1721070404.751593) can0 581#0000260000254F00
(1721070404.751593) can0 51F#040100000C007478
(1721070404.752535) can0 0AF#300078217DF7FF00
(1721070404.753509) can0 329#0026260000030100
(1721070404.756518) can0 37C#0000000000000080
(1721070404.759804) can0 58F#0001000000000000
(1721070404.760631) can0 0C0#FAFF010756
(1721070404.760686) can0 15E#007D000000904000
(1721070404.760686) can0 316#C82600268A00003C
(1721070404.761378) can0 45F#041800FF1EFA1058
(1721070404.761378) can0 460#9044087D60051608
(1721070404.761379) can0 461#78188103001C8487
(1721070404.762328) can0 581#0000260000254F00
(1721070404.762328) can0 153#086001FF0C04FF0E
(1721070404.762328) can0 186#0100D40700800300
(1721070404.763381) can0 1A3#0000000001001080
(1721070404.763382) can0 1F0#2C002C002C002C00
(1721070404.763383) can0 51F#040100000C007478
(1721070404.764307) can0 0AF#FC0088217DF7FF00
(1721070404.764308) can0 329#0026260000040100
(1721070404.765307) can0 37C#0000000000000080
(1721070404.766283) can0 58F#0001000000000000
(1721070404.767258) can0 0C0#FAFF000757
(1721070404.768245) can0 316#C82600268A00003C
(1721070404.769211) can0 57E#0100000000000000
(1721070404.770186) can0 45F#041800FF1EF9105C
(1721070404.771178) can0 460#9044087D70041208
(1721070404.771179) can0 461#781C8003001C8488
(1721070404.771179) can0 581#0000260000254F00
(1721070404.772152) can0 51F#040100000C007478
(1721070404.773110) can0 0AF#1D0098217E080000
(1721070404.774049) can0 329#0026260000050100
(1721070404.775037) can0 37C#0000000000000080
(1721070404.776025) can0 58F#0001000000000000
(1721070404.776999) can0 0C0#FAFF0007A8
(1721070404.777958) can0 15E#007D000000904000
(1721070404.778909) can0 316#C82600268A00003C
(1721070404.779929) can0 45F#041800FF1EF81060
(1721070404.780898) can0 460#9044087D80061A08
(1721070404.780898) can0 461#78207F03001C8488
(1721070404.780898) can0 581#0000260000254F00
(1721070404.781891) can0 153#086001FF0D04FF0E
(1721070404.781891) can0 186#0100D60700800200
(1721070404.781892) can0 1A3#0000000001001080
(1721070404.782906) can0 1F0#2C002C002C002C00
(1721070404.782906) can0 51F#040100000D007478
(1721070404.783848) can0 0AF#4B00A8207E080000
(1721070404.784818) can0 329#0026260000060100
(1721070404.785768) can0 37C#0000000000000080
(1721070404.787046) can0 58F#0001000000000000
(1721070404.787047) can0 0C0#FAFF0007B9
(1721070404.788954) can0 316#C82600268A00003C
(1721070404.789905) can0 45F#041800FF1EF71064
(1721070404.790868) can0 460#9044087D90051608
(1721070404.790869) can0 461#78247E03001C8488
(1721070404.790869) can0 581#0000260000254F00
(1721070404.791822) can0 51F#040100000C007478
(1721070404.792891) can0 0AF#0C00B81F7E080000
(1721070404.794745) can0 329#0026260000070100
(1721070404.795602) can0 37C#0000000000000080
(1721070404.796602) can0 58F#0001000000000000
(1721070404.797643) can0 0C0#FAFF00078A
(1721070404.798768) can0 15E#007D000000904000
(1721070404.800677) can0 316#C82600268A00003C
(1721070404.801689) can0 45F#041800FF1EF61068
(1721070404.801690) can0 460#9044087DA0051608
(1721070404.801690) can0 461#78287D0300188487
(1721070404.802607) can0 581#0000260000254F00
(1721070404.802608) can0 153#086001FF0E04FF0E
(1721070404.802608) can0 186#0100D60700800300
(1721070404.804636) can0 1A3#0000000001001080
(1721070404.804637) can0 1F0#2C002C002C002C00
(1721070404.804638) can0 51F#040100000C007478
(1721070404.805588) can0 0AF#3300C8207E080000
(1721070404.805590) can0 329#0026260000080100
(1721070404.806543) can0 37C#0000000000000080
(1721070404.806544) can0 58F#0001000000000000
(1721070404.808305) can0 0C0#FAFF00079B
(1721070404.809248) can0 316#C82600268A00003C
(1721070404.810239) can0 45F#041800FF1EF5106C
(1721070404.811176) can0 460#9044087DB0051608
(1721070404.811177) can0 461#782C7C03001C8488
(1721070404.811177) can0 581#0000260000254F00
(1721070404.812197) can0 51F#040100000C007478
(1721070404.813164) can0 0AF#2700D8207E080000
(1721070404.814144) can0 329#0026260000090100
(1721070404.815125) can0 37C#0000000000000080
(1721070404.816124) can0 58F#0001000000000000
(1721070404.817066) can0 0C0#FAFF0007EC
(1721070404.818059) can0 15E#007D000000904000
(1721070404.819026) can0 316#C82600268A00003C
(1721070404.819957) can0 45F#041800FF1EF41070
(1721070404.820950) can0 460#9044087DC0051608
(1721070404.820951) can0 461#78307B03001C8488
(1721070404.820952) can0 581#0000260000254F00
(1721070404.821896) can0 153#086001FF0004FF0E
(1721070404.821897) can0 186#0100D60700800300
(1721070404.821898) can0 1A3#0000000001001080
(1721070404.822877) can0 1F0#2C002C002C002C00
(1721070404.822878) can0 51F#040100000C007478
(1721070404.823819) can0 0AF#7100E8217E080000
(1721070404.824863) can0 329#00262600000A0100
(1721070404.825869) can0 37C#0000000000000080
(1721070404.826833) can0 58F#0001000000000000
(1721070404.827761) can0 0C0#FAFF0007FD
(1721070404.828737) can0 316#C82600268A00003C
(1721070404.829706) can0 581#0000260000254F00
(1721070404.830680) can0 45F#041800FF1EF31074
(1721070404.830680) can0 460#9044087DD0051608
(1721070404.831661) can0 461#78347A03001C8488
(1721070404.831661) can0 51F#040100000D007478
(1721070404.832633) can0 0AF#6500F8217E080000
(1721070404.833610) can0 329#00262600000B0100
(1721070404.834522) can0 37C#0000000000000080
(1721070404.835564) can0 58F#0001000000000000
(1721070404.836597) can0 613#0450208B5B007604
(1721070404.837528) can0 0C0#FAFF0007CE
(1721070404.838492) can0 316#C82600268A00003C
(1721070404.839474) can0 15E#007D000000904000
(1721070404.840453) can0 581#0000260000254F00
(1721070404.840453) can0 45F#041800FF1EF21078
(1721070404.841432) can0 460#9044087DE0051608
(1721070404.841432) can0 461#78387903001C8488
(1721070404.841433) can0 51F#040100000D007478
(1721070404.842402) can0 153#086001FF0104FF0E
(1721070404.842403) can0 186#0100D60700800300
(1721070404.842403) can0 1A3#0000000001001080
(1721070404.843389) can0 1F0#2C002C002C002C00
(1721070404.843390) can0 0AF#6E0008217E07FF00
(1721070404.845341) can0 329#00262600000C0100
(1721070404.846361) can0 37C#0000000000000080
(1721070404.847336) can0 58F#0001000000000000
(1721070404.847337) can0 0C0#FAFF0007DF
(1721070404.848320) can0 5E0#0200000000000000
(1721070404.849252) can0 316#C82600268A00003C
(1721070404.850213) can0 581#0000260000254F00
(1721070404.851191) can0 45F#041800FF1EF1107C
(1721070404.851191) can0 460#9044087DF0051608
(1721070404.851192) can0 461#783C7803001C8488
(1721070404.852160) can0 51F#040100000C007478
(1721070404.853104) can0 0AF#7A0018217E07FF00
(1721070404.854084) can0 329#00262600000D0100
(1721070404.858214) can0 37C#0000000000000080
(1721070404.859161) can0 58F#0001000000000000
(1721070404.859194) can0 0C0#FAFF000720
(1721070404.859902) can0 15E#007D000000904000
(1721070404.859902) can0 316#C82600268A00003C
(1721070404.859902) can0 581#0000260000254F00
(1721070404.860942) can0 45F#041800FF1E001040
(1721070404.860942) can0 460#9044087D00061A08
(1721070404.860943) can0 461#78008703001C8488
(1721070404.861911) can0 153#086001FF0204FF0E
(1721070404.861912) can0 186#0100D60700800300
(1721070404.861913) can0 1A3#0000000001001080
(1721070404.862900) can0 1F0#2C002C002C002C00
(1721070404.862900) can0 51F#040100000C007478
(1721070404.863815) can0 0AF#2C0028207E07FF00
(1721070404.864783) can0 329#00262600000E0100
(1721070404.865803) can0 37C#0000000000000080
(1721070404.866739) can0 58F#0001000000000000
(1721070404.867708) can0 0C0#FAFF000731
(1721070404.868680) can0 57E#0100000000000000
(1721070404.869658) can0 316#C82600268A00003C
(1721070404.870629) can0 581#0000260000254F00
(1721070404.870629) can0 45F#041800FF1EFF1044
(1721070404.870629) can0 460#9044087D10051608
(1721070404.871609) can0 461#78048603001C8488
(1721070404.871610) can0 51F#040100000C007478
(1721070404.872584) can0 0AF#520038217E07FF00
(1721070404.873595) can0 329#00262600000F0100
(1721070404.874382) can0 37C#0000000000000080
(1721070404.875551) can0 58F#0001000000000000
(1721070404.876566) can0 0C0#FAFF000702
(1721070404.877321) can0 15E#007D000000904000
(1721070404.878523) can0 316#C82600268A00003C
(1721070404.879461) can0 581#0000260000254F00
(1721070404.880436) can0 45F#041800FF1EFE1048
(1721070404.881408) can0 460#9044087D20051608
(1721070404.881408) can0 461#78088503001C8488
(1721070404.881409) can0 51F#040100000C007478
(1721070404.882383) can0 153#086001FF0304FF0E
(1721070404.882384) can0 186#0100D60700800200
(1721070404.882384) can0 1A3#0000000001001080
(1721070404.885396) can0 1F0#2C002C002C002C00
(1721070404.885396) can0 0AF#3E0048217E07FF00
(1721070404.887196) can0 329#0026260000000100
(1721070404.887311) can0 37C#0000000000000080
(1721070404.887423) can0 58F#0001000000000000
(1721070404.887423) can0 0C0#FAFF010703
(1721070404.888214) can0 316#C82600268A00003C
(1721070404.889179) can0 581#0000260000254F00
(1721070404.890215) can0 45F#041800FF1EFD104C
(1721070404.891177) can0 460#9044087D30051608
(1721070404.891178) can0 461#780C8403001C8488
(1721070404.891178) can0 51F#040100000C007478
(1721070404.892103) can0 0AF#2A0058217E07FF00
(1721070404.893164) can0 329#0026260000010100
(1721070404.896142) can0 37C#0000000000000080
(1721070404.897077) can0 58F#0001000000000000
(1721070404.898088) can0 0C0#FAFF010774
(1721070404.899003) can0 15E#007D000000904000
(1721070404.899956) can0 316#C82600268A00003C
(1721070404.900958) can0 581#0000260000254F00
(1721070404.900958) can0 45F#041800FF1EFC1050
(1721070404.900958) can0 460#9044087D40051608
(1721070404.901955) can0 461#78108303001C8487
(1721070404.901955) can0 51F#040100000C007478
(1721070404.901956) can0 153#086001FF0404FF0E
(1721070404.902914) can0 186#0100D60700800300
(1721070404.902915) can0 1A3#0000000001001080
(1721070404.902915) can0 1F0#2C002C002C002C00
(1721070404.903894) can0 0AF#7C0068207E07FF00
(1721070404.904907) can0 329#0026260000020100
(1721070404.906089) can0 37C#0000000000000080
(1721070404.907013) can0 58F#0001000000000000
(1721070404.908069) can0 0C0#FAFF000775
(1721070404.909019) can0 316#C82600268A00003C
(1721070404.909936) can0 581#0000260000254F00
(1721070404.911751) can0 45F#041800FF1EFB1054
(1721070404.911752) can0 460#9044087D50051608
(1721070404.911752) can0 461#78148203001C8488
(1721070404.912744) can0 51F#040100000C007478
(1721070404.913811) can0 0AF#700078207E17FF00
(1721070404.914830) can0 329#0026260000030100
(1721070404.916857) can0 37C#0000000000000080
(1721070404.917819) can0 58F#0001000000000000
(1721070404.918801) can0 0C0#FAFF000746
(1721070404.920687) can0 15E#007D000000904000
(1721070404.920688) can0 316#C82600268A00003C
(1721070404.921669) can0 581#0000260000254F00
(1721070404.921670) can0 45F#041800FF1EFA1058
(1721070404.921670) can0 460#9044087D60051608
(1721070404.922677) can0 461#78188103001C8487
(1721070404.922678) can0 51F#040100000C007478
(1721070404.922678) can0 153#086001FF0504FF0E
(1721070404.924735) can0 186#0100D80700800300
(1721070404.924736) can0 1A3#0000000001001080
(1721070404.924736) can0 1F0#2C002C002C002C00
(1721070404.925577) can0 0AF#BC0088207E17FF00
(1721070404.925578) can0 329#0026260000040100
(1721070404.926428) can0 37C#0000000000000080
(1721070404.926429) can0 58F#0001000000000000
(1721070404.927329) can0 0C0#FAFF000757
(1721070404.928636) can0 316#C82600268A00003C
(1721070404.929593) can0 581#0000260000254F00
(1721070404.930478) can0 45F#041800FF1EF9105C
(1721070404.930479) can0 460#9044087D70051608
(1721070404.931245) can0 461#781C8003001C8487
(1721070404.931246) can0 51F#040100000D007478
(1721070404.932433) can0 0AF#A80098207E17FF00
(1721070404.933427) can0 329#0026260000050100
(1721070404.935443) can0 37C#0000000000000080
(1721070404.936252) can0 613#0450208B5B007604
(1721070404.937415) can0 58F#0001000000000000
(1721070404.938363) can0 0C0#FAFF0007A8
(1721070404.939074) can0 316#C82600268A00003C
(1721070404.939075) can0 15E#007D000000904000
(1721070404.940355) can0 581#0000260000254F00
(1721070404.940356) can0 45F#041800FF1EF81060
(1721070404.941206) can0 460#9044087D80041208
(1721070404.941207) can0 461#78207F03001C8487
(1721070404.941208) can0 51F#040100000C007478
(1721070404.942294) can0 153#086001FF0604FF0E
(1721070404.942296) can0 186#0100D80700800300
(1721070404.942297) can0 1A3#0000000001001080
(1721070404.942975) can0 1F0#2C002C002C002C00
(1721070404.944161) can0 0AF#8C00A8207E07FF00
(1721070404.944163) can0 329#0026260000060100
(1721070404.945267) can0 37C#0000000000000080
(1721070404.946066) can0 58F#0001000000000000
(1721070404.947137) can0 5E0#0200000000000000
(1721070404.949111) can0 0C0#FAFF0007B9
(1721070404.950127) can0 316#C82600268A00003C
(1721070404.950855) can0 581#0000260000254F00
(1721070404.950858) can0 45F#041800FF1EF71064
(1721070404.950859) can0 460#9044087D90051608
(1721070404.951800) can0 461#78247E03001C8488
(1721070404.951801) can0 51F#040100000C007478
(1721070404.952847) can0 0AF#9800B8207E07FF00
(1721070404.953956) can0 329#0026260000070100
(1721070404.955960) can0 37C#0000000000000080
(1721070404.957967) can0 58F#0001000000000000
(1721070404.959883) can0 0C0#FAFF00078A
(1721070404.961611) can0 15E#007D000000904000
(1721070404.961612) can0 316#C82600268A00003C
(1721070404.962542) can0 581#0000260000254F00
(1721070404.962543) can0 45F#041800FF1EF61068
(1721070404.962544) can0 460#9044087DA0061A08
(1721070404.963493) can0 461#78287D03001C8488
(1721070404.963494) can0 51F#040100000D007478
(1721070404.963495) can0 153#086001FF0704FF0E
(1721070404.964547) can0 186#0100D60700800300
(1721070404.964548) can0 1A3#0000000001001080
(1721070404.964549) can0 1F0#2C002C002C002C00
(1721070404.965487) can0 0AF#F400C8207E07FF00
(1721070404.965488) can0 329#0026260000080100
(1721070404.966768) can0 37C#0000000000000080
(1721070404.966770) can0 58F#0001000000000000
(1721070404.967403) can0 0C0#FAFF00079B
(1721070404.968459) can0 316#C82600268A00003C
(1721070404.969565) can0 57E#0100000000000000
(1721070404.971616) can0 581#0000260000254F00
(1721070404.971617) can0 45F#041800FF1EF5106C
(1721070404.973529) can0 460#9044087DB0061A08
(1721070404.973531) can0 461#782C7C03001C8488
(1721070404.973532) can0 51F#040100000C007478
(1721070404.975475) can0 0AF#F800D8207E17FF00
(1721070404.977154) can0 329#0026260000090100
(1721070404.978320) can0 37C#0000000000000080
(1721070404.978321) can0 58F#0001000000000000
(1721070404.978322) can0 0C0#FAFF0007EC
(1721070404.979093) can0 15E#007D000000904000
(1721070404.979094) can0 316#C82600268A00003C
(1721070404.980299) can0 581#0000260000254F00
(1721070404.980300) can0 45F#041800FF1EF41070
(1721070404.981336) can0 460#9044087DC0051608
(1721070404.981337) can0 461#78307B03001C8488
(1721070404.981338) can0 51F#040100000C007478
(1721070404.982015) can0 153#086001FF0804FF0E
(1721070404.982017) can0 186#0100D80700800300
(1721070404.982017) can0 1A3#0000000001001080
(1721070404.983126) can0 1F0#2C002C002C002C00
(1721070404.984272) can0 0AF#DC00E8207E07FF00
(1721070404.984273) can0 329#00262600000A0100
(1721070404.985226) can0 37C#0000000000000080
(1721070404.986212) can0 58F#0001000000000000
(1721070404.986957) can0 0C0#FAFF0007FD
(1721070404.988180) can0 316#C82600268A00003C
(1721070404.989137) can0 581#0000260000254F00
(1721070404.990021) can0 45F#041800FF1EF31074
(1721070404.990950) can0 460#9044087DD0041208
(1721070404.990951) can0 461#78347A03001C8488
(1721070404.992073) can0 51F#040100000D007478
(1721070404.992814) can0 0AF#C800F8207E07FF00
(1721070404.993805) can0 329#00262600000B0100
(1721070404.994867) can0 37C#0000000000000080
(1721070404.997040) can0 58F#0001000000000000
(1721070404.998843) can0 0C0#FAFF0007CE
(1721070405.000902) can0 15E#007D000000904000
(1721070405.001529) can0 316#C82600268A00003C
(1721070405.001531) can0 581#0000260000254F00
(1721070405.001532) can0 45F#041800FF1EF21078
(1721070405.002797) can0 460#9044087DE0051608
(1721070405.002799) can0 461#78387903001C8487
(1721070405.002799) can0 51F#040100000C007478
(1721070405.003646) can0 153#086001FF0904FF0E
(1721070405.003647) can0 186#0100D60700800300
(1721070405.003648) can0 1A3#0000000001001080
(1721070405.004796) can0 1F0#2C002C002C002C00
(1721070405.004798) can0 0AF#040008207E07FF00
(1721070405.004798) can0 329#00262600000C0100
(1721070405.005729) can0 37C#0000000000000080
(1721070405.006743) can0 58F#0001000000000000
(1721070405.007398) can0 0C0#FAFF0007DF
(1721070405.008632) can0 316#C82600268A00003C
(1721070405.009661) can0 581#0000260000254F00
(1721070405.010441) can0 45F#041800FF1EF1107C
(1721070405.010442) can0 460#9044087DF0051608
(1721070405.011308) can0 461#783C7803001C8488
(1721070405.011309) can0 51F#040100000C007478
(1721070405.012614) can0 0AF#100018207E07FF00
(1721070405.013289) can0 329#00262600000D0100
(1721070405.015519) can0 37C#0000000000000080
(1721070405.017508) can0 58F#0001000000000000
(1721070405.019361) can0 0C0#FAFF000720
(1721070405.021316) can0 15E#007D000000904000
(1721070405.021317) can0 316#C82600268A00003C
(1721070405.023279) can0 581#0000260000254F00
(1721070405.023280) can0 45F#041800FF1E001040
(1721070405.023281) can0 460#9044087D00051608
(1721070405.025305) can0 461#78008703001C8488
(1721070405.025308) can0 51F#040100000C007478
(1721070405.025309) can0 153#086001FF0A04FF0E
(1721070405.027091) can0 186#0100D60700800300
(1721070405.027093) can0 1A3#0000000001001080
(1721070405.027094) can0 1F0#2C002C002C002C00
(1721070405.028027) can0 0AF#1E0028207DF7FF00
(1721070405.028028) can0 329#00262600000E0100
(1721070405.028029) can0 37C#0000000000000080
(1721070405.029220) can0 58F#0001000000000000
(1721070405.029222) can0 0C0#FAFF010721
(1721070405.029223) can0 316#C82600268A00003C
(1721070405.031047) can0 581#0000260000254F00
(1721070405.033131) can0 45F#041800FF1EFF1044
(1721070405.033133) can0 460#9044087D10051608
(1721070405.033133) can0 461#78048603001C8488
(1721070405.034952) can0 51F#040100000C007478
(1721070405.036946) can0 0AF#CD0038207DF80000
(1721070405.036947) can0 329#00262600000F0100
(1721070405.037846) can0 37C#0000000000000080
(1721070405.037847) can0 58F#0001000000000000
(1721070405.037848) can0 0C0#FAFF010712
(1721070405.038970) can0 613#0450208A5B007604
(1721070405.038972) can0 316#C82600268A00003C
(1721070405.040933) can0 15E#007D000000904000
(1721070405.040934) can0 581#0000260000254F00
(1721070405.042774) can0 45F#041800FF1EFE1048
(1721070405.042776) can0 460#9044087D20041208
(1721070405.042776) can0 461#78088503001C8487
(1721070405.043578) can0 51F#040100000C007478
(1721070405.043579) can0 153#086001FF0B04FF0E
(1721070405.043580) can0 186#0100D40700800300
(1721070405.044770) can0 1A3#0000000001001080
(1721070405.044772) can0 1F0#2C002C002C002C00
(1721070405.044772) can0 0AF#930048207E080000
(1721070405.045413) can0 329#0026260000000100
(1721070405.046778) can0 37C#0000000000000080
(1721070405.046780) can0 58F#0001000000000000
(1721070405.046781) can0 5E0#0200000000000000
(1721070405.047573) can0 0C0#FAFF000713
(1721070405.048707) can0 316#C82600268A00003C
(1721070405.049401) can0 581#0000260000254F00
(1721070405.050668) can0 45F#041800FF1EFD104C
(1721070405.050669) can0 460#9044087D30051608
(1721070405.051337) can0 461#780C8403001C8488
(1721070405.051338) can0 51F#040100000C007478
(1721070405.052270) can0 0AF#D30058207E180100
(1721070405.053509) can0 329#0026260000010100
(1721070405.055514) can0 37C#0000000000000080
(1721070405.057521) can0 58F#0001000000000000
(1721070405.059431) can0 0C0#FAFF010774
(1721070405.061449) can0 15E#007D000000904000
(1721070405.061451) can0 316#C82600268A00003C
(1721070405.063288) can0 581#0000260000254F00
(1721070405.063290) can0 45F#041800FF1EFC1050
(1721070405.063290) can0 460#9044087D40051608
(1721070405.065309) can0 461#78108303001C8487
(1721070405.065310) can0 153#086001FF0C04FF0E
(1721070405.065311) can0 186#0100D80700800300
(1721070405.066192) can0 1A3#0000000001000080
(1721070405.066193) can0 1F0#2C002C002C002C00
(1721070405.066194) can0 51F#040100000C007478
(1721070405.066950) can0 0AF#EF0068207E180100
(1721070405.066951) can0 329#0026260000020100
(1721070405.066952) can0 37C#0000000000000080
(1721070405.067957) can0 58F#0001000000000000
(1721070405.067959) can0 0C0#FAFF000775
(1721070405.068950) can0 57E#0100000000000000
(1721070405.069913) can0 316#C82600268A00003C
(1721070405.069914) can0 581#0000260000254F00
(1721070405.070878) can0 45F#041800FF1EFB1054
(1721070405.070880) can0 460#9044087D50041208
(1721070405.070880) can0 461#78148203001C8488
(1721070405.072104) can0 51F#040100000C007478
(1721070405.073096) can0 0AF#910078217E180100
(1721070405.074043) can0 329#0026260000030100
(1721070405.074875) can0 37C#0000000000000080
(1721070405.075850) can0 58F#0001000000000000
(1721070405.076931) can0 0C0#FAFF010756
(1721070405.077681) can0 15E#007D000000904000
(1721070405.078689) can0 316#C82600268A00003C
(1721070405.079663) can0 581#0000260000254F00
(1721070405.080658) can0 45F#041800FF1EFA1058
(1721070405.080659) can0 460#9044087D60051608
(1721070405.081720) can0 461#78188103001C8488
(1721070405.081721) can0 51F#040100000D007478
(1721070405.081722) can0 153#086001FF0D04FF0E
(1721070405.082862) can0 186#0100D80700800200
(1721070405.082864) can0 1A3#0000000001000080
(1721070405.082864) can0 1F0#2C002C002C002C00
(1721070405.083649) can0 0AF#090088217E080000
(1721070405.084833) can0 329#0026260000040100
(1721070405.085774) can0 37C#0000000000000080
(1721070405.086783) can0 58F#0001000000000000
(1721070405.087453) can0 0C0#FAFF000757
(1721070405.088719) can0 316#C82600268A00003C
(1721070405.089586) can0 581#0000260000254F00
(1721070405.090414) can0 45F#041800FF1EF9105C
(1721070405.090415) can0 460#9044087D70041208
(1721070405.091382) can0 461#781C8003001C8488
(1721070405.091383) can0 51F#040100000C007478
(1721070405.092360) can0 0AF#2F0098217DF80000
(1721070405.093343) can0 329#0026260000050100
(1721070405.094312) can0 56F#00
(1721070405.095219) can0 37C#0000000000000080
(1721070405.096267) can0 58F#0001000000000000
(1721070405.097248) can0 0C0#FAFF0007A8
(1721070405.098210) can0 15E#007D000000904000
(1721070405.099200) can0 316#C82600268A00003C
(1721070405.100401) can0 581#0000260000254F00
(1721070405.101300) can0 45F#041800FF1EF81060
(1721070405.101302) can0 460#9044087D80051608
(1721070405.101302) can0 461#78207F03001C8488
(1721070405.102347) can0 51F#040100000C007478
(1721070405.102348) can0 153#086001FF0E04FF0E
(1721070405.102349) can0 186#0100D40700800300
(1721070405.103033) can0 1A3#0000000001001080
(1721070405.103034) can0 1F0#2C002C002C002C00
(1721070405.103035) can0 0AF#BE00A8207DF7FF00
(1721070405.104319) can0 329#0026260000060100
(1721070405.105113) can0 37C#0000000000000080
(1721070405.106291) can0 58F#0001000000000000
(1721070405.106942) can0 0C0#FAFF0007B9
(1721070405.108234) can0 316#C82600268A00003C
(1721070405.109192) can0 581#0000260000254F00
(1721070405.110203) can0 45F#041800FF1EF71064
(1721070405.110978) can0 460#9044087D90051608
(1721070405.110980) can0 461#78247E03001C8486
(1721070405.110981) can0 51F#040100000D007478
(1721070405.111847) can0 0AF#CB00B81F7E07FF00
(1721070405.113048) can0 329#0026260000070100
(1721070405.114983) can0 37C#0000000000000080
(1721070405.116977) can0 58F#0001000000000000
(1721070405.117867) can0 0C0#FAFF00078A
(1721070405.118707) can0 15E#007D000000904000
(1721070405.118708) can0 316#C82600268A00003C
(1721070405.119742) can0 581#0000260000254F00
(1721070405.120934) can0 45F#041800FF1EF61068
(1721070405.120936) can0 460#9044087DA0051608
(1721070405.121876) can0 461#78287D0300188488
(1721070405.121878) can0 51F#040100000C007478
(1721070405.121878) can0 153#086001FF0004FF0E
(1721070405.122707) can0 186#0100D60700800300
(1721070405.122708) can0 1A3#0000000001001080
(1721070405.122709) can0 1F0#2C002C002C002C00
(1721070405.123597) can0 0AF#BF00C81F7E17FF00
(1721070405.123598) can0 329#0026260000080100
(1721070405.124803) can0 37C#0000000000000080
(1721070405.125788) can0 58F#0001000000000000
(1721070405.126739) can0 0C0#FAFF00079B
(1721070405.127429) can0 316#C82600268A00003C
(1721070405.128710) can0 581#0000260000254F00
(1721070405.129685) can0 45F#041800FF1EF5106C
(1721070405.130556) can0 460#9044087DB0051608
(1721070405.131316) can0 461#782C7C0300188488
(1721070405.131317) can0 51F#040100000D007478
(1721070405.132663) can0 0AF#C100D81E7E17FF00
(1721070405.133491) can0 329#0026260000090100
(1721070405.134299) can0 37C#0000000000000080
(1721070405.135222) can0 58F#0001000000000000
(1721070405.136594) can0 613#0450208A5B007604
(1721070405.138519) can0 0C0#FAFF0107FC
(1721070405.140238) can0 316#C82600268A00003C
(1721070405.141437) can0 15E#007D000000904000
(1721070405.141439) can0 581#0000260000254F00
(1721070405.141440) can0 45F#041800FF1EF41070
(1721070405.143353) can0 460#9044087DC0061A08
(1721070405.143355) can0 461#78307B0300188488
(1721070405.143356) can0 51F#040100000C007478
(1721070405.145377) can0 153#086001FF0104FF0E
(1721070405.145378) can0 186#0100D80700800300
(1721070405.145379) can0 1A3#0000000001001080
(1721070405.146036) can0 1F0#2C002C002C002C00
(1721070405.146037) can0 0AF#9700E81F7E17FF00
(1721070405.146038) can0 329#00262600000A0100
(1721070405.147101) can0 37C#0000000000000080
(1721070405.147103) can0 58F#0001000000000000
(1721070405.147104) can0 0C0#FAFF0107ED
(1721070405.148261) can0 5E0#0200000000000000
(1721070405.149194) can0 316#C82600268A00003C
(1721070405.149992) can0 581#0000260000254F00
(1721070405.150990) can0 45F#041800FF1EF31074
(1721070405.150991) can0 460#9044087DD0041208
(1721070405.150992) can0 461#78347A0300188488
(1721070405.152063) can0 51F#040100000C007478
(1721070405.152841) can0 0AF#D000F8207E17FF00
(1721070405.154139) can0 329#00262600000B0100
(1721070405.154904) can0 37C#0000000000000080
(1721070405.155876) can0 58F#0001000000000000
(1721070405.156872) can0 0C0#FAFF0007CE
(1721070405.157786) can0 15E#007D000000904000
(1721070405.158812) can0 316#C82600268A00003C
(1721070405.159647) can0 581#0000260000254F00
(1721070405.160906) can0 45F#041800FF1EF21078
(1721070405.160907) can0 460#9044087DE0051608
(1721070405.161886) can0 461#78387903001C8487
(1721070405.161887) can0 51F#040100000C007478
(1721070405.161888) can0 153#086001FF0204FF0E
(1721070405.162770) can0 186#0100D80700800300
(1721070405.162772) can0 1A3#0000000001001080
(1721070405.162773) can0 1F0#2C002C002C002C00
(1721070405.163620) can0 0AF#6E0008217E07FF00
(1721070405.163621) can0 329#00262600000C0100
(1721070405.164873) can0 37C#0000000000000080
(1721070405.166768) can0 58F#0001000000000000
(1721070405.167451) can0 0C0#FAFF0007DF
(1721070405.168636) can0 316#C82600268A00003C
(1721070405.170557) can0 57E#0100000000000000
(1721070405.171327) can0 581#0000260000254F00
(1721070405.171328) can0 45F#041800FF1EF1107C
(1721070405.171329) can0 460#9044087DF0051608
(1721070405.172650) can0 461#783C7803001C8488
(1721070405.172652) can0 51F#040100000C007478
(1721070405.174626) can0 0AF#620018217E17FF00
(1721070405.175304) can0 329#00262600000D0100
(1721070405.176585) can0 37C#0000000000000080
(1721070405.176587) can0 58F#0001000000000000
(1721070405.177339) can0 0C0#FAFF000720
(1721070405.178290) can0 15E#007D000000904000
(1721070405.179192) can0 316#C82600268A00003C
(1721070405.180247) can0 581#0000260000254F00
(1721070405.181169) can0 45F#041800FF1E001040
(1721070405.181170) can0 460#9044087D00051608
(1721070405.181171) can0 461#78008703001C8488
(1721070405.182236) can0 51F#040100000D007478
(1721070405.182237) can0 153#086001FF0304FF0E
(1721070405.182238) can0 186#0100D80700800300
(1721070405.183203) can0 1A3#0000000001001080
(1721070405.183204) can0 1F0#2C002C002C002C00
(1721070405.184096) can0 0AF#340028207E17FF00
(1721070405.184097) can0 329#00262600000E0100
(1721070405.185378) can0 37C#0000000000000080
(1721070405.187183) can0 58F#0001000000000000
(1721070405.189293) can0 0C0#FAFF000731
(1721070405.191117) can0 316#C82600268A00003C
(1721070405.193200) can0 581#0000260000254F00
(1721070405.193201) can0 45F#041800FF1EFF1044
(1721070405.193202) can0 460#9044087D10051608
(1721070405.195028) can0 461#78048603001C8488
(1721070405.195030) can0 51F#040100000D007478
(1721070405.197141) can0 0AF#200038207E17FF00
(1721070405.197142) can0 329#00262600000F0100
(1721070405.198934) can0 37C#0000000000000080
(1721070405.198936) can0 58F#0001000000000000
(1721070405.200975) can0 0C0#FAFF010712
(1721070405.200976) can0 15E#007D000000904000
(1721070405.200977) can0 316#C82600268A00003C
(1721070405.202821) can0 581#0000260000254F00
(1721070405.202822) can0 45F#041800FF1EFE1048
(1721070405.202823) can0 460#9044087D20051608
(1721070405.204871) can0 461#78088503001C8487
(1721070405.204872) can0 51F#040100000D007478
(1721070405.204873) can0 153#086001FF0404FF0E
(1721070405.206776) can0 186#0100D80700800300
(1721070405.206777) can0 1A3#0000000001001080
(1721070405.206778) can0 1F0#2C002C002C002C00
(1721070405.207630) can0 0AF#260048217E17FF00
(1721070405.207632) can0 329#0026260000000100
(1721070405.207632) can0 37C#0000000000000080
(1721070405.208759) can0 58F#0001000000000000
(1721070405.208761) can0 0C0#FAFF010703
(1721070405.208762) can0 316#C82600268A00003C
(1721070405.209725) can0 581#0000260000254F00
(1721070405.210689) can0 45F#041800FF1EFD104C
(1721070405.210691) can0 460#9044087D30051608
(1721070405.211353) can0 461#780C8403001C8488
(1721070405.211354) can0 51F#040100000C007478
(1721070405.212689) can0 0AF#8C0058227E17FF00
(1721070405.213527) can0 329#0026260000010100
(1721070405.214607) can0 37C#0000000000000080
(1721070405.215299) can0 58F#0001000000000000
(1721070405.217590) can0 0C0#FAFF010774
(1721070405.218327) can0 15E#007D000000904000
(1721070405.219340) can0 316#C82600268A00003C
(1721070405.219341) can0 637#0208005347000000
(1721070405.220250) can0 581#0000260000254F00
(1721070405.220252) can0 45F#041800FF1EFC1050
(1721070405.221461) can0 460#9044087D40051608
(1721070405.221463) can0 461#78108303001C8488
(1721070405.221464) can0 153#086001FF0504FF0E
(1721070405.222323) can0 186#0100D80700800300
(1721070405.222325) can0 1A3#0000000001001080
(1721070405.222417) can0 1F0#2C002C002C002C00
(1721070405.223085) can0 51F#040100000C007478
(1721070405.223086) can0 0AF#DA0068237E17FF00
(1721070405.224425) can0 329#0026260000020100
(1721070405.226341) can0 37C#0000000000000080
(1721070405.226986) can0 58F#0001000000000000
(1721070405.228137) can0 0C0#FAFF010765
(1721070405.229239) can0 316#C82600268A00003C
(1721070405.230117) can0 581#0000260000254F00
(1721070405.231082) can0 45F#041800FF1EFB1054
(1721070405.231083) can0 460#9044087D50051608
(1721070405.231084) can0 461#78148203001C8488
(1721070405.233158) can0 51F#040100000C007478
(1721070405.234125) can0 0AF#CE0078237E17FF00
(1721070405.234938) can0 329#0026260000030100
(1721070405.236098) can0 37C#0000000000000080
(1721070405.236100) can0 58F#0001000000000000
(1721070405.237045) can0 0C0#FAFF000746
(1721070405.237855) can0 613#0450208A5B007604
(1721070405.239030) can0 316#C82600268A00003C
(1721070405.239032) can0 15E#007D000000904000
(1721070405.240930) can0 581#0000260000254F00
(1721070405.241923) can0 45F#041800FF1EFA1058
(1721070405.241925) can0 460#9044087D60051608
(1721070405.241926) can0 461#78188103001C8487
(1721070405.242884) can0 51F#040100000C007478
(1721070405.242885) can0 153#086001FF0604FF0E
(1721070405.242886) can0 186#0100D80700800300
(1721070405.243703) can0 1A3#0000000001001080
(1721070405.243705) can0 1F0#2C002C002C002C00
(1721070405.243705) can0 0AF#700088227E07FF00
(1721070405.244904) can0 329#0026260000040100
(1721070405.246823) can0 37C#0000000000000080
(1721070405.248780) can0 58F#0001000000000000
(1721070405.248781) can0 5E0#0200000000000000
(1721070405.249555) can0 0C0#FAFF000757
(1721070405.249556) can0 316#C82600268A00003C
(1721070405.250749) can0 581#0000260000254F00
(1721070405.250750) can0 45F#041800FF1EF9105C
(1721070405.250751) can0 460#9044087D70051608
(1721070405.251382) can0 461#781C8003001C8488
(1721070405.251383) can0 51F#040100000D007478
(1721070405.252698) can0 0AF#C20098217E17FF00
(1721070405.253341) can0 329#0026260000050100
(1721070405.254639) can0 37C#0000000000000080
(1721070405.255313) can0 58F#0001000000000000
(1721070405.256638) can0 0C0#FAFF0007A8
(1721070405.258592) can0 15E#007D000000904000
(1721070405.260308) can0 316#C82600268A00003C
(1721070405.261282) can0 581#0000260000254F00
(1721070405.261283) can0 45F#041800FF1EF81060
(1721070405.262141) can0 460#9044087D80051608
(1721070405.262142) can0 461#78207F03001C8488
(1721070405.262143) can0 153#086001FF0704FF0E
(1721070405.263347) can0 186#0100D80700800300
(1721070405.263348) can0 1A3#0000000001001080
(1721070405.263349) can0 1F0#2C002C002C002C00
(1721070405.265416) can0 51F#040100000C007478
(1721070405.265418) can0 0AF#9400A8207E17FF00
(1721070405.265418) can0 329#0026260000060100
(1721070405.267262) can0 37C#0000000000000080
(1721070405.269283) can0 58F#0001000000000000
(1721070405.271141) can0 0C0#FAFF0007B9
(1721070405.271143) can0 57E#0100000000000000
(1721070405.271143) can0 316#C82600268A00003C
(1721070405.273223) can0 581#0000260000254F00
(1721070405.273224) can0 45F#041800FF1EF71064
(1721070405.273225) can0 460#9044087D90051608
(1721070405.275049) can0 461#78247E03001C8488
(1721070405.275050) can0 51F#040100000C007478
(1721070405.276961) can0 0AF#9800B8207E07FF00
(1721070405.276962) can0 329#0026260000070100
(1721070405.277791) can0 37C#0000000000000080
(1721070405.277792) can0 58F#0001000000000000
(1721070405.278779) can0 0C0#FAFF00078A
(1721070405.278780) can0 15E#007D000000904000
(1721070405.278781) can0 316#C82600268A00003C
(1721070405.279721) can0 581#0000260000254F00
(1721070405.281003) can0 45F#041800FF1EF61068
(1721070405.281004) can0 460#9044087DA0051608
(1721070405.281940) can0 461#78287D03001C8488
(1721070405.281941) can0 153#086001FF0804FF0E
(1721070405.281942) can0 186#0100D60700800300
(1721070405.282819) can0 1A3#0000000001001080
(1721070405.282821) can0 1F0#2C002C002C002C00
(1721070405.282822) can0 51F#040100000D007478
(1721070405.283739) can0 0AF#F400C8207E07FF00
(1721070405.283741) can0 329#0026260000080100
(1721070405.284908) can0 37C#0000000000000080
(1721070405.285843) can0 58F#0001000000000000
(1721070405.286853) can0 0C0#FAFF00079B
(1721070405.287650) can0 316#C82600268A00003C
(1721070405.288811) can0 581#0000260000254F00
(1721070405.289747) can0 45F#041800FF1EF5106C
(1721070405.290753) can0 460#9044087DB0051608
(1721070405.291392) can0 461#782C7C03001C8488
(1721070405.291393) can0 51F#040100000C007478
(1721070405.292635) can0 0AF#E000D8207E07FF00
(1721070405.293485) can0 329#0026260000090100
(1721070405.294668) can0 37C#0000000000000080
(1721070405.296571) can0 58F#0001000000000000
(1721070405.297561) can0 0C0#FAFF0007EC
(1721070405.298514) can0 15E#007D000000904000
(1721070405.299218) can0 316#C82600268A00003C
(1721070405.299219) can0 581#0000260000254F00
(1721070405.300532) can0 45F#041800FF1EF41070
(1721070405.301454) can0 460#9044087DC0051608
(1721070405.301455) can0 461#78307B03001C8488
(1721070405.301456) can0 153#086001FF0904FF0E
(1721070405.302276) can0 186#0100D60700800300
(1721070405.302277) can0 1A3#0000000001001080
(1721070405.302278) can0 1F0#2C002C002C002C00
(1721070405.303119) can0 51F#040100000C007478
(1721070405.303120) can0 0AF#8F00E81F7E07FF00
(1721070405.304070) can0 329#00262600000A0100
(1721070405.305339) can0 37C#0000000000000080
(1721070405.306281) can0 58F#0001000000000000
(1721070405.307028) can0 0C0#FAFF0007FD
(1721070405.308339) can0 316#C82600268A00003C
(1721070405.309171) can0 581#0000260000254F00
(1721070405.310235) can0 51F#040100000C007478
(1721070405.310931) can0 45F#041800FF1EF31074
(1721070405.310932) can0 460#9044087DD0051608
(1721070405.310932) can0 461#78347A0300188488
(1721070405.311869) can0 0AF#A900F81F7DF7FF00
(1721070405.313120) can0 329#00262600000B0100
(1721070405.313910) can0 37C#0000000000000080
(1721070405.315067) can0 58F#0001000000000000
(1721070405.317018) can0 0C0#FAFF0007CE
(1721070405.317789) can0 15E#007D000000904000
(1721070405.318735) can0 316#C82600268A00003C
(1721070405.319723) can0 581#0000260000254F00
(1721070405.320782) can0 51F#040100000C007478
(1721070405.320783) can0 45F#041800FF1EF21078
(1721070405.321660) can0 460#9044087DE0051608
(1721070405.321661) can0 461#7838790300188488
(1721070405.321662) can0 153#086001FF0A04FF0E
(1721070405.322672) can0 186#0100D40700800300
(1721070405.322674) can0 1A3#0000000001001080
(1721070405.322675) can0 1F0#2C002C002C002C00
(1721070405.323621) can0 0AF#6500081F7DF7FF00
(1721070405.323622) can0 329#00262600000C0100
(1721070405.324583) can0 37C#0000000000000080
(1721070405.325563) can0 58F#0001000000000000
(1721070405.326596) can0 0C0#FAFF0007DF
(1721070405.327525) can0 316#C82600268A00003C
(1721070405.328457) can0 581#0000260000254F00
(1721070405.329392) can0 51F#040100000D007478
(1721070405.330361) can0 45F#041800FF1EF1107C
(1721070405.331331) can0 460#9044087DF0041208
(1721070405.331331) can0 461#783C780300188488
(1721070405.332314) can0 0AF#4300181F7E07FF00
(1721070405.333290) can0 329#00262600000D0100
(1721070405.334267) can0 37C#0000000000000080
(1721070405.335258) can0 58F#0001000000000000
(1721070405.336266) can0 613#0450208B5B007604
(1721070405.337194) can0 0C0#FAFF000720
(1721070405.338170) can0 316#C82600268A00003C
(1721070405.339143) can0 15E#007D000000904000
(1721070405.340120) can0 581#0000260000254F00
(1721070405.341101) can0 51F#040100000D007478
(1721070405.341102) can0 45F#041800FF1E001040
(1721070405.341102) can0 460#9044087D00041208
(1721070405.342077) can0 461#7800870300188488
(1721070405.342078) can0 153#086001FF0B04FF0E
(1721070405.342078) can0 186#0100D60700800200
(1721070405.345049) can0 1A3#0000000001001080
(1721070405.345050) can0 1F0#2C002C002C002C00
(1721070405.346038) can0 0AF#7F00281F7E07FF00
(1721070405.346039) can0 329#00262600000E0100
(1721070405.346045) can0 37C#0000000000000080
(1721070405.346046) can0 58F#0001000000000000
(1721070405.346938) can0 0C0#FAFF000731
(1721070405.347942) can0 5E0#0200000000000000
(1721070405.348929) can0 316#C82600268A00003C
(1721070405.349897) can0 581#0000260000254F00
(1721070405.350866) can0 51F#040100000D007478
(1721070405.350867) can0 45F#041800FF1EFF1044
(1721070405.350867) can0 460#9044087D10051608
(1721070405.351854) can0 461#7804860300188488
(1721070405.352830) can0 0AF#6B00381F7E07FF00
(1721070405.353833) can0 329#00262600000F0100
(1721070405.354769) can0 37C#0000000000000080
(1721070405.355783) can0 58F#0001000000000000
(1721070405.356765) can0 0C0#FAFF000702
(1721070405.357774) can0 15E#007D000000904000
(1721070405.358750) can0 316#C82600268A00003C
(1721070405.359600) can0 581#0000260000254F00
(1721070405.360608) can0 51F#040100000C007478
(1721070405.360609) can0 45F#041800FF1EFE1048
(1721070405.361599) can0 460#9044087D20051608
(1721070405.361600) can0 461#7808850300188488
(1721070405.361600) can0 153#086001FF0C04FF0E
(1721070405.362558) can0 186#0100D60700800300
(1721070405.362559) can0 1A3#0000000001001080
(1721070405.362560) can0 1F0#2C002C002C002C00
(1721070405.363602) can0 329#0026260000000100
(1721070405.363603) can0 0AF#540048207E07FF00
(1721070405.364753) can0 37C#0000000000000080
(1721070405.365766) can0 58F#0001000000000000
(1721070405.366722) can0 0C0#FAFF000713
(1721070405.368661) can0 57E#0100000000000000
(1721070405.369642) can0 316#C82600268A00003C
(1721070405.370673) can0 581#0000260000254F00
(1721070405.370674) can0 51F#040100000C007478
(1721070405.370674) can0 45F#041800FF1EFD104C
(1721070405.372631) can0 460#9044087D30051608
(1721070405.372632) can0 461#780C8403001C8488
(1721070405.373536) can0 329#0026260000010100
(1721070405.374600) can0 0AF#400058207E07FF00
(1721070405.376602) can0 37C#0000000000000080
(1721070405.377469) can0 58F#0001000000000000
(1721070405.378466) can0 0C0#FAFF000764
(1721070405.378468) can0 15E#007D000000904000
(1721070405.378468) can0 316#C82600268A00003C
(1721070405.379221) can0 581#0000260000254F00
(1721070405.380472) can0 51F#040100000C007478
(1721070405.381359) can0 45F#041800FF1EFC1050
(1721070405.381361) can0 460#9044087D40051608
(1721070405.381361) can0 461#78108303001C8488
(1721070405.382163) can0 153#086001FF0D04FF0E
(1721070405.382164) can0 186#0100D60700800300
(1721070405.382165) can0 1A3#0000000001001080
(1721070405.383130) can0 1F0#2C002C002C002C00
(1721070405.383131) can0 329#0026260000020100
(1721070405.384211) can0 0AF#7C0068207E07FF00
(1721070405.385109) can0 37C#0000000000000080
(1721070405.386148) can0 58F#0001000000000000
(1721070405.387091) can0 0C0#FAFF000775
(1721070405.388131) can0 316#C82600268A00003C
(1721070405.388977) can0 581#0000260000254F00
(1721070405.389956) can0 51F#040100000C007478
(1721070405.390958) can0 45F#041800FF1EFB1054
(1721070405.390959) can0 460#9044087D50051608
(1721070405.390960) can0 461#78148203001C8488
(1721070405.391935) can0 329#0026260000030100
(1721070405.392918) can0 0AF#680078207E07FF00
(1721070405.393699) can0 37C#0000000000000080
(1721070405.394865) can0 58F#0001000000000000
(1721070405.396884) can0 0C0#FAFF000746
(1721070405.397790) can0 15E#007D000000904000
(1721070405.398770) can0 316#C82600268A00003C
(1721070405.399748) can0 581#0000260000254F00
(1721070405.400721) can0 51F#040100000C007478
(1721070405.400723) can0 45F#041800FF1EFA1058
(1721070405.400723) can0 460#9044087D60041208
(1721070405.401716) can0 461#78188103001C8487
(1721070405.401717) can0 153#086001FF0E04FF0E
(1721070405.401717) can0 186#0100D60700800300
(1721070405.402686) can0 1A3#0000000001001080
(1721070405.402687) can0 1F0#2C002C002C002C00
(1721070405.403650) can0 329#0026260000040100
(1721070405.403651) can0 0AF#A40088207E07FF00
(1721070405.404636) can0 37C#0000000000000080
(1721070405.405664) can0 58F#0001000000000000
(1721070405.406888) can0 0C0#FAFF000757
(1721070405.407709) can0 316#C82600268A00003C
(1721070405.408858) can0 581#0000260000254F00
(1721070405.410823) can0 51F#040100000C007478
(1721070405.411447) can0 45F#041800FF1EF9105C
(1721070405.411448) can0 460#9044087D70051608
(1721070405.412672) can0 461#781C8003001C8488
(1721070405.413708) can0 329#0026260000050100
(1721070405.413710) can0 0AF#DA0098217E07FF00
(1721070405.414673) can0 37C#0000000000000080
(1721070405.415337) can0 58F#0001000000000000
(1721070405.416700) can0 0C0#FAFF0007A8
(1721070405.418623) can0 15E#007D000000904000
(1721070405.419317) can0 316#C82600268A00003C
(1721070405.420290) can0 581#0000260000254F00
(1721070405.420291) can0 51F#040100000C007478
(1721070405.420292) can0 45F#041800FF1EF81060
(1721070405.421227) can0 460#9044087D80051608
(1721070405.421228) can0 461#78207F03001C8487
(1721070405.421229) can0 153#086001FF0004FF0E
(1721070405.422250) can0 186#0100D60700800300
(1721070405.422251) can0 1A3#0000000001001080
(1721070405.422251) can0 1F0#2C002C002C002C00
(1721070405.423187) can0 329#0026260000060100
(1721070405.424209) can0 0AF#E600A8217E07FF00
(1721070405.425258) can0 37C#0000000000000080
(1721070405.426161) can0 58F#0001000000000000
(1721070405.427111) can0 0C0#FAFF0007B9
(1721070405.428102) can0 316#C82600268A00003C
(1721070405.429208) can0 581#0000260000254F00
(1721070405.431205) can0 51F#040100000C007478
(1721070405.433288) can0 45F#041800FF1EF71064
(1721070405.433290) can0 460#9044087D90051608
(1721070405.433291) can0 461#78247E03001C8488
(1721070405.435115) can0 329#0026260000070100
(1721070405.437099) can0 0AF#C000B8217DF7FF00
(1721070405.438106) can0 37C#0000000000000080
(1721070405.438107) can0 58F#0001000000000000
(1721070405.438108) can0 613#0450208A5B007604
(1721070405.438775) can0 0C0#FAFF00078A
(1721070405.438776) can0 316#C82600268A00003C
(1721070405.438777) can0 15E#007D000000904000
(1721070405.439876) can0 581#0000260000254F00
(1721070405.441064) can0 51F#040100000C007478
(1721070405.441066) can0 45F#041800FF1EF61068
(1721070405.441067) can0 460#9044087DA0051608
(1721070405.442923) can0 461#78287D03001C8488
(1721070405.442924) can0 153#086001FF0104FF0E
(1721070405.442925) can0 186#0100D40700800200
(1721070405.443826) can0 1A3#0000000001001080
(1721070405.443827) can0 1F0#2C002C002C002C00
(1721070405.444965) can0 329#0026260000080100
(1721070405.444966) can0 0AF#0A00C8227DE7FF00
(1721070405.446866) can0 37C#0000000000000080
(1721070405.446868) can0 58F#0001000000000000
(1721070405.448861) can0 5E0#0200000000000000
(1721070405.450701) can0 0C0#FAFF01078B
(1721070405.450703) can0 316#C82600268A00003C
(1721070405.451501) can0 581#0000260000254F00
(1721070405.451502) can0 51F#040100000C007478
(1721070405.451502) can0 45F#041800FF1EF5106C
(1721070405.452772) can0 460#9044087DB0051608
(1721070405.452773) can0 461#782C7C03001C8488
(1721070405.454685) can0 329#0026260000090100
(1721070405.454686) can0 0AF#0600D8227DF7FF00
(1721070405.456625) can0 37C#0000000000000080
(1721070405.457630) can0 58F#0001000000000000
(1721070405.458590) can0 0C0#FAFF0107FC
(1721070405.458591) can0 15E#007D000000904000
(1721070405.458592) can0 316#C82600268A00003C
(1721070405.459282) can0 581#0000260000254F00
(1721070405.460621) can0 51F#040100000C007478
(1721070405.462530) can0 45F#041800FF1EF41070
(1721070405.462531) can0 460#9044087DC0051608
(1721070405.462532) can0 461#78307B03001C8488
(1721070405.463204) can0 153#086001FF0204FF0E
(1721070405.463205) can0 186#0100D40700800200
(1721070405.463206) can0 1A3#0000000001001080
(1721070405.464214) can0 1F0#2C002C002C002C00
(1721070405.464215) can0 329#00262600000A0100
(1721070405.464216) can0 0AF#3A00E8227DF7FF00
(1721070405.465183) can0 37C#0000000000000080
(1721070405.466348) can0 58F#0001000000000000
(1721070405.467093) can0 0C0#FAFF0007FD
(1721070405.468429) can0 57E#0100000000000000
(1721070405.470334) can0 316#C82600268A00003C
(1721070405.470993) can0 581#0000260000254F00
(1721070405.470994) can0 51F#040100000D007478
(1721070405.472296) can0 45F#041800FF1EF31074
(1721070405.472298) can0 460#9044087DD0041208
(1721070405.472299) can0 461#78347A03001C8488
(1721070405.473146) can0 329#00262600000B0100
(1721070405.474078) can0 0AF#C800F8207E07FF00
(1721070405.474897) can0 37C#0000000000000080
(1721070405.476169) can0 58F#0001000000000000
(1721070405.477159) can0 0C0#FAFF0007CE
(1721070405.478116) can0 15E#007D000000904000
(1721070405.479014) can0 316#C82600268A00003C
(1721070405.479762) can0 581#0000260000254F00
(1721070405.481108) can0 51F#040100000C007478
(1721070405.481110) can0 45F#041800FF1EF21078
(1721070405.481111) can0 460#9044087DE0051608
(1721070405.482897) can0 461#78387903001C8487
(1721070405.482898) can0 153#086001FF0304FF0E
(1721070405.482899) can0 186#0100D60700800300
(1721070405.483800) can0 1A3#0000000001001080
(1721070405.483802) can0 1F0#2C002C002C002C00
(1721070405.484987) can0 329#00262600000C0100
(1721070405.484989) can0 0AF#1C0008207E17FF00
(1721070405.485931) can0 37C#0000000000000080
(1721070405.485932) can0 58F#0001000000000000
(1721070405.486934) can0 0C0#FAFF0007DF
(1721070405.487714) can0 316#C82600268A00003C
(1721070405.488885) can0 581#0000260000254F00
(1721070405.489809) can0 51F#040100000C007478
(1721070405.490828) can0 45F#041800FF1EF1107C
(1721070405.490830) can0 460#9044087DF0041208
(1721070405.491697) can0 461#783C7803001C8488
(1721070405.492760) can0 329#00262600000D0100
(1721070405.493732) can0 0AF#5B00181F7E17FF00
(1721070405.494725) can0 37C#0000000000000080
(1721070405.495412) can0 58F#0001000000000000
(1721070405.496733) can0 0C0#FAFF000720
(1721070405.498414) can0 15E#007D000000904000
(1721070405.499309) can0 316#C82600268A00003C
(1721070405.500598) can0 581#0000260000254F00
(1721070405.500600) can0 51F#040100000C007478
(1721070405.501532) can0 45F#041800FF1E001040
(1721070405.501533) can0 460#9044087D00061A08
(1721070405.501534) can0 461#7800870300188487
(1721070405.502499) can0 153#086001FF0404FF0E
(1721070405.502501) can0 186#0100D80700800300
(1721070405.502502) can0 1A3#0000000001001080
(1721070405.503201) can0 1F0#2C002C002C002C00
(1721070405.503202) can0 329#00262600000E0100
(1721070405.503203) can0 0AF#7F00281F7E07FF00
(1721070405.504465) can0 37C#0000000000000080
(1721070405.505507) can0 58F#0001000000000000
(1721070405.506183) can0 0C0#FAFF000731
(1721070405.507277) can0 316#C82600268A00003C
(1721070405.509342) can0 581#0000260000254F00
(1721070405.511051) can0 51F#040100000C007478
(1721070405.512084) can0 45F#041800FF1EFF1044
(1721070405.512085) can0 460#9044087D10051608
(1721070405.512086) can0 461#7804860300188488
(1721070405.513003) can0 329#00262600000F0100
(1721070405.513996) can0 0AF#AC00381F7E080000
(1721070405.515099) can0 37C#0000000000000080
(1721070405.516123) can0 58F#0001000000000000
(1721070405.517190) can0 0C0#FAFF000702
(1721070405.518126) can0 15E#007D000000904000
(1721070405.518805) can0 316#C82600268A00003C
(1721070405.518806) can0 581#0000260000254F00
(1721070405.519884) can0 51F#040100000D007478
(1721070405.521086) can0 45F#041800FF1EFE1048
(1721070405.521088) can0 460#9044087D20061A08
(1721070405.522041) can0 461#7808850300188488
(1721070405.522042) can0 153#086001FF0504FF0E
(1721070405.522043) can0 186#0100D60700800200
(1721070405.522866) can0 1A3#0000000001001080
(1721070405.522867) can0 1F0#2C002C002C002C00
(1721070405.523724) can0 329#0026260000000100
(1721070405.523726) can0 0AF#C000481F7E080000
(1721070405.525022) can0 37C#0000000000000080
(1721070405.526819) can0 58F#0001000000000000
(1721070405.527723) can0 0C0#FAFF000713
(1721070405.528773) can0 316#C82600268A00003C
(1721070405.529855) can0 581#0000260000254F00
(1721070405.530523) can0 51F#040100000C007478
(1721070405.530524) can0 45F#041800FF1EFD104C
(1721070405.531648) can0 460#9044087D30051608
(1721070405.531649) can0 461#780C840300188488
(1721070405.532777) can0 329#0026260000010100
(1721070405.533735) can0 0AF#D400581F7E080000
(1721070405.534722) can0 37C#0000000000000080
(1721070405.535429) can0 58F#0001000000000000
(1721070405.536705) can0 0C0#FAFF010774
(1721070405.537488) can0 613#0450208A5B007604
(1721070405.538578) can0 15E#007D000000904000
(1721070405.538580) can0 316#C82600268A00003C
(1721070405.539308) can0 581#0000260000254F00
(1721070405.540575) can0 51F#040100000C007478
(1721070405.540577) can0 45F#041800FF1EFC1050
(1721070405.541296) can0 460#9044087D40051608
(1721070405.541297) can0 461#7810830300188488
(1721070405.541298) can0 153#086001FF0604FF0E
(1721070405.542535) can0 186#0100D60700800300
(1721070405.542537) can0 1A3#0000000001001080
(1721070405.542537) can0 1F0#2C002C002C002C00
(1721070405.543299) can0 329#0026260000020100
(1721070405.543300) can0 0AF#E800681F7E080000
(1721070405.544504) can0 37C#0000000000000080
(1721070405.545225) can0 58F#0001000000000000
(1721070405.546224) can0 5E0#0200000000000000
(1721070405.550096) can0 0C0#FAFF010765
(1721070405.550111) can0 316#C82600268A00003C
(1721070405.550204) can0 581#0000260000254F00
(1721070405.550228) can0 51F#040100000C007478
(1721070405.551009) can0 45F#041800FF1EFB1054
(1721070405.551010) can0 460#9044087D50041208
(1721070405.551011) can0 461#7814820300188487
(1721070405.552090) can0 329#0026260000030100
(1721070405.553011) can0 0AF#9600781E7E080000
(1721070405.554000) can0 37C#0000000000000080
(1721070405.554954) can0 58F#0001000000000000
(1721070405.556965) can0 0C0#FAFF000746
(1721070405.557905) can0 15E#007D000000904000
(1721070405.558976) can0 316#C82600268A00003C
(1721070405.559863) can0 581#0000260000254F00
(1721070405.560736) can0 51F#040100000C007478
(1721070405.560736) can0 45F#041800FF1EFA1058
(1721070405.560737) can0 460#9044087D60041208
(1721070405.561730) can0 461#7818810300188488
(1721070405.561731) can0 153#086001FF0704FF0E
(1721070405.561731) can0 186#0100D60700800300
(1721070405.562668) can0 1A3#0000000001001080
(1721070405.562669) can0 1F0#2C002C002C002C00
(1721070405.563656) can0 329#0026260000040100
(1721070405.563656) can0 0AF#5A00881E7E080000
(1721070405.564871) can0 37C#0000000000000080
(1721070405.565851) can0 58F#0001000000000000
(1721070405.566800) can0 0C0#FAFF000757
(1721070405.568801) can0 57E#0100000000000000
(1721070405.569717) can0 316#C82600268A00003C
(1721070405.570686) can0 581#0000260000254F00
(1721070405.570686) can0 51F#040100000C007478
(1721070405.570687) can0 45F#041800FF1EF9105C
(1721070405.572695) can0 460#9044087D70051608
(1721070405.572696) can0 461#781C800300188488
(1721070405.573653) can0 329#0026260000050100
(1721070405.574593) can0 0AF#E300981F7E07FF00
(1721070405.576529) can0 37C#0000000000000080
(1721070405.576530) can0 58F#0001000000000000
(1721070405.578318) can0 0C0#FAFF0007A8
(1721070405.579253) can0 15E#007D000000904000
(1721070405.579253) can0 316#C82600268A00003C
(1721070405.580453) can0 581#0000260000254F00
(1721070405.580454) can0 51F#040100000C007478
(1721070405.582405) can0 45F#041800FF1EF81060
(1721070405.582406) can0 460#9044087D80051608
(1721070405.582406) can0 461#78207F0300188487
(1721070405.584359) can0 153#086001FF0804FF0E
(1721070405.584360) can0 186#0100D60700800300
(1721070405.584360) can0 1A3#0000000001001080
(1721070405.585328) can0 1F0#2C002C002C002C00
(1721070405.585328) can0 329#0026260000060100
(1721070405.585376) can0 0AF#9400A8207E17FF00
(1721070405.586320) can0 37C#0000000000000080
(1721070405.586321) can0 58F#0001000000000000
(1721070405.588264) can0 0C0#FAFF0007B9
(1721070405.589230) can0 316#C82600268A00003C
(1721070405.590205) can0 581#0000260000254F00
(1721070405.590206) can0 51F#040100000D007478
(1721070405.591153) can0 45F#041800FF1EF71064
(1721070405.591153) can0 460#9044087D90051608
(1721070405.591154) can0 461#78247E03001C8487
(1721070405.592212) can0 329#0026260000070100
(1721070405.593190) can0 0AF#EA00B8217E17FF00
(1721070405.594151) can0 56F#00
(1721070405.595051) can0 37C#0000000000000080
(1721070405.596159) can0 58F#0001000000000000
(1721070405.597081) can0 0C0#FAFF00078A
(1721070405.598015) can0 15E#007D000000904000
(1721070405.599754) can0 316#C82600268A00003C
(1721070405.599754) can0 581#0000260000254F00
(1721070405.600946) can0 51F#040100000C007478
(1721070405.601918) can0 45F#041800FF1EF61068
(1721070405.601918) can0 460#9044087DA0051608
(1721070405.601919) can0 461#78287D03001C8488
(1721070405.602891) can0 153#086001FF0904FF0E
(1721070405.602891) can0 186#0100D80700800300
(1721070405.602892) can0 1A3#0000000001001080
(1721070405.603885) can0 1F0#2C002C002C002C00
(1721070405.603886) can0 329#0026260000080100
(1721070405.603886) can0 0AF#3800C8227E17FF00
(1721070405.604885) can0 37C#0000000000000080
(1721070405.605795) can0 58F#0001000000000000
(1721070405.606812) can0 0C0#FAFF00079B
(1721070405.608799) can0 316#C82600268A00003C
(1721070405.609719) can0 581#0000260000254F00
(1721070405.610705) can0 51F#040100000C007478
(1721070405.610706) can0 45F#041800FF1EF5106C
(1721070405.612678) can0 460#9044087DB0041208
(1721070405.612679) can0 461#782C7C03001C8488
(1721070405.613669) can0 329#0026260000090100
(1721070405.614605) can0 0AF#8A00D8217E07FF00
(1721070405.616582) can0 37C#0000000000000080
(1721070405.616583) can0 58F#0001000000000000
(1721070405.617533) can0 0C0#FAFF0007EC
(1721070405.618550) can0 15E#007D000000904000
(1721070405.618551) can0 316#C82600268A00003C
(1721070405.620540) can0 581#0000260000254F00
(1721070405.621453) can0 51F#040100000C007478
(1721070405.623418) can0 45F#041800FF1EF41070
(1721070405.623419) can0 460#9044087DC0051608
(1721070405.623419) can0 461#78307B03001C8488
(1721070405.624377) can0 153#086001FF0A04FF0E
(1721070405.624378) can0 186#0100D60700800300
(1721070405.624378) can0 1A3#0000000001001080
(1721070405.625360) can0 1F0#2C002C002C002C00
(1721070405.625361) can0 329#00262600000A0100
(1721070405.625362) can0 0AF#8400E8217DF7FF00
(1721070405.626403) can0 37C#0000000000000080
(1721070405.626404) can0 58F#0001000000000000
(1721070405.628423) can0 0C0#FAFF0007FD
(1721070405.629271) can0 316#C82600268A00003C
(1721070405.630342) can0 581#0000260000254F00
(1721070405.630343) can0 51F#040100000C007478
(1721070405.632312) can0 45F#041800FF1EF31074
(1721070405.632313) can0 460#9044087DD0051608
(1721070405.632313) can0 461#78347A03001C8488
(1721070405.633268) can0 329#00262600000B0100
(1721070405.634247) can0 0AF#9000F8217DF7FF00
(1721070405.635107) can0 37C#0000000000000080
(1721070405.636263) can0 58F#0001000000000000
(1721070405.637138) can0 613#0450208B5B007604
(1721070405.638158) can0 0C0#FAFF0107DE
(1721070405.638159) can0 15E#007D000000904000
(1721070405.640106) can0 316#C82600268A00003C
(1721070405.640107) can0 581#0000260000254F00
(1721070405.641070) can0 51F#040100000C007478
(1721070405.641990) can0 45F#041800FF1EF21078
(1721070405.642066) can0 460#9044087DE0051608
(1721070405.642066) can0 461#78387903001C8488
(1721070405.642931) can0 153#086001FF0B04FF0E
(1721070405.642932) can0 186#0100D40700800200
(1721070405.642932) can0 1A3#0000000001001080
(1721070405.643991) can0 1F0#2C002C002C002C00
(1721070405.643993) can0 329#00262600000C0100
(1721070405.643993) can0 0AF#6E0008217E07FF00
(1721070405.644991) can0 37C#0000000000000080
(1721070405.645881) can0 58F#0001000000000000
(1721070405.646902) can0 5E0#0200000000000000
(1721070405.648823) can0 0C0#FAFF0107CF
(1721070405.649796) can0 316#C82600268A00003C
(1721070405.649797) can0 581#0000260000254F00
(1721070405.650818) can0 51F#040100000C007378
(1721070405.650819) can0 45F#041800FF1EF1107C
(1721070405.650820) can0 460#9044087DF0051608
(1721070405.652817) can0 461#783C7803001C8488
(1721070405.653683) can0 329#00262600000D0100
(1721070405.654732) can0 0AF#7A0018217E07FF00
(1721070405.655454) can0 37C#0000000000000080
(1721070405.655455) can0 58F#0001000000000000
(1721070405.656451) can0 0C0#FAFF000720
(1721070405.657681) can0 15E#007D000000904000
(1721070405.658699) can0 316#C82600268A00003C
(1721070405.659342) can0 581#0000260000254F00
(1721070405.660523) can0 51F#040100000C007378
(1721070405.660524) can0 45F#041800FF1E001040
(1721070405.662525) can0 460#9044087D00041208
(1721070405.662527) can0 461#78008703001C8487
(1721070405.662527) can0 153#086001FF0C04FF0E
(1721070405.664521) can0 186#0100D60700800300
(1721070405.664522) can0 1A3#0000000001001080
(1721070405.664523) can0 1F0#2C002C002C002C00
(1721070405.665471) can0 329#00262600000E0100
(1721070405.665472) can0 0AF#460028217E07FF00
(1721070405.666502) can0 37C#0000000000000080
(1721070405.666506) can0 58F#0001000000000000
(1721070405.668149) can0 0C0#FAFF000731
(1721070405.669320) can0 57E#0100000000000000
(1721070405.669321) can0 316#C82600268A00003C
(1721070405.671233) can0 581#0000260000254F00
(1721070405.671234) can0 51F#040100000C007378
(1721070405.672297) can0 45F#041800FF1EFF1044
(1721070405.672299) can0 460#9044087D10051608
(1721070405.672299) can0 461#78048603001C8487
(1721070405.673290) can0 329#00262600000F0100
(1721070405.673291) can0 0AF#380038207E07FF00
(1721070405.674273) can0 37C#0000000000000080
(1721070405.676217) can0 58F#0001000000000000
(1721070405.677197) can0 0C0#FAFF010712
(1721070405.678160) can0 15E#007D000000904000
(1721070405.678161) can0 316#C82600268A00003C
(1721070405.679025) can0 581#0000260000254F00
(1721070405.680139) can0 51F#040100000C007378
(1721070405.680976) can0 45F#041800FF1EFE1048
(1721070405.680977) can0 460#9044087D20051608
(1721070405.680978) can0 461#78088503001C8487
(1721070405.681967) can0 153#086001FF0D04FF0E
(1721070405.681968) can0 186#0100D60700800300
(1721070405.681969) can0 1A3#0000000001001080
(1721070405.683066) can0 1F0#2C002C002C002C00
(1721070405.683067) can0 329#0026260000000100
(1721070405.684970) can0 0AF#540048207E07FF00
(1721070405.685997) can0 37C#0000000000000080
(1721070405.686906) can0 58F#0001000000000000
(1721070405.688875) can0 0C0#FAFF010703
(1721070405.688876) can0 316#C82600268A00003C
(1721070405.689819) can0 581#0000260000254F00
(1721070405.690872) can0 51F#040100000C007378
(1721070405.690873) can0 45F#041800FF1EFD104C
(1721070405.690874) can0 460#9044087D30051608
(1721070405.691543) can0 461#780C8403001C8487
(1721070405.692824) can0 329#0026260000010100
(1721070405.693774) can0 0AF#2A0058217E07FF00
(1721070405.694696) can0 37C#0000000000000080
(1721070405.695507) can0 58F#0001000000000000
(1721070405.696646) can0 0C0#FAFF000764
(1721070405.697675) can0 15E#007D000000904000
(1721070405.698671) can0 316#C82600268A00003C
(1721070405.700625) can0 581#0000260000254F00
(1721070405.702305) can0 51F#040100000C007378
(1721070405.702306) can0 45F#041800FF1EFC1050
(1721070405.703236) can0 460#9044087D40041208
(1721070405.703237) can0 461#78108303001C8488
(1721070405.703238) can0 153#086001FF0E04FF0E
(1721070405.704457) can0 186#0100D60700800300
(1721070405.704458) can0 1A3#0000000001001080
(1721070405.704458) can0 1F0#2C002C002C002C00
(1721070405.705482) can0 329#0026260000020100
(1721070405.705483) can0 0AF#C90068217E180000
(1721070405.705483) can0 37C#0000000000000080
(1721070405.706235) can0 58F#0001000000000000
(1721070405.707160) can0 316#C82600268A00003C
(1721070405.708421) can0 0C0#FAFF000775
(1721070405.709296) can0 581#0000260000254E00
(1721070405.710311) can0 51F#040100000C007378
(1721070405.712326) can0 45F#041800FF1EFB1054
(1721070405.712327) can0 460#9044087D50051608
(1721070405.712328) can0 461#78148203001C8487
(1721070405.713289) can0 329#0026260000030100
(1721070405.714283) can0 0AF#B70078207E180000
(1721070405.714967) can0 37C#0000000000000080
(1721070405.714968) can0 58F#0001000000000000
(1721070405.718186) can0 0C0#FAFF000746
(1721070405.719041) can0 15E#007D000000904000
(1721070405.720119) can0 316#C82600268A00003C
(1721070405.720120) can0 581#0000260000254E00
(1721070405.720121) can0 637#0201004F48000000
(1721070405.721051) can0 51F#040100000C007378
(1721070405.721052) can0 45F#041800FF1EFA1058
(1721070405.721053) can0 460#9044087D60051608
(1721070405.722009) can0 461#78188103001C8487
(1721070405.722088) can0 153#086001FF0004FF0E
(1721070405.722089) can0 186#0100D80700800200
(1721070405.722927) can0 1A3#0000000001001080
(1721070405.722928) can0 1F0#2C002C002C002C00
(1721070405.722928) can0 329#0026260000040100
(1721070405.724020) can0 0AF#7B0088207E180000
(1721070405.725020) can0 37C#0000000000000080
(1721070405.725933) can0 58F#0001000000000000
(1721070405.727061) can0 316#C82600268A00003C
(1721070405.728869) can0 0C0#FAFF000757
(1721070405.729830) can0 581#0000260000254E00
(1721070405.730861) can0 51F#040100000D007378
(1721070405.730862) can0 45F#041800FF1EF9105C
(1721070405.730863) can0 460#9044087D70051608
(1721070405.731558) can0 461#781C8003001C8488
(1721070405.732837) can0 329#0026260000050100
(1721070405.733794) can0 0AF#6F0098207E180000
(1721070405.734774) can0 37C#0000000000000080
(1721070405.735583) can0 58F#0001000000000000
(1721070405.736674) can0 613#0450208B5B007604
(1721070405.737702) can0 15E#007D000000904000
(1721070405.738675) can0 0C0#FAFF0007A8
(1721070405.738677) can0 316#C82600268A00003C
(1721070405.738677) can0 581#0000260000254E00
(1721070405.739360) can0 51F#040100000D007378
(1721070405.740653) can0 45F#041800FF1EF81060
(1721070405.741516) can0 460#9044087D80051608
(1721070405.741517) can0 461#78207F03001C8488
(1721070405.741518) can0 153#086001FF0104FF0E
(1721070405.742588) can0 186#0100D80700800300
(1721070405.742589) can0 1A3#0000000001001080
(1721070405.742590) can0 1F0#2C002C002C002C00
(1721070405.744546) can0 329#0026260000060100
(1721070405.744548) can0 0AF#4B00A8207E080000
(1721070405.745426) can0 37C#0000000000000080
(1721070405.746467) can0 58F#0001000000000000
(1721070405.747175) can0 5E0#0200000000000000
(1721070405.748475) can0 316#C82600268A00003C
(1721070405.748476) can0 0C0#FAFF0007B9
(1721070405.749316) can0 581#0000260000254E00
(1721070405.750322) can0 51F#040100000C007478
(1721070405.751088) can0 45F#041800FF1EF71064
(1721070405.751089) can0 460#9044087D90051608
(1721070405.751090) can0 461#78247E03001C8487
(1721070405.752305) can0 329#0026260000070100
(1721070405.753227) can0 0AF#5F00B8207E080000
(1721070405.754304) can0 37C#0000000000000080
(1721070405.754998) can0 58F#0001000000000000
(1721070405.756037) can0 0C0#FAFF01079A
(1721070405.757014) can0 15E#007D000000904000
(1721070405.758207) can0 316#C82600268A00003C
(1721070405.759048) can0 581#0000260000254E00
(1721070405.759880) can0 51F#040100000D007478
(1721070405.761021) can0 45F#041800FF1EF61068
(1721070405.761022) can0 460#9044087DA0051608
(1721070405.761023) can0 461#78287D03001C8488
(1721070405.763017) can0 153#086001FF0204FF0E
(1721070405.763019) can0 186#0100D60700800200
(1721070405.763019) can0 1A3#0000000001001080
(1721070405.764049) can0 1F0#2C002C002C002C00
(1721070405.764050) can0 329#0026260000080100
(1721070405.764959) can0 0AF#2B00C8207E180000
(1721070405.764960) can0 37C#0000000000000080
(1721070405.764961) can0 58F#0001000000000000
(1721070405.766951) can0 0C0#FAFF01078B
(1721070405.768952) can0 316#C82600268A00003C
(1721070405.769820) can0 57E#0100000000000000
(1721070405.769821) can0 581#0000260000254E00
(1721070405.770890) can0 51F#040100000C007478
(1721070405.770891) can0 45F#041800FF1EF5106C
(1721070405.770892) can0 460#9044087DB0041208
(1721070405.772853) can0 461#782C7C03001C8487
(1721070405.773797) can0 329#0026260000090100
(1721070405.774802) can0 0AF#3F00D8207E180000
(1721070405.774803) can0 37C#0000000000000080
(1721070405.775543) can0 58F#0001000000000000
(1721070405.776669) can0 0C0#FAFF0007EC
(1721070405.777608) can0 15E#007D000000904000
(1721070405.778667) can0 316#C82600268A00003C
(1721070405.778668) can0 581#0000260000254E00
(1721070405.780678) can0 51F#040100000C007478
(1721070405.781539) can0 45F#041800FF1EF41070
(1721070405.783520) can0 460#9044087DC0051608
(1721070405.783521) can0 461#78307B03001C8487
(1721070405.783521) can0 153#086001FF0304FF0E
(1721070405.785590) can0 186#0100D80700800300
(1721070405.785592) can0 1A3#0000000001001080
(1721070405.785592) can0 1F0#2C002C002C002C00
(1721070405.786316) can0 329#00262600000A0100
(1721070405.786317) can0 0AF#EC00E8207E27FF00
(1721070405.786319) can0 37C#0000000000000080
(1721070405.787181) can0 58F#0001000000000000
(1721070405.788273) can0 316#C82600268A00003C
(1721070405.788274) can0 0C0#FAFF0007FD
(1721070405.789237) can0 581#0000260000254E00
(1721070405.790156) can0 51F#040100000C007478
(1721070405.791101) can0 45F#041800FF1EF31074
(1721070405.791102) can0 460#9044087DD0051608
(1721070405.791103) can0 461#78347A03001C8488
(1721070405.792127) can0 329#00262600000B0100
(1721070405.793065) can0 0AF#D000F8207E17FF00
(1721070405.794056) can0 37C#0000000000000080
(1721070405.794974) can0 58F#0001000000000000
(1721070405.795909) can0 15E#007D000000904000
(1721070405.796952) can0 316#C82600268A00003C
(1721070405.797871) can0 0C0#FAFF0007CE
(1721070405.798883) can0 581#0000260000254E00
(1721070405.799846) can0 51F#040100000D007478
(1721070405.800838) can0 45F#041800FF1EF21078
(1721070405.801996) can0 460#9044087DE0051608
(1721070405.801997) can0 461#78387903001C8488
(1721070405.801997) can0 153#086001FF0404FF0E
(1721070405.802976) can0 186#0100D80700800300
(1721070405.802976) can0 1A3#0000000001001080
(1721070405.802977) can0 1F0#2C002C002C002C00
(1721070405.803949) can0 329#00262600000C0100
(1721070405.803950) can0 0AF#1C0008207E17FF00
(1721070405.804931) can0 37C#0000000000000080
(1721070405.804932) can0 58F#0001000000000000
(1721070405.807855) can0 316#C82600268A00003C
(1721070405.808842) can0 0C0#FAFF0107CF
(1721070405.809751) can0 581#0000260000254E00
(1721070405.809751) can0 51F#040100000C007478
(1721070405.811779) can0 45F#041800FF1EF1107C
(1721070405.811780) can0 460#9044087DF0051608
(1721070405.812732) can0 461#783C7803001C8488
(1721070405.813753) can0 329#00262600000D0100
(1721070405.813754) can0 0AF#080018207E17FF00
(1721070405.814688) can0 37C#0000000000000080
(1721070405.816676) can0 58F#0001000000000000
(1721070405.817628) can0 15E#007D000000904000
(1721070405.818656) can0 316#C82600268A00003C
(1721070405.818657) can0 0C0#FAFF010730
(1721070405.818658) can0 581#0000260000254E00
(1721070405.820413) can0 51F#040100000C007478
(1721070405.821551) can0 45F#041800FF1E001040
(1721070405.822515) can0 460#9044087D00051608
(1721070405.822516) can0 153#086001FF0504FF0E
(1721070405.822516) can0 186#0100D80700800300
(1721070405.824555) can0 1A3#0000000001001080
(1721070405.824556) can0 1F0#2C002C002C002C00
(1721070405.824556) can0 461#78008703001C8487
(1721070405.825520) can0 329#00262600000E0100
(1721070405.825521) can0 0AF#340028207E17FF00
(1721070405.826286) can0 37C#0000000000000080
(1721070405.826287) can0 58F#0001000000000000
(1721070405.827185) can0 316#C82600268A00003C
(1721070405.828418) can0 0C0#FAFF000731
(1721070405.829529) can0 581#0000260000254E00
(1721070405.831357) can0 51F#040100000C007478
(1721070405.832106) can0 45F#041800FF1EFF1044
(1721070405.832107) can0 460#9044087D10041208
(1721070405.832108) can0 461#78048603001C8488
(1721070405.833416) can0 329#00262600000F0100
(1721070405.833418) can0 0AF#200038207E17FF00
(1721070405.835299) can0 37C#0000000000000080
(1721070405.836260) can0 58F#0001000000000000
(1721070405.837210) can0 15E#007D000000904000
(1721070405.838256) can0 316#C82600268A00003C
(1721070405.838946) can0 613#0450208B5B007604
(1721070405.838947) can0 0C0#FAFF000702
(1721070405.838948) can0 581#0000260000254E00
(1721070405.840227) can0 51F#040100000C007478
(1721070405.841184) can0 45F#041800FF1EFE1048
(1721070405.841186) can0 460#9044087D20051608
(1721070405.841917) can0 461#78088503001C8488
(1721070405.841918) can0 153#086001FF0604FF0E
(1721070405.841919) can0 186#0100D80700800300
(1721070405.843044) can0 1A3#0000000001001080
(1721070405.843045) can0 1F0#2C002C002C002C00
(1721070405.843046) can0 329#0026260000000100
(1721070405.845075) can0 0AF#4C0048207E17FF00
(1721070405.846073) can0 37C#0000000000000080
(1721070405.846075) can0 58F#0001000000000000
(1721070405.846956) can0 5E0#0200000000000000
(1721070405.847864) can0 0C0#FAFF000713
(1721070405.847865) can0 316#C82600268A00003C
(1721070405.848870) can0 581#0000260000254E00
(1721070405.849741) can0 51F#040100000D007378
(1721070405.850852) can0 45F#041800FF1EFD104C
(1721070405.850853) can0 460#9044087D30051608
(1721070405.851762) can0 461#780C8403001C8488
(1721070405.852928) can0 329#0026260000010100
(1721070405.854896) can0 0AF#9F0058207E180000
(1721070405.855702) can0 37C#0000000000000080
(1721070405.856879) can0 58F#0001000000000000
(1721070405.857478) can0 15E#007D000000904000
(1721070405.858786) can0 0C0#FAFF000764
(1721070405.858787) can0 316#C82600268A00003C
(1721070405.858788) can0 581#0000260000254E00
(1721070405.859422) can0 51F#040100000C007378
(1721070405.860744) can0 45F#041800FF1EFC1050
(1721070405.861401) can0 460#9044087D40051608
(1721070405.861402) can0 153#086001FF0704FF0E
(1721070405.861403) can0 186#0100D80700800300
(1721070405.862684) can0 1A3#0000000001001080
(1721070405.862685) can0 1F0#2C002C002C002C00
(1721070405.862686) can0 461#78108303001C8488
(1721070405.863351) can0 329#0026260000020100
(1721070405.863352) can0 0AF#BB0068207E080000
(1721070405.864653) can0 37C#0000000000000080
(1721070405.866546) can0 58F#0001000000000000
(1721070405.867249) can0 57E#0100000000000000
(1721070405.868638) can0 0C0#FAFF000775
(1721070405.868639) can0 316#C82600268A00003C
(1721070405.868640) can0 581#0000260000254E00
(1721070405.870466) can0 51F#040100000C007378
(1721070405.871152) can0 45F#041800FF1EFB1054
(1721070405.872436) can0 460#9044087D50051608
(1721070405.872438) can0 461#78148203001C8488
(1721070405.873305) can0 329#0026260000030100
(1721070405.874367) can0 0AF#CE00781F7DF80000
(1721070405.875045) can0 37C#0000000000000080
(1721070405.875046) can0 58F#0001000000000000
(1721070405.875978) can0 15E#007D000000904000
(1721070405.877248) can0 316#C82600268A00003C
(1721070405.878166) can0 0C0#FAFF000746
(1721070405.879158) can0 581#0000260000254E00
(1721070405.881250) can0 51F#040100000D007378
(1721070405.882940) can0 45F#041800FF1EFA1058
(1721070405.882942) can0 460#9044087D60051608
(1721070405.882942) can0 153#086001FF0804FF0E
(1721070405.884127) can0 186#0100D40700800200
(1721070405.884129) can0 1A3#0000000001001080
(1721070405.884130) can0 1F0#2C002C002C002C00
(1721070405.884939) can0 461#7818810300188487
(1721070405.884940) can0 329#0026260000040100
(1721070405.884941) can0 0AF#0200881F7DF80000
(1721070405.886116) can0 37C#0000000000000080
(1721070405.886118) can0 58F#0001000000000000
(1721070405.886809) can0 316#C82600268A00003C
(1721070405.887850) can0 0C0#FAFF000757
(1721070405.889055) can0 581#0000260000254E00
(1721070405.890906) can0 51F#040100000C007378
(1721070405.892978) can0 45F#041800FF1EF9105C
(1721070405.892979) can0 460#9044087D70051608
(1721070405.894845) can0 461#781C800300188488
(1721070405.894846) can0 329#0026260000050100
(1721070405.895717) can0 0AF#450098207DF80000
(1721070405.895718) can0 37C#0000000000000080
(1721070405.895719) can0 58F#0001000000000000
(1721070405.896872) can0 15E#007D000000904000
(1721070405.897608) can0 316#C82600268A00003C
(1721070405.898799) can0 0C0#FAFF0007A8
(1721070405.898800) can0 581#0000260000254E00
(1721070405.899495) can0 51F#040100000C007378
(1721070405.900766) can0 45F#041800FF1EF81060
(1721070405.902713) can0 460#9044087D80051608
(1721070405.902715) can0 153#086001FF0904FF0E
(1721070405.902716) can0 186#0100D40700800300
(1721070405.903334) can0 1A3#0000000001001080
(1721070405.903335) can0 1F0#2C002C002C002C00
(1721070405.903336) can0 461#78207F03001C8487
(1721070405.904560) can0 329#0026260000060100
(1721070405.904562) can0 0AF#7900A8207DF80000
(1721070405.904563) can0 37C#0000000000000080
(1721070405.905600) can0 58F#0001000000000000
(1721070405.906610) can0 316#C82600268A00003C
(1721070405.907289) can0 0C0#FAFF0007B9
(1721070405.908266) can0 581#0000260000254E00
(1721070405.909462) can0 51F#040100000D007378
(1721070405.910445) can0 45F#041800FF1EF71064
(1721070405.911284) can0 460#9044087D90051608
(1721070405.911286) can0 461#78247E03001C8488
(1721070405.912481) can0 329#0026260000070100
(1721070405.913194) can0 0AF#3500B8217E080000
(1721070405.914296) can0 37C#0000000000000080
(1721070405.915065) can0 58F#0001000000000000
(1721070405.916197) can0 15E#007D000000904000
(1721070405.917267) can0 0C0#FAFF00078A
(1721070405.918172) can0 316#C82600268A00003C
(1721070405.918971) can0 581#0000260000254E00
(1721070405.919963) can0 51F#040100000C007378
(1721070405.920928) can0 45F#041800FF1EF61068
(1721070405.920929) can0 460#9044087DA0051608
(1721070405.921966) can0 153#086001FF0A04FF0E
(1721070405.921967) can0 186#0100D60700800300
(1721070405.921968) can0 1A3#0000000001001080
(1721070405.922878) can0 1F0#2C002C002C002C00
(1721070405.922879) can0 461#78287D03001C8488
(1721070405.922880) can0 329#0026260000080100
(1721070405.923886) can0 0AF#8600C8217E17FF00
(1721070405.924820) can0 37C#0000000000000080
(1721070405.924821) can0 58F#0001000000000000
(1721070405.926846) can0 316#C82600268A00003C
(1721070405.927758) can0 0C0#FAFF00079B
(1721070405.928820) can0 581#0000260000254E00
(1721070405.929623) can0 51F#040100000C007378
(1721070405.930599) can0 45F#041800FF1EF5106C
(1721070405.931578) can0 460#9044087DB0051608
(1721070405.931579) can0 461#782C7C03001C8488
(1721070405.932551) can0 329#0026260000090100
(1721070405.933529) can0 0AF#F800D8207E17FF00
(1721070405.934506) can0 37C#0000000000000080
(1721070405.936498) can0 58F#0001000000000000
(1721070405.937428) can0 613#0450208B5B007604
(1721070405.938404) can0 15E#007D000000904000
(1721070405.938405) can0 0C0#FAFF0107FC
(1721070405.938405) can0 316#C82600268A00003C
(1721070405.939386) can0 581#0000260000254E00
(1721070405.939386) can0 51F#040100000C007378
(1721070405.942639) can0 45F#041800FF1EF41070
(1721070405.943502) can0 460#9044087DC0051608
(1721070405.943503) can0 461#78307B03001C8488
(1721070405.943503) can0 153#086001FF0B04FF0E
(1721070405.943510) can0 186#0100D80700800300
(1721070405.943510) can0 1A3#0000000001001080
(1721070405.943511) can0 1F0#2C002C002C002C00
(1721070405.944270) can0 329#00262600000A0100
(1721070405.944272) can0 0AF#9700E81F7E17FF00
(1721070405.945248) can0 37C#0000000000000080
(1721070405.945248) can0 58F#0001000000000000
(1721070405.946288) can0 316#C82600268A00003C
(1721070405.947212) can0 0C0#FAFF0107ED
(1721070405.948227) can0 5E0#0200000000000000
(1721070405.949194) can0 581#0000260000254E00
(1721070405.950128) can0 51F#040100000C007478
(1721070405.951153) can0 45F#041800FF1EF31074
(1721070405.951153) can0 460#9044087DD0051608
(1721070405.951153) can0 461#78347A0300188488
(1721070405.952088) can0 329#00262600000B0100
(1721070405.953084) can0 0AF#9B00F81F7E07FF00
(1721070405.954104) can0 37C#0000000000000080
(1721070405.955022) can0 58F#0001000000000000
(1721070405.956029) can0 15E#007D000000904000
(1721070405.957008) can0 316#C82600268A00003C
(1721070405.958288) can0 0C0#FAFF0107DE
(1721070405.960028) can0 581#0000260000254E00
(1721070405.961027) can0 51F#040100000C007478
(1721070405.961945) can0 45F#041800FF1EF21078
(1721070405.961946) can0 460#9044087DE0051608
(1721070405.961946) can0 153#086001FF0C04FF0E
(1721070405.963016) can0 186#0100D60700800200
(1721070405.963016) can0 1A3#0000000001001080
(1721070405.963017) can0 1F0#2C002C002C002C00
(1721070405.964118) can0 461#7838790300188488
(1721070405.964119) can0 329#00262600000C0100
(1721070405.964119) can0 0AF#5700081F7E07FF00
(1721070405.965163) can0 37C#0000000000000080
(1721070405.965164) can0 58F#0001000000000000
(1721070405.967050) can0 57E#0100000000000000
(1721070405.968071) can0 316#C82600268A00003C
(1721070405.969985) can0 0C0#FAFF0007DF
(1721070405.969987) can0 581#0000260000254E00
(1721070405.970996) can0 51F#040100000C007478
(1721070405.971986) can0 45F#041800FF1EF1107C
(1721070405.971988) can0 460#9044087DF0051608
(1721070405.971988) can0 461#783C780300188488
(1721070405.973247) can0 329#00262600000D0100
(1721070405.974070) can0 0AF#4300181F7E07FF00
(1721070405.974933) can0 37C#0000000000000080
(1721070405.974935) can0 58F#0001000000000000
(1721070405.975793) can0 15E#007D000000904000
(1721070405.976933) can0 316#C82600268A00003C
(1721070405.977849) can0 0C0#FAFF010730
(1721070405.978830) can0 581#0000260000254E00
(1721070405.979804) can0 51F#040100000C007478
(1721070405.980778) can0 45F#041800FF1E001040
(1721070405.982045) can0 460#9044087D00051608
(1721070405.983737) can0 153#086001FF0D04FF0E
(1721070405.983738) can0 186#0100D60700800300
(1721070405.983739) can0 1A3#0000000001001080
(1721070405.984853) can0 1F0#2C002C002C002C00
(1721070405.984854) can0 461#7800870300188488
(1721070405.984855) can0 329#00262600000E0100
(1721070405.986844) can0 0AF#2C0028207E07FF00
(1721070405.986846) can0 37C#0000000000000080
(1721070405.986846) can0 58F#0001000000000000
(1721070405.987725) can0 316#C82600268A00003C
(1721070405.988850) can0 0C0#FAFF000731
(1721070405.988852) can0 581#0000260000254E00
(1721070405.990864) can0 51F#040100000C007478
(1721070405.991583) can0 45F#041800FF1EFF1044
(1721070405.992887) can0 460#9044087D10051608
(1721070405.992889) can0 461#78048603001C8488
(1721070405.992890) can0 329#00262600000F0100
(1721070405.994696) can0 0AF#380038207E07FF00
(1721070405.995358) can0 37C#0000000000000080
(1721070405.995359) can0 58F#0001000000000000
(1721070405.996689) can0 15E#007D000000904000
(1721070405.997455) can0 316#C82600268A00003C
(1721070405.998333) can0 0C0#FAFF000702
(1721070405.998334) can0 581#0000260000254E00
(1721070405.999427) can0 51F#040100000C007478
(1721070406.000544) can0 45F#041800FF1EFE1048
(1721070406.001515) can0 460#9044087D20041208
(1721070406.001517) can0 153#086001FF0E04FF0E
(1721070406.002322) can0 186#0100D60700800300
(1721070406.002324) can0 1A3#0000000001001080
(1721070406.002324) can0 1F0#2C002C002C002C00
(1721070406.003216) can0 461#78088503001C8488
(1721070406.003217) can0 329#0026260000000100
(1721070406.003218) can0 0AF#540048207E07FF00
(1721070406.004456) can0 37C#0000000000000080
(1721070406.005331) can0 58F#0001000000000000
(1721070406.006341) can0 316#C82600268A00003C
(1721070406.007097) can0 0C0#FAFF000713
(1721070406.008105) can0 581#0000260000254E00
(1721070406.009044) can0 51F#040100000C007478
(1721070406.010349) can0 45F#041800FF1EFD104C
(1721070406.010980) can0 460#9044087D30051608
(1721070406.012227) can0 461#780C8403001C8488
(1721070406.013271) can0 329#0026260000010100
(1721070406.014050) can0 0AF#580058207E17FF00
(1721070406.015070) can0 37C#0000000000000080
(1721070406.015072) can0 58F#0001000000000000
(1721070406.017197) can0 15E#007D000000904000
(1721070406.019050) can0 316#C82600268A00003C
(1721070406.021031) can0 0C0#FAFF000764
(1721070406.021033) can0 581#0000260000254E00
(1721070406.022023) can0 51F#040100000C007478
(1721070406.022024) can0 45F#041800FF1EFC1050
(1721070406.022025) can0 460#9044087D40051608
(1721070406.022817) can0 153#086001FF0004FF0E
(1721070406.022819) can0 186#0100D80700800300
(1721070406.022819) can0 1A3#0000000001001080
(1721070406.023689) can0 1F0#2C002C002C002C00
(1721070406.023690) can0 461#78108303001C8488
(1721070406.023691) can0 329#0026260000020100
(1721070406.024905) can0 0AF#640068207E17FF00
(1721070406.024906) can0 37C#0000000000000080
(1721070406.024907) can0 58F#0001000000000000
(1721070406.025802) can0 316#C82600268A00003C
(1721070406.026858) can0 0C0#FAFF000775
(1721070406.027716) can0 581#0000260000254E00
(1721070406.028801) can0 51F#040100000D007478
(1721070406.029730) can0 45F#041800FF1EFB1054
(1721070406.030851) can0 460#9044087D50051608
(1721070406.031642) can0 461#78148203001C8488
(1721070406.032799) can0 329#0026260000030100
(1721070406.033435) can0 0AF#700078207E17FF00
(1721070406.034425) can0 37C#0000000000000080
(1721070406.034426) can0 58F#0001000000000000
(1721070406.036706) can0 15E#007D000000904000
(1721070406.037465) can0 316#C82600268A00003C
(1721070406.038646) can0 0C0#FAFF000746
(1721070406.038647) can0 613#0450208A5B007604
(1721070406.038648) can0 581#0000260000254E00
(1721070406.039302) can0 51F#040100000C007478
(1721070406.040610) can0 45F#041800FF1EFA1058
(1721070406.041287) can0 460#9044087D60051608
(1721070406.041288) can0 153#086001FF0104FF0E
(1721070406.042547) can0 186#0100D80700800300
(1721070406.042549) can0 1A3#0000000001001080
(1721070406.042550) can0 1F0#2C002C002C002C00
(1721070406.043199) can0 461#78188103001C8488
(1721070406.043200) can0 329#0026260000040100
(1721070406.043201) can0 0AF#EF00881F7E17FF00
(1721070406.044493) can0 37C#0000000000000080
(1721070406.045339) can0 58F#0001000000000000
(1721070406.046177) can0 5E0#0200000000000000
(1721070406.047274) can0 316#C82600268A00003C
(1721070406.049387) can0 0C0#FAFF000757
(1721070406.051189) can0 581#0000260000254E00
(1721070406.051190) can0 51F#040100000D007478
(1721070406.053318) can0 45F#041800FF1EF9105C
(1721070406.053320) can0 460#9044087D70061A08
(1721070406.053320) can0 461#781C800300188488
(1721070406.055159) can0 329#0026260000050100
(1721070406.057173) can0 0AF#E300981F7E07FF00
(1721070406.057174) can0 37C#0000000000000080
(1721070406.057175) can0 58F#0001000000000000
(1721070406.059063) can0 15E#007D000000904000
(1721070406.059778) can0 316#C82600268A00003C
(1721070406.059780) can0 0C0#FAFF0007A8
(1721070406.059780) can0 581#0000260000254E00
(1721070406.061133) can0 51F#040100000C007478
(1721070406.061134) can0 45F#041800FF1EF81060
(1721070406.061135) can0 460#9044087D80041208
(1721070406.061727) can0 153#086001FF0204FF0E
(1721070406.061728) can0 186#0100D60700800300
(1721070406.061729) can0 1A3#0000000001001080
(1721070406.062760) can0 1F0#2C002C002C002C00
(1721070406.062761) can0 329#0026260000060100
(1721070406.062762) can0 461#78207F0300188488
(1721070406.063807) can0 0AF#8C00A8207E07FF00
(1721070406.064913) can0 37C#0000000000000080
(1721070406.064914) can0 58F#0001000000000000
(1721070406.066995) can0 316#C82600268A00003C
(1721070406.068914) can0 57E#0100000000000000
(1721070406.069832) can0 0C0#FAFF0007B9
(1721070406.069834) can0 581#0000260000254E00
(1721070406.070820) can0 51F#040100000C007478
(1721070406.070822) can0 45F#041800FF1EF71064
(1721070406.071693) can0 460#9044087D90051608
(1721070406.071694) can0 461#78247E03001C8488
(1721070406.072787) can0 329#0026260000070100
(1721070406.073749) can0 0AF#AA00B8207DF7FF00
(1721070406.074628) can0 37C#0000000000000080
(1721070406.074630) can0 58F#0001000000000000
(1721070406.076762) can0 15E#007D000000904000
(1721070406.077394) can0 316#C82600268A00003C
(1721070406.078660) can0 0C0#FAFF00078A
(1721070406.078661) can0 581#0000260000254E00
(1721070406.079334) can0 51F#040100000C007478
(1721070406.080618) can0 45F#041800FF1EF61068
(1721070406.081550) can0 460#9044087DA0051608
(1721070406.081552) can0 153#086001FF0304FF0E
(1721070406.082281) can0 186#0100D40700800300
(1721070406.082282) can0 1A3#0000000001001080
(1721070406.082283) can0 1F0#2C002C002C002C00
(1721070406.083199) can0 329#0026260000080100
(1721070406.083200) can0 461#78287D03001C8488
(1721070406.083201) can0 0AF#C600C8207DF7FF00
(1721070406.084520) can0 37C#0000000000000080
(1721070406.085200) can0 58F#0001000000000000
(1721070406.086412) can0 316#C82600268A00003C
(1721070406.087176) can0 581#0000260000254E00
(1721070406.088328) can0 0C0#FAFF00079B
(1721070406.090364) can0 51F#040100000C007478
(1721070406.091015) can0 45F#041800FF1EF5106C
(1721070406.092345) can0 460#9044087DB0051608
(1721070406.092347) can0 461#782C7C03001C8488
(1721070406.092348) can0 329#0026260000090100
(1721070406.094291) can0 0AF#D200D8207DF7FF00
(1721070406.094928) can0 37C#0000000000000080
(1721070406.096157) can0 56F#00
(1721070406.096158) can0 58F#0001000000000000
(1721070406.097104) can0 15E#007D000000904000
(1721070406.098087) can0 316#C82600268A00003C
(1721070406.098089) can0 0C0#FAFF0007EC
(1721070406.098090) can0 581#0000260000254E00
(1721070406.098879) can0 51F#040100000C007478
(1721070406.099934) can0 45F#041800FF1EF41070
(1721070406.101113) can0 460#9044087DC0061A08
(1721070406.101960) can0 153#086001FF0404FF0E
(1721070406.101961) can0 186#0100D40700800300
(1721070406.101962) can0 1A3#0000000001001080
(1721070406.102907) can0 1F0#2C002C002C002C00
(1721070406.102909) can0 329#00262600000A0100
(1721070406.102909) can0 461#78307B03001C8488
(1721070406.105044) can0 0AF#BD00E81F7DF7FF00
(1721070406.106897) can0 37C#0000000000000080
(1721070406.106899) can0 58F#0001000000000000
(1721070406.108907) can0 316#C82600268A00003C
(1721070406.109849) can0 0C0#FAFF0007FD
(1721070406.109850) can0 581#0000260000254F00
(1721070406.110551) can0 51F#040100000C007478
(1721070406.110552) can0 45F#041800FF1EF31074
(1721070406.111661) can0 460#9044087DD0051608
(1721070406.111662) can0 461#78347A0300188487
(1721070406.112727) can0 329#00262600000B0100
(1721070406.113809) can0 0AF#FA00F8207DF7FF00
(1721070406.114649) can0 37C#0000000000000080
(1721070406.114650) can0 58F#0001000000000000
(1721070406.116782) can0 15E#007D000000904000
(1721070406.118675) can0 316#C82600268A00003C
(1721070406.119314) can0 0C0#FAFF0007CE
(1721070406.119315) can0 581#0000260000254F00
(1721070406.120628) can0 51F#040100000C007478
(1721070406.121580) can0 45F#041800FF1EF21078
(1721070406.121581) can0 460#9044087DE0061A08
(1721070406.121582) can0 153#086001FF0504FF0E
(1721070406.122559) can0 186#0100D40700800300
(1721070406.122561) can0 1A3#0000000001001080
(1721070406.122561) can0 1F0#2C002C002C002C00
(1721070406.123214) can0 329#00262600000C0100
(1721070406.123214) can0 461#78387903001C8488
(1721070406.123215) can0 0AF#040008207E07FF00
(1721070406.124448) can0 37C#0000000000000080
(1721070406.124449) can0 58F#0001000000000000
(1721070406.126534) can0 316#C82600268A00003C
(1721070406.127140) can0 0C0#FAFF0007DF
(1721070406.128460) can0 581#0000260000254F00
(1721070406.129281) can0 51F#040100000D007478
(1721070406.130302) can0 45F#041800FF1EF1107C
(1721070406.131028) can0 460#9044087DF0051608
(1721070406.131029) can0 461#783C7803001C8488
(1721070406.132369) can0 329#00262600000D0100
(1721070406.134239) can0 0AF#080018207E17FF00
(1721070406.135063) can0 37C#0000000000000080
(1721070406.136080) can0 58F#0001000000000000
(1721070406.137227) can0 15E#007D000000904000
(1721070406.138170) can0 316#C82600268A00003C
(1721070406.138172) can0 613#0450208B5B007604
(1721070406.138173) can0 0C0#FAFF000720
(1721070406.138889) can0 581#0000260000254F00
(1721070406.138890) can0 51F#040100000D007478
(1721070406.140129) can0 45F#041800FF1E001040
(1721070406.141091) can0 460#9044087D00051608
(1721070406.142075) can0 153#086001FF0604FF0E
(1721070406.142076) can0 186#0100D80700800300
(1721070406.142077) can0 1A3#0000000001001080
(1721070406.142890) can0 1F0#2C002C002C002C00
(1721070406.142892) can0 329#00262600000E0100
(1721070406.142892) can0 461#78008703001C8488
(1721070406.143857) can0 0AF#340028207E17FF00
(1721070406.144941) can0 37C#0000000000000080
(1721070406.144943) can0 58F#0001000000000000
(1721070406.146901) can0 316#C82600268A00003C
(1721070406.148939) can0 5E0#0200000000000000
(1721070406.149865) can0 0C0#FAFF000731
(1721070406.149866) can0 581#0000260000254F00
(1721070406.150761) can0 51F#040100000D007478
(1721070406.150762) can0 45F#041800FF1EFF1044
(1721070406.151642) can0 460#9044087D10061A08
(1721070406.151643) can0 461#78048603001C8488
(1721070406.152839) can0 329#00262600000F0100
(1721070406.153771) can0 0AF#200038207E17FF00
(1721070406.154500) can0 37C#0000000000000080
(1721070406.154501) can0 58F#0001000000000000
(1721070406.155374) can0 15E#007D000000904000
(1721070406.156780) can0 316#C82600268A00003C
(1721070406.158703) can0 0C0#FAFF000702
(1721070406.159326) can0 581#0000260000254F00
(1721070406.160493) can0 51F#040100000C007478
(1721070406.162639) can0 45F#041800FF1EFE1048
(1721070406.162641) can0 153#086001FF0704FF0E
(1721070406.162641) can0 186#0100D80700800300
(1721070406.164556) can0 1A3#0000000001001080
(1721070406.164557) can0 1F0#2C002C002C002C00
(1721070406.164558) can0 460#9044087D20061A08
(1721070406.166451) can0 329#0026260000000100
(1721070406.166453) can0 461#78088503001C8488
(1721070406.166453) can0 0AF#260048217E17FF00
(1721070406.167161) can0 37C#0000000000000080
(1721070406.167162) can0 58F#0001000000000000
(1721070406.168479) can0 57E#0100000000000000
(1721070406.168481) can0 316#C82600268A00003C
(1721070406.168482) can0 581#0000260000254F00
(1721070406.170440) can0 0C0#FAFF000713
(1721070406.170442) can0 51F#040100000C007478
(1721070406.172354) can0 45F#041800FF1EFD104C
(1721070406.173203) can0 460#9044087D30051608
(1721070406.173204) can0 461#780C8403001C8488
(1721070406.173205) can0 329#0026260000010100
(1721070406.174304) can0 0AF#580058207E17FF00
(1721070406.174305) can0 37C#0000000000000080
(1721070406.174952) can0 58F#0001000000000000
(1721070406.176331) can0 15E#007D000000904000
(1721070406.178166) can0 316#C82600268A00003C
(1721070406.180075) can0 581#0000260000254F00
(1721070406.180076) can0 0C0#FAFF010774
(1721070406.181062) can0 51F#040100000C007478
(1721070406.182011) can0 45F#041800FF1EFC1050
(1721070406.182013) can0 153#086001FF0804FF0E
(1721070406.182014) can0 186#0100D80700800300
(1721070406.182924) can0 1A3#0000000001001080
(1721070406.182925) can0 1F0#2C002C002C002C00
(1721070406.182926) can0 329#0026260000020100
(1721070406.183774) can0 460#9044087D40061A08
(1721070406.183775) can0 461#78108303001C8488
(1721070406.183776) can0 0AF#640068207E17FF00
(1721070406.184951) can0 37C#0000000000000080
(1721070406.184952) can0 58F#0001000000000000
(1721070406.185694) can0 316#C82600268A00003C
(1721070406.186918) can0 0C0#FAFF010765
(1721070406.188956) can0 581#0000260000254F00
(1721070406.189889) can0 51F#040100000C007478
(1721070406.190881) can0 45F#041800FF1EFB1054
(1721070406.191587) can0 460#9044087D50051608
(1721070406.191588) can0 461#78148203001C8488
(1721070406.192879) can0 329#0026260000030100
(1721070406.193774) can0 0AF#700078207E17FF00
(1721070406.194674) can0 37C#0000000000000080
(1721070406.194676) can0 58F#0001000000000000
(1721070406.195436) can0 15E#007D000000904000
(1721070406.196800) can0 316#C82600268A00003C
(1721070406.198712) can0 0C0#FAFF000746
(1721070406.199347) can0 581#0000260000254F00
(1721070406.200676) can0 51F#040100000D007478
(1721070406.202414) can0 45F#041800FF1EFA1058
(1721070406.202415) can0 460#9044087D60051608
(1721070406.202416) can0 153#086001FF0904FF0E
(1721070406.203317) can0 186#0100D80700800200
(1721070406.203319) can0 1A3#0000000001001080
(1721070406.203319) can0 1F0#2C002C002C002C00
(1721070406.204588) can0 329#0026260000040100
(1721070406.204590) can0 461#78188103001C8488
(1721070406.204590) can0 0AF#D60088217E17FF00
(1721070406.206468) can0 37C#0000000000000080
(1721070406.206470) can0 58F#0001000000000000
(1721070406.207182) can0 316#C82600268A00003C
(1721070406.208484) can0 0C0#FAFF000757
(1721070406.208486) can0 581#0000260000254F00
(1721070406.209410) can0 51F#040100000C007478
(1721070406.210299) can0 45F#041800FF1EF9105C
(1721070406.211085) can0 460#9044087D70051608
(1721070406.211086) can0 461#781C8003001C8488
(1721070406.212244) can0 329#0026260000050100
(1721070406.213361) can0 0AF#C20098217E17FF00
(1721070406.215247) can0 37C#0000000000000080
(1721070406.217279) can0 58F#0001000000000000
(1721070406.219114) can0 15E#007D000000904000
(1721070406.219116) can0 316#C82600268A00003C
(1721070406.221102) can0 0C0#FAFF0007A8
(1721070406.221103) can0 581#0000260000254F00
(1721070406.221104) can0 51F#040100000C007478
(1721070406.222094) can0 637#0202005247000000
(1721070406.222095) can0 45F#041800FF1EF81060
(1721070406.222096) can0 153#086001FF0A04FF0E
(1721070406.222787) can0 186#0100D80700800200
(1721070406.222788) can0 1A3#0000000001001080
(1721070406.222789) can0 1F0#2C002C002C002C00
(1721070406.224036) can0 329#0026260000060100
(1721070406.224038) can0 460#9044087D80051608
(1721070406.224038) can0 461#78207F03001C8488
(1721070406.224935) can0 0AF#8C00A8207E07FF00
(1721070406.224936) can0 37C#0000000000000080
(1721070406.224937) can0 58F#0001000000000000
(1721070406.225911) can0 316#C82600268A00003C
(1721070406.226897) can0 581#0000260000254F00
(1721070406.227784) can0 0C0#FAFF0007B9
(1721070406.228970) can0 51F#040100000C007478
(1721070406.229920) can0 45F#041800FF1EF71064
(1721070406.230878) can0 460#9044087D90061A08
(1721070406.231672) can0 461#78247E03001C8488
(1721070406.232879) can0 329#0026260000070100
(1721070406.233822) can0 0AF#9800B8207E07FF00
(1721070406.234662) can0 37C#0000000000000080
(1721070406.234663) can0 58F#0001000000000000
(1721070406.235488) can0 613#0450208B5B007604
(1721070406.236470) can0 15E#007D000000904000
(1721070406.237753) can0 316#C82600268A00003C
(1721070406.238689) can0 581#0000260000254F00
(1721070406.238690) can0 0C0#FAFF00078A
(1721070406.239358) can0 51F#040100000C007478
(1721070406.240689) can0 45F#041800FF1EF61068
(1721070406.241616) can0 460#9044087DA0051608
(1721070406.241617) can0 153#086001FF0B04FF0E
(1721070406.242506) can0 186#0100D60700800300
(1721070406.242508) can0 1A3#0000000001001080
(1721070406.242508) can0 1F0#2C002C002C002C00
(1721070406.243265) can0 329#0026260000080100
(1721070406.243266) can0 461#78287D03001C8488
(1721070406.243266) can0 0AF#F400C8207E07FF00
(1721070406.244492) can0 37C#0000000000000080
(1721070406.244493) can0 58F#0001000000000000
(1721070406.246569) can0 316#C82600268A00003C
(1721070406.247193) can0 5E0#0200000000000000
(1721070406.248469) can0 581#0000260000254F00
(1721070406.248470) can0 0C0#FAFF00079B
(1721070406.249430) can0 51F#040100000D007478
(1721070406.250311) can0 45F#041800FF1EF5106C
(1721070406.251084) can0 460#9044087DB0051608
(1721070406.251085) can0 461#782C7C03001C8488
(1721070406.252457) can0 329#0026260000090100
(1721070406.253221) can0 0AF#5500D8217E180000
(1721070406.254261) can0 37C#0000000000000080
(1721070406.254262) can0 58F#0001000000000000
(1721070406.257131) can0 316#C82600268A00003C
(1721070406.257974) can0 15E#007D000000904000
(1721070406.259006) can0 0C0#FAFF0007EC
(1721070406.259007) can0 581#0000260000254F00
(1721070406.259008) can0 51F#040100000D007478
(1721070406.259929) can0 45F#041800FF1EF41070
(1721070406.260888) can0 153#086001FF0C04FF0E
(1721070406.261845) can0 186#0100D80700800300
(1721070406.261846) can0 1A3#0000000001001080
(1721070406.261847) can0 1F0#2C002C002C002C00
(1721070406.262807) can0 329#00262600000A0100
(1721070406.262808) can0 460#9044087DC0051608
(1721070406.262809) can0 461#78307B03001C8488
(1721070406.263782) can0 0AF#6900E8217E180000
(1721070406.263783) can0 37C#0000000000000080
(1721070406.264854) can0 58F#0001000000000000
(1721070406.265784) can0 316#C82600268A00003C
(1721070406.266815) can0 57E#0100000000000000
(1721070406.267794) can0 581#0000260000254F00
(1721070406.268988) can0 0C0#FAFF0007FD
(1721070406.269918) can0 51F#040100000C007478
(1721070406.270813) can0 45F#041800FF1EF31074
(1721070406.271712) can0 460#9044087DD0051608
(1721070406.271713) can0 461#78347A03001C8488
(1721070406.272890) can0 329#00262600000B0100
(1721070406.273823) can0 0AF#7D00F8217E180000
(1721070406.274723) can0 37C#0000000000000080
(1721070406.274724) can0 58F#0001000000000000
(1721070406.275646) can0 15E#007D000000904000
(1721070406.276817) can0 316#C82600268A00003C
(1721070406.277550) can0 0C0#FAFF0007CE
(1721070406.278649) can0 581#0000260000254F00
(1721070406.279519) can0 51F#040100000C007478
(1721070406.280685) can0 45F#041800FF1EF21078
(1721070406.282755) can0 153#086001FF0D04FF0E
(1721070406.282757) can0 186#0100D80700800300
(1721070406.283346) can0 1A3#0000000001001080
(1721070406.283347) can0 1F0#2C002C002C002C00
(1721070406.283348) can0 329#00262600000C0100
(1721070406.284561) can0 460#9044087DE0051608
(1721070406.284562) can0 461#78387903001C8488
(1721070406.284563) can0 0AF#B10008217E180000
(1721070406.285635) can0 37C#0000000000000080
(1721070406.285637) can0 58F#0001000000000000
(1721070406.286304) can0 316#C82600268A00003C
(1721070406.287224) can0 0C0#FAFF0007DF
(1721070406.288456) can0 581#0000260000254F00
(1721070406.289438) can0 51F#040100000C007478
(1721070406.290487) can0 45F#041800FF1EF1107C
(1721070406.291104) can0 460#9044087DF0051608
(1721070406.291106) can0 461#783C7803001C8488
(1721070406.292375) can0 329#00262600000D0100
(1721070406.293303) can0 0AF#8F0018217DF80000
(1721070406.294033) can0 37C#0000000000000080
(1721070406.294034) can0 58F#0001000000000000
(1721070406.296025) can0 15E#007D000000904000
(1721070406.296963) can0 316#C82600268A00003C
(1721070406.297873) can0 581#0000260000254F00
(1721070406.297874) can0 0C0#FAFF000720
(1721070406.298853) can0 51F#040100000D007478
(1721070406.299875) can0 45F#041800FF1E001040
(1721070406.300818) can0 153#086001FF0E04FF0E
(1721070406.301725) can0 186#0100D40700800300
